(1738165739.801476) can1 501#0AA10002423806E3
(1738165739.831478) can1 508#02884E0086000032
(1738165739.861491) can1 50A#007E7E0100000000
(1738165739.871488) can1 50F#0000200000000000
(1738165739.872466) can1 4F1#0000000000000000
(1738165739.892247) can1 351#7C0B2C012003D809
(1738165739.894253) can1 355#4000640084024900
(1738165739.896271) can1 356#940A000000000000
(1738165739.898264) can1 358#380F0309150F0509
(1738165739.900283) can1 359#100001010D000203
(1738165739.901453) can1 501#0AA10002423806E3
(1738165739.902308) can1 35B#0101000000000000
(1738165739.904319) can1 35C#0800140004000C00
(1738165739.906340) can1 3D2#110000000000EEFC
(1738165739.908362) can1 35A#0000000000000000
(1738165739.931459) can1 508#02894E0087000032
(1738165739.961482) can1 50A#007E7E0100000000
(1738165739.971488) can1 509#4900000000000000
(1738165739.972454) can1 4F1#0000000000000000
(1738165740.001459) can1 501#0AA10002423806E3
(1738165740.031484) can1 508#02864E0087000032
(1738165740.061541) can1 50A#007E7E0100000000
(1738165740.071541) can1 50C#821C0E1013150382
(1738165740.072487) can1 4F1#0000000000000000
(1738165740.101483) can1 501#0AA10002423806E3
(1738165740.122229) can1 4FF#05
(1738165740.131478) can1 508#02894E0087000032
(1738165740.161507) can1 50A#007E7E0100000000
(1738165740.171505) can1 500#0112014400000102
(1738165740.172472) can1 4F1#0000000000000000
(1738165740.201477) can1 501#0AA10002423806E3
(1738165740.231493) can1 508#02894E0087000032
(1738165740.261504) can1 50A#007E7E0100000000
(1738165740.271492) can1 502#0000000000000000
(1738165740.272453) can1 4F1#0000000000000000
(1738165740.301453) can1 501#0AA10002423806E3
(1738165740.331463) can1 508#02894E0087000032
(1738165740.361549) can1 50A#007E7E0100000000
(1738165740.371540) can1 503#0000000000000000
(1738165740.372463) can1 4F1#0000000000000000
(1738165740.401502) can1 501#0AA10002423806E3
(1738165740.431499) can1 508#028A4E0087000032
(1738165740.461470) can1 50A#007E7E0100000000
(1738165740.471496) can1 505#0A94000010104000
(1738165740.472449) can1 4F1#0000000000000000
(1738165740.501450) can1 501#0AA10002423806E3
(1738165740.531448) can1 508#028A4E0087000032
(1738165740.561498) can1 50A#007E7E0100000000
(1738165740.571492) can1 50C#821C0E1013150382
(1738165740.571979) can1 506#0000010000028400
(1738165740.572472) can1 4F1#0000000000000000
(1738165740.601485) can1 501#0AA10002423806E3
(1738165740.622234) can1 4FF#05
(1738165740.631491) can1 508#028D4E0087000032
(1738165740.661518) can1 50A#007E7E0100000000
(1738165740.671507) can1 50D#0000DEA700008F5A
(1738165740.672463) can1 4F1#0000000000000000
(1738165740.701463) can1 501#0AA10002423806E3
(1738165740.731497) can1 508#028F4E0087000032
(1738165740.761525) can1 50A#007E7E0100000000
(1738165740.771508) can1 50E#00008FAE00000000
(1738165740.772450) can1 4F1#0000000000000000
(1738165740.801452) can1 501#0AA10002423806E3
(1738165740.831462) can1 508#028E4E0087000032
(1738165740.861466) can1 50A#007E7E0100000000
(1738165740.871470) can1 50F#0000200000000000
(1738165740.872441) can1 4F1#0000000000000000
(1738165740.901447) can1 501#0AA10002423806E3
(1738165740.904651) can1 351#7C0B2C012003D809
(1738165740.906684) can1 355#4000640084024900
(1738165740.908735) can1 356#940A000000000000
(1738165740.910687) can1 358#380F030B140F050A
(1738165740.912702) can1 359#100001010D000203
(1738165740.914723) can1 35B#0101000000000000
(1738165740.916731) can1 35C#0800140004000C00
(1738165740.918739) can1 3D2#110000000000EEFC
(1738165740.920769) can1 35A#0000000000000000
(1738165740.931460) can1 508#028C4E0086000032
(1738165740.961511) can1 50A#007E7E0100000000
(1738165740.971509) can1 509#4900000000000000
(1738165740.972460) can1 4F1#0000000000000000
(1738165741.001488) can1 501#0AA10002423806E3
(1738165741.031485) can1 508#028C4E0086000032
(1738165741.061498) can1 50A#007E7E0100000000
(1738165741.071513) can1 50C#821C0E1013150382
(1738165741.072475) can1 4F1#0000000000000000
(1738165741.101461) can1 501#0AA10002423806E3
(1738165741.122182) can1 4FF#05
(1738165741.131449) can1 508#028D4E0086000032
(1738165741.161513) can1 50A#007E7E0100000000
(1738165741.171508) can1 500#0112014400000102
(1738165741.172458) can1 4F1#0000000000000000
(1738165741.201463) can1 501#0AA10002423806E3
(1738165741.231470) can1 508#02894E0086000032
(1738165741.261488) can1 50A#007E7E0100000000
(1738165741.271487) can1 502#0000000000000000
(1738165741.272446) can1 4F1#0000000000000000
(1738165741.301456) can1 501#0AA10002423806E3
(1738165741.331470) can1 508#028B4E0086000032
(1738165741.361493) can1 50A#007E7E0100000000
(1738165741.371507) can1 503#0000000000000000
(1738165741.372461) can1 4F1#0000000000000000
(1738165741.401464) can1 501#0AA10002423806E3
(1738165741.431454) can1 508#028C4E0086000032
(1738165741.461498) can1 50A#007E7E0100000000
(1738165741.471504) can1 505#0A94000010104000
(1738165741.472452) can1 4F1#0000000000000000
(1738165741.501464) can1 501#0AA10002423806E3
(1738165741.531450) can1 508#028C4E0086000032
(1738165741.561506) can1 50A#007E7E0100000000
(1738165741.571467) can1 50C#821C0E1013150382
(1738165741.571953) can1 506#0000010000028400
(1738165741.572455) can1 4F1#0000000000000000
(1738165741.601455) can1 501#0AA10002423806E3
(1738165741.622191) can1 4FF#05
(1738165741.631467) can1 508#028B4E0086000032
(1738165741.661491) can1 50A#007E7E0100000000
(1738165741.671467) can1 50D#0000DEA700008F5A
(1738165741.672447) can1 4F1#0000000000000000
(1738165741.701447) can1 501#0AA10002423806E3
(1738165741.731447) can1 508#028E4E0086000032
(1738165741.761484) can1 50A#007E7E0100000000
(1738165741.771470) can1 50E#00008FAE00000000
(1738165741.772440) can1 4F1#0000000000000000
(1738165741.801472) can1 501#0AA10002423806E3
(1738165741.831463) can1 508#028E4E0086000032
(1738165741.861480) can1 50A#007E7E0100000000
(1738165741.871476) can1 50F#0000200000000000
(1738165741.872438) can1 4F1#0000000000000000
(1738165741.897080) can1 351#7C0B2C012003D809
(1738165741.899079) can1 355#4000640084024900
(1738165741.901102) can1 356#940A000000000000
(1738165741.901570) can1 501#0AA10002423806E3
(1738165741.903099) can1 358#380F0309150F0409
(1738165741.905123) can1 359#100001010D000203
(1738165741.907155) can1 35B#0101000000000000
(1738165741.909218) can1 35C#0800140004000C00
(1738165741.911168) can1 3D2#110000000000EEFC
(1738165741.913194) can1 35A#0000000000000000
(1738165741.931453) can1 508#028F4E0086000032
(1738165741.961472) can1 50A#007E7E0100000000
(1738165741.971491) can1 509#4900000000000000
(1738165741.972448) can1 4F1#0000000000000000
(1738165742.001468) can1 501#0AA10002423806E3
(1738165742.031452) can1 508#028E4E0086000032
(1738165742.061486) can1 50A#007E7E0100000000
(1738165742.071465) can1 50C#821C0E1013150382
(1738165742.072456) can1 4F1#0000000000000000
(1738165742.101453) can1 501#0AA10002423806E3
(1738165742.122183) can1 4FF#05
(1738165742.131470) can1 508#028A4E0086000032
(1738165742.161517) can1 50A#007E7E0100000000
(1738165742.171508) can1 500#0112014400000102
(1738165742.172551) can1 4F1#0000000000000000
(1738165742.201466) can1 501#0AA10002423806E3
(1738165742.231441) can1 508#028C4E0086000032
(1738165742.261470) can1 50A#007E7E0100000000
(1738165742.271465) can1 502#0000000000000000
(1738165742.272428) can1 4F1#0000000000000000
(1738165742.301474) can1 501#0AA10002423806E3
(1738165742.331424) can1 508#028C4E0086000032
(1738165742.361451) can1 50A#007E7E0100000000
(1738165742.371496) can1 503#0000000000000000
(1738165742.372461) can1 4F1#0000000000000000
(1738165742.401449) can1 501#0AA10002423806E3
(1738165742.431486) can1 508#028B4E0086000032
(1738165742.461478) can1 50A#007E7E0100000000
(1738165742.471486) can1 505#0A94000010104000
(1738165742.472447) can1 4F1#0000000000000000
(1738165742.501451) can1 501#0AA10002423806E3
(1738165742.531443) can1 508#028A4E0086000032
(1738165742.561494) can1 50A#007E7E0100000000
(1738165742.571459) can1 50C#821C0E1013150382
(1738165742.571943) can1 506#0000010000028400
(1738165742.572442) can1 4F1#0000000000000000
(1738165742.601450) can1 501#0AA10002423806E3
(1738165742.622172) can1 4FF#05
(1738165742.631437) can1 508#02894E0086000032
(1738165742.661458) can1 50A#007E7E0100000000
(1738165742.671446) can1 50D#0000DEA700008F5A
(1738165742.672435) can1 4F1#0000000000000000
(1738165742.701442) can1 501#0AA10002423806E3
(1738165742.731473) can1 508#02874E0086000032
(1738165742.761474) can1 50A#007E7E0100000000
(1738165742.771492) can1 50E#00008FAE00000000
(1738165742.772432) can1 4F1#0000000000000000
(1738165742.801450) can1 501#0AA10002423806E3
(1738165742.831440) can1 508#02894E0086000032
(1738165742.861488) can1 50A#007E7E0100000000
(1738165742.871502) can1 50F#0000200000000000
(1738165742.872467) can1 4F1#0000000000000000
(1738165742.889530) can1 351#7C0B2C012003D809
(1738165742.891534) can1 355#4000640084024900
(1738165742.893584) can1 356#940A000000000000
(1738165742.895554) can1 358#370F0309150F0409
(1738165742.897583) can1 359#100001010D000203
(1738165742.899591) can1 35B#0101000000000000
(1738165742.901484) can1 501#0AA10002423806E3
(1738165742.901929) can1 35C#0800140004000C00
(1738165742.903572) can1 3D2#110000000000EEFC
(1738165742.905596) can1 35A#0000000000000000
(1738165742.931434) can1 508#028B4E0087000032
(1738165742.961484) can1 50A#007E7E0100000000
(1738165742.971450) can1 509#4900000000000000
(1738165742.972411) can1 4F1#0000000000000000
(1738165743.001422) can1 501#0AA10002423806E3
(1738165743.031439) can1 508#028A4E0087000032
(1738165743.061461) can1 50A#007E7E0100000000
(1738165743.071463) can1 50C#821C0E1013150382
(1738165743.072430) can1 4F1#0000000000000000
(1738165743.101434) can1 501#0AA10002423806E3
(1738165743.122170) can1 4FF#05
(1738165743.131441) can1 508#028C4E0087000032
(1738165743.161449) can1 50A#007E7E0100000000
(1738165743.171473) can1 500#0112014400000102
(1738165743.172454) can1 4F1#0000000000000000
(1738165743.201469) can1 501#0AA10002423806E3
(1738165743.231445) can1 508#028A4E0087000032
(1738165743.261471) can1 50A#007E7E0100000000
(1738165743.271497) can1 502#0000000000000000
(1738165743.272439) can1 4F1#0000000000000000
(1738165743.301437) can1 501#0AA10002423806E3
(1738165743.331456) can1 508#028B4E0087000032
(1738165743.361456) can1 50A#007E7E0100000000
(1738165743.371459) can1 503#0000000000000000
(1738165743.372429) can1 4F1#0000000000000000
(1738165743.401445) can1 501#0AA10002423806E3
(1738165743.431433) can1 508#028A4E0087000032
(1738165743.461462) can1 50A#007E7E0100000000
(1738165743.471442) can1 505#0A94000010104000
(1738165743.472447) can1 4F1#0000000000000000
(1738165743.501450) can1 501#0AA10002423806E3
(1738165743.531428) can1 508#028A4E0087000032
(1738165743.561452) can1 50A#007E7E0100000000
(1738165743.571443) can1 50C#821C0E1013150382
(1738165743.571930) can1 506#0000010000028400
(1738165743.572427) can1 4F1#0000000000000000
(1738165743.601451) can1 501#0AA10002423806E3
(1738165743.622206) can1 4FF#05
(1738165743.631433) can1 508#02894E0087000032
(1738165743.661453) can1 50A#007E7E0100000000
(1738165743.671436) can1 50D#0000DEA700008F5A
(1738165743.672421) can1 4F1#0000000000000000
(1738165743.701426) can1 501#0AA10002423806E3
(1738165743.731433) can1 508#028A4E0087000032
(1738165743.761452) can1 50A#007D7E0100000000
(1738165743.771464) can1 50E#00008FAE00000000
(1738165743.772423) can1 4F1#0000000000000000
(1738165743.801437) can1 501#0AA10002423806E3
(1738165743.831426) can1 508#02894E0085000032
(1738165743.861453) can1 50A#007D7E0100000000
(1738165743.871461) can1 50F#0000200000000000
(1738165743.872435) can1 4F1#0000000000000000
(1738165743.901461) can1 501#0AA10002423806E3
(1738165743.901907) can1 351#7C0B2C012003D809
(1738165743.903916) can1 355#4000640084024900
(1738165743.905948) can1 356#940A000000000000
(1738165743.907965) can1 358#370F030A140F050A
(1738165743.909978) can1 359#100001010D000203
(1738165743.911995) can1 35B#0101000000000000
(1738165743.913987) can1 35C#0800140004000C00
(1738165743.916001) can1 3D2#110000000000EEFC
(1738165743.918051) can1 35A#0000000000000000
(1738165743.931463) can1 508#02884E0085000032
(1738165743.961494) can1 50A#007D7E0100000000
(1738165743.971461) can1 509#4900000000000000
(1738165743.972445) can1 4F1#0000000000000000
(1738165744.001433) can1 501#0AA10002423806E3
(1738165744.031419) can1 508#028A4E0085000032
(1738165744.061448) can1 50A#007D7E0100000000
(1738165744.071440) can1 50C#821C0E1013150381
(1738165744.072413) can1 4F1#0000000000000000
(1738165744.101420) can1 501#0AA10002423806E3
(1738165744.122159) can1 4FF#05
(1738165744.131419) can1 508#028B4E0085000032
(1738165744.161472) can1 50A#007D7E0100000000
(1738165744.171444) can1 500#0112014400000102
(1738165744.172443) can1 4F1#0000000000000000
(1738165744.201423) can1 501#0AA10002423806E3
(1738165744.231447) can1 508#028D4E0085000032
(1738165744.261440) can1 50A#007D7E0100000000
(1738165744.271455) can1 502#0000000000000000
(1738165744.272421) can1 4F1#0000000000000000
(1738165744.301413) can1 501#0AA10002423806E3
(1738165744.331424) can1 508#02C74E0085000032
(1738165744.361479) can1 50A#007D7D0100000000
(1738165744.371461) can1 503#0000000000000000
(1738165744.372412) can1 4F1#0000000000000000
(1738165744.401465) can1 501#0AA10002423806E3
(1738165744.431435) can1 508#02B54E0085000032
(1738165744.461473) can1 50A#007D7D0100000000
(1738165744.471449) can1 505#0A94000010104000
(1738165744.472441) can1 4F1#0000000000000000
(1738165744.501439) can1 501#0AA10002423806E3
(1738165744.531445) can1 508#02A54E0085000032
(1738165744.561458) can1 50A#007D7D0100000000
(1738165744.571446) can1 50C#821C0E1013150381
(1738165744.571924) can1 506#0000010000028400
(1738165744.572421) can1 4F1#0000000000000000
(1738165744.601440) can1 501#0AA10002423806E3
(1738165744.622161) can1 4FF#05
(1738165744.631418) can1 508#02A34E0085000032
(1738165744.661475) can1 50A#007D7D0100000000
(1738165744.671424) can1 50D#0000DEA700008F5A
(1738165744.672407) can1 4F1#0000000000000000
(1738165744.701413) can1 501#0AA10002423806E3
(1738165744.731448) can1 508#029C4E0085000032
(1738165744.761450) can1 50A#007D7D0100000000
(1738165744.771464) can1 50E#00008FAE00000000
(1738165744.772414) can1 4F1#0000000000000000
(1738165744.801428) can1 501#0AA10002423806E3
(1738165744.831453) can1 508#029B4E0086000032
(1738165744.861440) can1 50A#007D7D0100000000
(1738165744.871437) can1 50F#0000200000000000
(1738165744.872406) can1 4F1#0000000000000000
(1738165744.894321) can1 351#7C0B2C012003D809
(1738165744.896340) can1 355#4000640084024900
(1738165744.898353) can1 356#940A000000000000
(1738165744.900399) can1 358#390F0309150F0409
(1738165744.901427) can1 501#0AA10002423806E3
(1738165744.902371) can1 359#100001010D000203
(1738165744.904459) can1 35B#0101000000000000
(1738165744.906399) can1 35C#0800140004000C00
(1738165744.908425) can1 3D2#110000000000EEFC
(1738165744.910439) can1 35A#0000000000000000
(1738165744.931442) can1 508#02994E0086000032
(1738165744.961449) can1 50A#007D7D0100000000
(1738165744.971450) can1 509#4900000000000000
(1738165744.972420) can1 4F1#0000000000000000
(1738165745.001416) can1 501#0AA10002423806E3
(1738165745.031413) can1 508#02944E0086000032
(1738165745.061441) can1 50A#007D7D0100000000
(1738165745.071438) can1 50C#821C0E1013150382
(1738165745.072412) can1 4F1#0000000000000000
(1738165745.101435) can1 501#0AA10002423806E3
(1738165745.122174) can1 4FF#05
(1738165745.131439) can1 508#02924E0086000032
(1738165745.161444) can1 50A#007D7D0100000000
(1738165745.171440) can1 500#0112014400000102
(1738165745.172419) can1 4F1#0000000000000000
(1738165745.201416) can1 501#0AA10002423806E3
(1738165745.231433) can1 508#028E4E0086000032
(1738165745.261452) can1 50A#007D7D0100000000
(1738165745.271477) can1 502#0000000000000000
(1738165745.272413) can1 4F1#0000000000000000
(1738165745.301419) can1 501#0AA10002423806E3
(1738165745.331423) can1 508#028B4E0086000032
(1738165745.361434) can1 50A#007D7D0100000000
(1738165745.371443) can1 503#0000000000000000
(1738165745.372402) can1 4F1#0000000000000000
(1738165745.401421) can1 501#0AA10002423806E3
(1738165745.431440) can1 508#028A4E0086000032
(1738165745.461435) can1 50A#007D7D0100000000
(1738165745.471435) can1 505#0A94000010104000
(1738165745.472418) can1 4F1#0000000000000000
(1738165745.501452) can1 501#0AA10002423806E3
(1738165745.531417) can1 508#028A4E0086000032
(1738165745.561433) can1 50A#007D7D0100000000
(1738165745.571449) can1 50C#821C0E1013150382
(1738165745.571906) can1 506#0000010000028400
(1738165745.572409) can1 4F1#0000000000000000
(1738165745.601429) can1 501#0AA10002423806E3
(1738165745.622153) can1 4FF#05
(1738165745.631407) can1 508#02894E0086000032
(1738165745.661450) can1 50A#007D7D0100000000
(1738165745.671409) can1 50D#0000DEA700008F5A
(1738165745.672398) can1 4F1#0000000000000000
(1738165745.701396) can1 501#0AA10002423806E3
(1738165745.731432) can1 508#028F4E0086000032
(1738165745.761435) can1 50A#007D7D0100000000
(1738165745.771452) can1 50E#00008FAE00000000
(1738165745.772410) can1 4F1#0000000000000000
(1738165745.801399) can1 501#0AA10002423806E3
(1738165745.831416) can1 508#028C4E0086000032
(1738165745.861430) can1 50A#007D7D0100000000
(1738165745.871428) can1 50F#0000200000000000
(1738165745.872399) can1 4F1#0000000000000000
(1738165745.901399) can1 501#0AA10002423806E3
(1738165745.931423) can1 508#028C4E0086000032
(1738165745.961440) can1 50A#007D7D0100000000
(1738165745.966758) can1 351#7C0B2C012003D809
(1738165745.968775) can1 355#4000640084024900
(1738165745.970822) can1 356#940A000000000000
(1738165745.971439) can1 509#4900000000000000
(1738165745.972411) can1 4F1#0000000000000000
(1738165745.972883) can1 358#370F0307150F0409
(1738165745.974810) can1 359#100001010D000203
(1738165745.976843) can1 35B#0101000000000000
(1738165745.978848) can1 35C#0800140004000C00
(1738165745.980854) can1 3D2#110000000000EEFC
(1738165745.982881) can1 35A#0000000000000000
(1738165746.001410) can1 501#0AA10002423806E3
(1738165746.031414) can1 508#028C4E0086000032
(1738165746.061416) can1 50A#007D7D0100000000
(1738165746.071444) can1 50C#821C0E1013150382
(1738165746.072405) can1 4F1#0000000000000000
(1738165746.101417) can1 501#0AA10002423806E3
(1738165746.122141) can1 4FF#05
(1738165746.131402) can1 508#028A4E0086000032
(1738165746.161461) can1 50A#007D7D0100000000
(1738165746.171430) can1 500#0112014400000102
(1738165746.172415) can1 4F1#0000000000000000
(1738165746.201419) can1 501#0AA10002423806E3
(1738165746.231413) can1 508#028A4E0086000032
(1738165746.261413) can1 50A#007D7D0100000000
(1738165746.271442) can1 502#0000000000000000
(1738165746.272386) can1 4F1#0000000000000000
(1738165746.301383) can1 501#0AA10002423806E3
(1738165746.331426) can1 508#028A4E0086000032
(1738165746.361426) can1 50A#007D7D0100000000
(1738165746.371430) can1 503#0000000000000000
(1738165746.372393) can1 4F1#0000000000000000
(1738165746.401397) can1 501#0AA10002423806E3
(1738165746.431427) can1 508#028A4E0086000032
(1738165746.461476) can1 50A#007D7D0100000000
(1738165746.471466) can1 505#0A94000010104000
(1738165746.472420) can1 4F1#0000000000000000
(1738165746.501449) can1 501#0AA10002423806E3
(1738165746.531410) can1 508#028A4E0086000032
(1738165746.561422) can1 50A#007D7D0100000000
(1738165746.571401) can1 50C#821C0E1013150382
(1738165746.571904) can1 506#0000010000028400
(1738165746.572397) can1 4F1#0000000000000000
(1738165746.601405) can1 501#0AA10002423806E3
(1738165746.622176) can1 4FF#05
(1738165746.631420) can1 508#028A4E0086000032
(1738165746.661437) can1 50A#007D7D0100000000
(1738165746.671409) can1 50D#0000DEA700008F5A
(1738165746.672404) can1 4F1#0000000000000000
(1738165746.701400) can1 501#0AA10002423806E3
(1738165746.731438) can1 508#02874E0086000032
(1738165746.761429) can1 50A#007C7D0100000000
(1738165746.771462) can1 50E#00008FAE00000000
(1738165746.772408) can1 4F1#0000000000000000
(1738165746.801397) can1 501#0AA10002423806E3
(1738165746.831408) can1 508#028A4E0087000032
(1738165746.861411) can1 50A#007C7D0100000000
(1738165746.871417) can1 50F#0000200000000000
(1738165746.872407) can1 4F1#0000000000000000
(1738165746.885350) can1 351#7C0B2C012003D809
(1738165746.887339) can1 355#4000640084024900
(1738165746.889356) can1 356#940A000000000000
(1738165746.891347) can1 358#370F0307150F0409
(1738165746.893375) can1 359#100001010D000203
(1738165746.895400) can1 35B#0101000000000000
(1738165746.897404) can1 35C#0800140004000C00
(1738165746.899502) can1 3D2#110000000000EEFC
(1738165746.901426) can1 501#0AA10002423806E3
(1738165746.901901) can1 35A#0000000000000000
(1738165746.931415) can1 508#02874E0087000032
(1738165746.961410) can1 50A#007C7D0100000000
(1738165746.971409) can1 509#4900000000000000
(1738165746.972388) can1 4F1#0000000000000000
(1738165747.001384) can1 501#0AA10002423806E3
(1738165747.031401) can1 508#02874E0087000032
(1738165747.061407) can1 50A#007C7D0100000000
(1738165747.071451) can1 50C#821C0E1013150381
(1738165747.072391) can1 4F1#0000000000000000
(1738165747.101386) can1 501#0AA10002423806E3
(1738165747.122131) can1 4FF#05
(1738165747.131388) can1 508#028B4E0087000032
(1738165747.161409) can1 50A#007C7D0100000000
(1738165747.171407) can1 500#0112014400000102
(1738165747.172401) can1 4F1#0000000000000000
(1738165747.201420) can1 501#0AA10002423806E3
(1738165747.231417) can1 508#028B4E0087000032
(1738165747.261416) can1 50A#007C7C0100000000
(1738165747.271455) can1 502#0000000000000000
(1738165747.272397) can1 4F1#0000000000000000
(1738165747.301394) can1 501#0AA10002423806E3
(1738165747.331401) can1 508#021F4E0087000032
(1738165747.361411) can1 50A#007C7C0200000000
(1738165747.371417) can1 503#0000000000000000
(1738165747.372383) can1 4F1#0000000000000000
(1738165747.401388) can1 501#0AA10002423806E3
(1738165747.431420) can1 508#02364E0087000032
(1738165747.461428) can1 50A#007C7C0200000000
(1738165747.471457) can1 505#0A94000010104000
(1738165747.472414) can1 4F1#0000000000000000
(1738165747.501442) can1 501#0AA10002423806E3
(1738165747.531414) can1 508#026E4E0087000032
(1738165747.561407) can1 50A#007C7C0200000000
(1738165747.571398) can1 50C#821C0E1013150381
(1738165747.571896) can1 506#0000010000028400
(1738165747.572390) can1 4F1#0000000000000000
(1738165747.601383) can1 501#0AA10002423806E3
(1738165747.622147) can1 4FF#05
(1738165747.631392) can1 508#02764E0087000032
(1738165747.661413) can1 50A#007C7C0200000000
(1738165747.671386) can1 50D#0000DEA700008F5A
(1738165747.672379) can1 4F1#0000000000000000
(1738165747.701394) can1 501#0AA10002423806E3
(1738165747.731393) can1 508#02764E0087000032
(1738165747.761456) can1 50A#007C7C0200000000
(1738165747.771450) can1 50E#00008FAE00000000
(1738165747.772404) can1 4F1#0000000000000000
(1738165747.801437) can1 501#0AA10002423806E3
(1738165747.831420) can1 508#02774E0087000032
(1738165747.861416) can1 50A#007C7C0200000000
(1738165747.871410) can1 50F#0000200000000000
(1738165747.872396) can1 4F1#0000000000000000
(1738165747.897724) can1 351#7C0B2C012003D809
(1738165747.899743) can1 355#4000640084024900
(1738165747.901373) can1 501#0AA10002423806E3
(1738165747.901860) can1 356#940A000000000000
(1738165747.903769) can1 358#380F030B150F030E
(1738165747.905813) can1 359#100001010D000203
(1738165747.907837) can1 35B#0101000000000000
(1738165747.909809) can1 35C#0800140004000C00
(1738165747.911818) can1 3D2#110000000000EEFC
(1738165747.913840) can1 35A#0000000000000000
(1738165747.931379) can1 508#02724E0085000032
(1738165747.961404) can1 50A#007C7C0200000000
(1738165747.971393) can1 509#4900000000000000
(1738165747.972377) can1 4F1#0000000000000000
(1738165748.001368) can1 501#0AA10002423806E3
(1738165748.031385) can1 508#026E4E0085000032
(1738165748.061399) can1 50A#007C7C0200000000
(1738165748.071405) can1 50C#821C0E1013150382
(1738165748.072381) can1 4F1#0000000000000000
(1738165748.101401) can1 501#0AA10002423806E3
(1738165748.122122) can1 4FF#05
(1738165748.131374) can1 508#02754E0085000032
(1738165748.161398) can1 50A#007C7C0200000000
(1738165748.171403) can1 500#0112014400000102
(1738165748.172394) can1 4F1#0000000000000000
(1738165748.201379) can1 501#0AA10002423806E3
(1738165748.231372) can1 508#02744E0085000032
(1738165748.261437) can1 50A#007C7C0200000000
(1738165748.271440) can1 502#0000000000000000
(1738165748.272374) can1 4F1#0000000000000000
(1738165748.301372) can1 501#0AA10002423806E3
(1738165748.331382) can1 508#027C4E0085000032
(1738165748.361388) can1 50A#007C7C0200000000
(1738165748.371399) can1 503#0000000000000000
(1738165748.372360) can1 4F1#0000000000000000
(1738165748.401392) can1 501#0AA10002423806E3
(1738165748.431386) can1 508#02804E0085000032
(1738165748.461435) can1 50A#007C7C0200000000
(1738165748.471460) can1 505#0A94000010104000
(1738165748.472407) can1 4F1#0000000000000000
(1738165748.501381) can1 501#0AA10002423806E3
(1738165748.531401) can1 508#02814E0085000032
(1738165748.561408) can1 50A#007D7C0200000000
(1738165748.571372) can1 50C#821C0E1013150382
(1738165748.571868) can1 506#0000010000028400
(1738165748.572369) can1 4F1#0000000000000000
(1738165748.601368) can1 501#0AA10002423806E3
(1738165748.622098) can1 4FF#05
(1738165748.631365) can1 508#02814E0085000032
(1738165748.661402) can1 50A#007D7C0200000000
(1738165748.671381) can1 50D#0000DEA700008F5A
(1738165748.672364) can1 4F1#0000000000000000
(1738165748.701400) can1 501#0AA10002423806E3
(1738165748.731406) can1 508#027F4E0085000032
(1738165748.761396) can1 50A#007D7C0200000000
(1738165748.771412) can1 50E#00008FAE00000000
(1738165748.772374) can1 4F1#0000000000000000
(1738165748.801362) can1 501#0AA10002423806E3
(1738165748.831407) can1 508#02814E0085000032
(1738165748.861392) can1 50A#007D7C0200000000
(1738165748.871399) can1 50F#0000200000000000
(1738165748.872388) can1 4F1#0000000000000000
(1738165748.890118) can1 351#7C0B2C012003D809
(1738165748.892130) can1 355#4000640084024900
(1738165748.894149) can1 356#940A000000000000
(1738165748.896149) can1 358#380F0307150F0409
(1738165748.898163) can1 359#100001010D000203
(1738165748.900189) can1 35B#0101000000000000
(1738165748.901354) can1 501#0AA10002423806E3
(1738165748.902194) can1 35C#0800140004000C00
(1738165748.904207) can1 3D2#110000000000EEFC
(1738165748.906241) can1 35A#0000000000000000
(1738165748.931389) can1 508#02844E0087000032
(1738165748.961389) can1 50A#007D7C0200000000
(1738165748.971404) can1 509#4900000000000000
(1738165748.972364) can1 4F1#0000000000000000
(1738165749.001390) can1 501#0AA10002423806E3
(1738165749.031388) can1 508#02A34E0087000032
(1738165749.061425) can1 50A#007D7D0200000000
(1738165749.071398) can1 50C#821C0E1013150382
(1738165749.072363) can1 4F1#0000000000000000
(1738165749.101439) can1 501#0AA10002423806E3
(1738165749.122135) can1 4FF#05
(1738165749.131430) can1 508#02DD4E0087000032
(1738165749.161369) can1 50A#007D7D0200000000
(1738165749.171362) can1 500#0112014400000102
(1738165749.172363) can1 4F1#0000000000000000
(1738165749.201343) can1 501#0AA10002423806E3
(1738165749.231345) can1 508#02B74E0087000032
(1738165749.261415) can1 50A#007D7D0200000000
(1738165749.271442) can1 502#0000000000000000
(1738165749.272385) can1 4F1#0000000000000000
(1738165749.301410) can1 501#0AA10002423806E3
(1738165749.331394) can1 508#02B64E0087000032
(1738165749.361382) can1 50A#007D7D0200000000
(1738165749.371387) can1 503#0000000000000000
(1738165749.372347) can1 4F1#0000000000000000
(1738165749.401367) can1 501#0AA10002423806E3
(1738165749.431364) can1 508#02AF4E0087000032
(1738165749.461389) can1 50A#007D7D0200000000
(1738165749.471401) can1 505#0A94000010104000
(1738165749.472363) can1 4F1#0000000000000000
(1738165749.501362) can1 501#0AA10002423806E3
(1738165749.531369) can1 508#02A34E0087000032
(1738165749.561407) can1 50A#007D7D0200000000
(1738165749.571404) can1 50C#821C0E1013150382
(1738165749.571864) can1 506#0000010000028400
(1738165749.572358) can1 4F1#0000000000000000
(1738165749.601397) can1 501#0AA10002423806E3
(1738165749.622101) can1 4FF#05
(1738165749.631365) can1 508#02A54E0087000032
(1738165749.661387) can1 50A#007D7D0200000000
(1738165749.671371) can1 50D#0000DEA700008F5A
(1738165749.672356) can1 4F1#0000000000000000
(1738165749.701358) can1 501#0AA10002423806E3
(1738165749.731367) can1 508#029C4E0087000032
(1738165749.761434) can1 50A#007D7D0200000000
(1738165749.771403) can1 50E#00008FAE00000000
(1738165749.772358) can1 4F1#0000000000000000
(1738165749.801364) can1 501#0AA10002423806E3
(1738165749.831353) can1 508#029A4E0087000032
(1738165749.861372) can1 50A#007D7D0200000000
(1738165749.871392) can1 50F#0000200000000000
(1738165749.872375) can1 4F1#0000000000000000
(1738165749.901408) can1 501#0AA10002423806E3
(1738165749.902550) can1 351#7C0B2C012003D809
(1738165749.904610) can1 355#4000640084024900
(1738165749.906598) can1 356#940A000000000000
(1738165749.908592) can1 358#380F0307140F050A
(1738165749.910594) can1 359#100001010D000203
(1738165749.912623) can1 35B#0101000000000000
(1738165749.914628) can1 35C#0800140004000C00
(1738165749.916634) can1 3D2#110000000000EEFC
(1738165749.918663) can1 35A#0000000000000000
(1738165749.931367) can1 508#02964E0087000032
(1738165749.961405) can1 50A#007D7D0200000000
(1738165749.971366) can1 509#4900000000000000
(1738165749.972348) can1 4F1#0000000000000000
(1738165750.001359) can1 501#0AA10002423806E3
(1738165750.031354) can1 508#02944E0087000032
(1738165750.061372) can1 50A#007D7D0200000000
(1738165750.071403) can1 50C#821C0E1013150382
(1738165750.072355) can1 4F1#0000000000000000
(1738165750.101352) can1 501#0AA10002423806E3
(1738165750.122095) can1 4FF#05
(1738165750.131350) can1 508#028F4E0087000032
(1738165750.161376) can1 50A#007D7D0200000000
(1738165750.171370) can1 500#0112014400000102
(1738165750.172361) can1 4F1#0000000000000000
(1738165750.201383) can1 501#0AA10002423806E3
(1738165750.231409) can1 508#028F4E0087000032
(1738165750.261368) can1 50A#007D7D0200000000
(1738165750.271395) can1 502#0000000000000000
(1738165750.272349) can1 4F1#0000000000000000
(1738165750.301355) can1 501#0AA10002423806E3
(1738165750.331341) can1 508#028C4E0087000032
(1738165750.361364) can1 50A#007D7D0200000000
(1738165750.371437) can1 503#0000000000000000
(1738165750.372352) can1 4F1#0000000000000000
(1738165750.401390) can1 501#0AA10002423806E3
(1738165750.431367) can1 508#028B4E0087000032
(1738165750.461402) can1 50A#007D7D0200000000
(1738165750.471373) can1 505#0A94000010104000
(1738165750.472343) can1 4F1#0000000000000000
(1738165750.501357) can1 501#0AA10002423806E3
(1738165750.531332) can1 508#028B4E0087000032
(1738165750.561352) can1 50A#007D7D0200000000
(1738165750.571383) can1 50C#821C0E1013150382
(1738165750.571877) can1 506#0000010000028400
(1738165750.572378) can1 4F1#0000000000000000
(1738165750.601362) can1 501#0AA10002423806E3
(1738165750.622132) can1 4FF#05
(1738165750.631356) can1 508#028D4E0087000032
(1738165750.661385) can1 50A#007D7D0200000000
(1738165750.671348) can1 50D#0000DEA700008F5A
(1738165750.672339) can1 4F1#0000000000000000
(1738165750.701358) can1 501#0AA10002423806E3
(1738165750.731343) can1 508#028B4E0087000032
(1738165750.761366) can1 50A#007D7D0200000000
(1738165750.771366) can1 50E#00008FAE00000000
(1738165750.772342) can1 4F1#0000000000000000
(1738165750.801381) can1 501#0AA10002423806E3
(1738165750.831360) can1 508#02904E0087000032
(1738165750.861406) can1 50A#007D7D0200000000
(1738165750.871391) can1 50F#0000200000000000
(1738165750.872346) can1 4F1#0000000000000000
(1738165750.894975) can1 351#7C0B2C012003D809
(1738165750.896958) can1 355#4000640084024900
(1738165750.899007) can1 356#940A000000000000
(1738165750.900972) can1 358#380F0309150F040C
(1738165750.901436) can1 501#0AA10002423806E3
(1738165750.902991) can1 359#100001010D000203
(1738165750.905030) can1 35B#0101000000000000
(1738165750.907032) can1 35C#0800140004000C00
(1738165750.909029) can1 3D2#110000000000EEFC
(1738165750.911061) can1 35A#0000000000000000
(1738165750.931340) can1 508#02894E0086000032
(1738165750.961360) can1 50A#007D7D0200000000
(1738165750.971372) can1 509#4900000000000000
(1738165750.972372) can1 4F1#0000000000000000
(1738165751.001352) can1 501#0AA10002423806E3
(1738165751.031350) can1 508#028A4E0086000032
(1738165751.061368) can1 50A#007D7D0200000000
(1738165751.071362) can1 50C#821C0E1013150382
(1738165751.072381) can1 4F1#0000000000000000
(1738165751.101391) can1 501#0AA10002423806E3
(1738165751.122109) can1 4FF#05
(1738165751.131354) can1 508#028A4E0086000032
(1738165751.161380) can1 50A#007D7D0200000000
(1738165751.171388) can1 500#0112014400000102
(1738165751.172366) can1 4F1#0000000000000000
(1738165751.201367) can1 501#0AA10002423806E3
(1738165751.231339) can1 508#02894E0086000032
(1738165751.261367) can1 50A#007C7D0200000000
(1738165751.271372) can1 502#0000000000000000
(1738165751.272340) can1 4F1#0000000000000000
(1738165751.301345) can1 501#0AA10002423806E3
(1738165751.331341) can1 508#028A4E0086000032
(1738165751.361371) can1 50A#007C7D0200000000
(1738165751.371413) can1 503#0000000000000000
(1738165751.372364) can1 4F1#0000000000000000
(1738165751.401354) can1 501#0AA10002423806E3
(1738165751.431353) can1 508#02874E0086000032
(1738165751.461402) can1 50A#007C7D0200000000
(1738165751.471381) can1 505#0A94000010104000
(1738165751.472407) can1 4F1#0000000000000000
(1738165751.501360) can1 501#0AA10002423806E3
(1738165751.531337) can1 508#02894E0086000032
(1738165751.561368) can1 50A#007C7D0200000000
(1738165751.571367) can1 50C#821C0E1013150381
(1738165751.571846) can1 506#0000010000028400
(1738165751.572344) can1 4F1#0000000000000000
(1738165751.601409) can1 501#0AA10002423806E3
(1738165751.622082) can1 4FF#05
(1738165751.631412) can1 508#02864E0086000032
(1738165751.661365) can1 50A#007C7D0200000000
(1738165751.671375) can1 50D#0000DEA700008F5A
(1738165751.672335) can1 4F1#0000000000000000
(1738165751.701333) can1 501#0AA10002423806E3
(1738165751.731323) can1 508#027E4E0086000032
(1738165751.761345) can1 50A#007C7D0200000000
(1738165751.771329) can1 50E#00008FAE00000000
(1738165751.772309) can1 4F1#0000000000000000
(1738165751.801341) can1 501#0AA10002423806E3
(1738165751.831343) can1 508#022E4E0086000032
(1738165751.861362) can1 50A#007C7C0200000000
(1738165751.871371) can1 50F#0000200000000000
(1738165751.872327) can1 4F1#0000000000000000
(1738165751.887349) can1 351#7C0B2C012003D809
(1738165751.889372) can1 355#4000640084024900
(1738165751.891390) can1 356#940A000000000000
(1738165751.893377) can1 358#380F0309150F0509
(1738165751.895401) can1 359#100001010D000203
(1738165751.897422) can1 35B#0101000000000000
(1738165751.899426) can1 35C#0800140004000C00
(1738165751.901324) can1 501#0AA10002423806E3
(1738165751.901811) can1 3D2#110000000000EEFC
(1738165751.903469) can1 35A#0000000000000000
(1738165751.931338) can1 508#026B4E0085000032
(1738165751.961355) can1 50A#007C7C0200000000
(1738165751.971382) can1 509#4900000000000000
(1738165751.972347) can1 4F1#0000000000000000
(1738165752.001330) can1 501#0AA10002423806E3
(1738165752.031342) can1 508#026D4E0085000032
(1738165752.061359) can1 50A#007C7C0200000000
(1738165752.071357) can1 50C#821C0E1013150381
(1738165752.072355) can1 4F1#0000000000000000
(1738165752.101352) can1 501#0AA10002423806E3
(1738165752.122071) can1 4FF#05
(1738165752.131324) can1 508#026A4E0085000032
(1738165752.161347) can1 50A#007C7C0200000000
(1738165752.171357) can1 500#0112014400000102
(1738165752.172332) can1 4F1#0000000000000000
(1738165752.201333) can1 501#0AA10002423806E3
(1738165752.231331) can1 508#026B4E0085000032
(1738165752.261358) can1 50A#007C7C0200000000
(1738165752.271387) can1 502#0000000000000000
(1738165752.272329) can1 4F1#0000000000000000
(1738165752.301338) can1 501#0AA10002423806E3
(1738165752.331334) can1 508#02724E0085000032
(1738165752.361356) can1 50A#007C7C0200000000
(1738165752.371359) can1 503#0000000000000000
(1738165752.372327) can1 4F1#0000000000000000
(1738165752.401332) can1 501#0AA10002423806E3
(1738165752.431340) can1 508#027A4E0085000032
(1738165752.461362) can1 50A#007C7C0200000000
(1738165752.471391) can1 505#0A94000010104000
(1738165752.472337) can1 4F1#0000000000000000
(1738165752.501365) can1 501#0AA10002423806E3
(1738165752.531347) can1 508#02794E0085000032
(1738165752.561357) can1 50A#007C7C0200000000
(1738165752.571381) can1 50C#821C0E1013150382
(1738165752.571849) can1 506#0000010000028400
(1738165752.572344) can1 4F1#0000000000000000
(1738165752.601377) can1 501#0AA10002423806E3
(1738165752.622082) can1 4FF#05
(1738165752.631342) can1 508#027C4E0085000032
(1738165752.661361) can1 50A#007C7C0200000000
(1738165752.671342) can1 50D#0000DEA700008F5A
(1738165752.672326) can1 4F1#0000000000000000
(1738165752.701339) can1 501#0AA10002423806E3
(1738165752.731337) can1 508#02804E0085000032
(1738165752.761348) can1 50A#007C7C0200000000
(1738165752.771370) can1 50E#00008FAE00000000
(1738165752.772319) can1 4F1#0000000000000000
(1738165752.801316) can1 501#0AA10002423806E3
(1738165752.831331) can1 508#02834E0085000032
(1738165752.861378) can1 50A#007C7C0200000000
(1738165752.871371) can1 50F#0000200000000000
(1738165752.872322) can1 4F1#0000000000000000
(1738165752.899787) can1 351#7C0B2C012003D809
(1738165752.901333) can1 501#0AA10002423806E3
(1738165752.901799) can1 355#4000640084024900
(1738165752.903810) can1 356#940A000000000000
(1738165752.905808) can1 358#380F0309130F050A
(1738165752.907829) can1 359#100001010D000203
(1738165752.909854) can1 35B#0101000000000000
(1738165752.911868) can1 35C#0800140004000C00
(1738165752.913870) can1 3D2#110000000000EEFC
(1738165752.915903) can1 35A#0000000000000000
(1738165752.931343) can1 508#02834E0087000032
(1738165752.961360) can1 50A#007C7C0200000000
(1738165752.971392) can1 509#4900000000000000
(1738165752.972330) can1 4F1#0000000000000000
(1738165753.001346) can1 501#0AA10002423806E3
(1738165753.031330) can1 508#02834E0087000032
(1738165753.061346) can1 50A#007C7C0200000000
(1738165753.071342) can1 50C#821C0E1013150382
(1738165753.072329) can1 4F1#0000000000000000
(1738165753.101346) can1 501#0AA10002423806E3
(1738165753.122060) can1 4FF#05
(1738165753.131323) can1 508#02834E0087000032
(1738165753.161390) can1 50A#007C7C0200000000
(1738165753.171374) can1 500#0112014400000102
(1738165753.172323) can1 4F1#0000000000000000
(1738165753.201342) can1 501#0AA10002423806E3
(1738165753.231321) can1 508#02814E0087000032
(1738165753.261347) can1 50A#007C7C0200000000
(1738165753.271355) can1 502#0000000000000000
(1738165753.272311) can1 4F1#0000000000000000
(1738165753.301320) can1 501#0AA10002423806E3
(1738165753.331323) can1 508#02844E0087000032
(1738165753.361346) can1 50A#007C7C0200000000
(1738165753.371351) can1 503#0000000000000000
(1738165753.372324) can1 4F1#0000000000000000
(1738165753.401369) can1 501#0AA10002423806E3
(1738165753.431334) can1 508#02864E0087000032
(1738165753.461399) can1 50A#007C7C0200000000
(1738165753.471386) can1 505#0A94000010104000
(1738165753.472354) can1 4F1#0000000000000000
(1738165753.501369) can1 501#0AA10002423806E3
(1738165753.531324) can1 508#02884E0087000032
(1738165753.561326) can1 50A#007C7C0200000000
(1738165753.571315) can1 50C#821C0E1013150382
(1738165753.571802) can1 506#0000010000028400
(1738165753.572298) can1 4F1#0000000000000000
(1738165753.601323) can1 501#0AA10002423806E3
(1738165753.622036) can1 4FF#05
(1738165753.631301) can1 508#02884E0087000032
(1738165753.661316) can1 50A#007C7C0200000000
(1738165753.671300) can1 50D#0000DEA700008F5A
(1738165753.672292) can1 4F1#0000000000000000
(1738165753.701292) can1 501#0AA10002423806E3
(1738165753.731333) can1 508#02894E0087000032
(1738165753.761399) can1 50A#007C7C0200000000
(1738165753.771384) can1 50E#00008FAE00000000
(1738165753.772324) can1 4F1#0000000000000000
(1738165753.801322) can1 501#0AA10002423806E3
(1738165753.831317) can1 508#02894E0087000032
(1738165753.861338) can1 50A#007C7C0200000000
(1738165753.871341) can1 50F#0000200000000000
(1738165753.872319) can1 4F1#0000000000000000
(1738165753.892201) can1 351#7C0B2C012003D809
(1738165753.894193) can1 355#4000640084024900
(1738165753.896214) can1 356#940A000000000000
(1738165753.898194) can1 358#390F0309150F0407
(1738165753.900224) can1 359#100001010D000203
(1738165753.901301) can1 501#0AA10002423806E3
(1738165753.902249) can1 35B#0101000000000000
(1738165753.904272) can1 35C#0800140004000C00
(1738165753.906270) can1 3D2#110000000000EEFC
(1738165753.908318) can1 35A#0000000000000000
(1738165753.931314) can1 508#028C4E0086000032
(1738165753.961337) can1 50A#007C7C0200000000
(1738165753.971332) can1 509#4900000000000000
(1738165753.972305) can1 4F1#0000000000000000
(1738165754.001308) can1 501#0AA10002423806E3
(1738165754.031330) can1 508#028F4E0086000032
(1738165754.061388) can1 50A#007C7C0200000000
(1738165754.071360) can1 50C#821C0E1013150382
(1738165754.072320) can1 4F1#0000000000000000
(1738165754.101323) can1 501#0AA10002423806E3
(1738165754.122064) can1 4FF#05
(1738165754.131307) can1 508#028B4E0086000032
(1738165754.161336) can1 50A#007C7C0200000000
(1738165754.171332) can1 500#0112014400000102
(1738165754.172316) can1 4F1#0000000000000000
(1738165754.201340) can1 501#0AA10002423806E3
(1738165754.231306) can1 508#02914E0086000032
(1738165754.261405) can1 50A#007D7C0200000000
(1738165754.271385) can1 502#0000000000000000
(1738165754.272333) can1 4F1#0000000000000000
(1738165754.301331) can1 501#0AA10002423806E3
(1738165754.331313) can1 508#028A4E0086000032
(1738165754.361355) can1 50A#007D7C0200000000
(1738165754.371354) can1 503#0000000000000000
(1738165754.372290) can1 4F1#0000000000000000
(1738165754.401287) can1 501#0AA10002423806E3
(1738165754.431311) can1 508#028B4E0086000032
(1738165754.461331) can1 50A#007D7C0200000000
(1738165754.471324) can1 505#0A94000010104000
(1738165754.472324) can1 4F1#0000000000000000
(1738165754.501335) can1 501#0AA10002423806E3
(1738165754.531341) can1 508#028E4E0086000032
(1738165754.561343) can1 50A#007D7C0200000000
(1738165754.571330) can1 50C#821C0E1013150382
(1738165754.571819) can1 506#0000010000028400
(1738165754.572322) can1 4F1#0000000000000000
(1738165754.601320) can1 501#0AA10002423806E3
(1738165754.622067) can1 4FF#05
(1738165754.631314) can1 508#02884E0086000032
(1738165754.661377) can1 50A#007D7C0200000000
(1738165754.671357) can1 50D#0000DEA700008F5A
(1738165754.672324) can1 4F1#0000000000000000
(1738165754.701308) can1 501#0AA10002423806E3
(1738165754.731328) can1 508#02884E0086000032
(1738165754.761324) can1 50A#007D7D0200000000
(1738165754.771322) can1 50E#00008FAE00000000
(1738165754.772293) can1 4F1#0000000000000000
(1738165754.801301) can1 501#0AA10002423806E3
(1738165754.831322) can1 508#02DA4E0086000032
(1738165754.861318) can1 50A#007D7D0200000000
(1738165754.871327) can1 50F#0000200000000000
(1738165754.872305) can1 4F1#0000000000000000
(1738165754.901299) can1 501#0AA10002423806E3
(1738165754.904594) can1 351#7C0B2C012003D809
(1738165754.906629) can1 355#4000640084024900
(1738165754.908671) can1 356#940A000000000000
(1738165754.910634) can1 358#390F0309140F040C
(1738165754.912643) can1 359#100001010D000203
(1738165754.914662) can1 35B#0101000000000000
(1738165754.916676) can1 35C#0800140004000C00
(1738165754.918689) can1 3D2#110000000000EEFC
(1738165754.920720) can1 35A#0000000000000000
(1738165754.931297) can1 508#02C54E0087000032
(1738165754.961321) can1 50A#007D7D0200000000
(1738165754.971348) can1 509#4900000000000000
(1738165754.972295) can1 4F1#0000000000000000
(1738165755.001299) can1 501#0AA10002423806E3
(1738165755.031305) can1 508#02B64E0087000032
(1738165755.061331) can1 50A#007D7D0200000000
(1738165755.071335) can1 50C#821C0E1013150382
(1738165755.072305) can1 4F1#0000000000000000
(1738165755.101306) can1 501#0AA10002423806E3
(1738165755.122065) can1 4FF#05
(1738165755.131328) can1 508#02AE4E0087000032
(1738165755.161354) can1 50A#007D7D0200000000
(1738165755.171354) can1 500#0112014400000102
(1738165755.172317) can1 4F1#0000000000000000
(1738165755.201318) can1 501#0AA10002423806E3
(1738165755.231295) can1 508#02A94E0087000032
(1738165755.261342) can1 50A#007D7D0200000000
(1738165755.271332) can1 502#0000000000000000
(1738165755.272291) can1 4F1#0000000000000000
(1738165755.301293) can1 501#0AA10002423806E3
(1738165755.331313) can1 508#02A44E0087000032
(1738165755.361319) can1 50A#007D7D0200000000
(1738165755.371329) can1 503#0000000000000000
(1738165755.372291) can1 4F1#0000000000000000
(1738165755.401301) can1 501#0AA10002423806E3
(1738165755.431330) can1 508#029C4E0087000032
(1738165755.461309) can1 50A#007D7D0200000000
(1738165755.471371) can1 505#0A94000010104000
(1738165755.472328) can1 4F1#0000000000000000
(1738165754.909889) can1 501#0AA10002423806E3
(1738165754.939869) can1 508#029C4E0087000032
(1738165754.969862) can1 50A#007D7D0200000000
(1738165754.979857) can1 50C#821C0E1013150382
(1738165754.980343) can1 506#0000010000028400
(1738165754.980838) can1 4F1#0000000000000000
(1738165755.009839) can1 501#0AA10002423806E3
(1738165755.030583) can1 4FF#05
(1738165755.039839) can1 508#029E4E0087000032
(1738165755.069897) can1 50A#007D7D0200000000
(1738165755.079848) can1 50D#0000DEA700008F5A
(1738165755.080834) can1 4F1#0000000000000000
(1738165755.109852) can1 501#0AA10002423806E3
(1738165755.139858) can1 508#02954E0087000032
(1738165755.169890) can1 50A#007D7D0200000000
(1738165755.179866) can1 50E#00008FAE00000000
(1738165755.180851) can1 4F1#0000000000000000
(1738165755.209850) can1 501#0AA10002423806E3
(1738165755.239845) can1 508#02954E0087000032
(1738165755.269865) can1 50A#007D7D0200000000
(1738165755.279866) can1 50F#0000200000000000
(1738165755.280832) can1 4F1#0000000000000000
(1738165755.305550) can1 351#7C0B2C012003D809
(1738165755.307568) can1 355#4000640084024900
(1738165755.309583) can1 356#940A000000000000
(1738165755.310049) can1 501#0AA10002423806E3
(1738165755.311582) can1 358#380F0307150F040E
(1738165755.313597) can1 359#100001010D000203
(1738165755.315636) can1 35B#0101000000000000
(1738165755.317634) can1 35C#0800140004000C00
(1738165755.319639) can1 3D2#110000000000EEFC
(1738165755.321668) can1 35A#0000000000000000
(1738165755.339838) can1 508#02914E0086000032
(1738165755.369895) can1 50A#007D7D0200000000
(1738165755.379868) can1 509#4900000000000000
(1738165755.380832) can1 4F1#0000000000000000
(1738165755.409845) can1 501#0AA10002423806E3
(1738165755.439850) can1 508#028E4E0086000032
(1738165755.469874) can1 50A#007D7D0200000000
(1738165755.479867) can1 50C#821C0E1013150382
(1738165755.480841) can1 4F1#0000000000000000
(1738165755.509843) can1 501#0AA10002423806E3
(1738165755.530575) can1 4FF#05
(1738165755.539839) can1 508#028D4E0086000032
(1738165755.569854) can1 50A#007D7D0200000000
(1738165755.579861) can1 500#0112014400000102
(1738165755.580846) can1 4F1#0000000000000000
(1738165755.609840) can1 501#0AA10002423806E3
(1738165755.639842) can1 508#028D4E0086000032
(1738165755.669882) can1 50A#007D7D0200000000
(1738165755.679906) can1 502#0000000000000000
(1738165755.680834) can1 4F1#0000000000000000
(1738165755.709836) can1 501#0AA10002423806E3
(1738165755.739854) can1 508#028A4E0086000032
(1738165755.769871) can1 50A#007D7D0200000000
(1738165755.779868) can1 503#0000000000000000
(1738165755.780819) can1 4F1#0000000000000000
(1738165755.809819) can1 501#0AA10002423806E3
(1738165755.839832) can1 508#028D4E0086000032
(1738165755.869868) can1 50A#007D7D0200000000
(1738165755.879869) can1 505#0A94000010104000
(1738165755.880851) can1 4F1#0000000000000000
(1738165755.909847) can1 501#0AA10002423806E3
(1738165755.939861) can1 508#027A4E0086000032
(1738165755.969866) can1 50A#007D7D0200000000
(1738165755.979877) can1 50C#821C0E101315037F
(1738165755.980338) can1 506#0000010000028400
(1738165755.980833) can1 4F1#0000000000000000
(1738165756.009842) can1 501#0AA10002423806E3
(1738165756.030568) can1 4FF#05
(1738165756.039836) can1 508#027E4E0086000032
(1738165756.069870) can1 50A#007D7D0200000000
(1738165756.079842) can1 50D#0000DEA700008F5A
(1738165756.080827) can1 4F1#0000000000000000
(1738165756.109830) can1 501#0AA10002423806E3
(1738165756.139867) can1 508#02844E0086000032
(1738165756.169904) can1 50A#007D7D0200000000
(1738165756.179880) can1 50E#00008FAE00000000
(1738165756.180829) can1 4F1#0000000000000000
(1738165756.209835) can1 501#0AA10002423806E3
(1738165756.239840) can1 508#02864E0086000032
(1738165756.269850) can1 50A#007D7D0200000000
(1738165756.279865) can1 50F#0000200000000000
(1738165756.280838) can1 4F1#0000000000000000
(1738165756.309840) can1 501#0AA10002423806E3
(1738165756.339860) can1 508#02874E0078000032
(1738165756.369894) can1 50A#007D7D0200000000
(1738165756.378025) can1 351#7C0B2C012003D809
(1738165756.379845) can1 509#4900000000000000
(1738165756.380314) can1 355#4000640084024900
(1738165756.380835) can1 4F1#0000000000000000
(1738165756.382036) can1 356#940A000000000000
(1738165756.384033) can1 358#370F0307140F0509
(1738165756.386046) can1 359#100001010D000203
(1738165756.388076) can1 35B#0101000000000000
(1738165756.390084) can1 35C#0800140004000C00
(1738165756.392095) can1 3D2#110000000000EEFC
(1738165756.394151) can1 35A#0000000000000000
(1738165756.409828) can1 501#0AA10002423806E3
(1738165756.439867) can1 508#02854E0078000032
(1738165756.469858) can1 50A#007D7D0200000000
(1738165756.479848) can1 50C#821C0E101315037C
(1738165756.480833) can1 4F1#0000000000000000
(1738165756.509830) can1 501#0AA10002423806E3
(1738165756.530571) can1 4FF#05
(1738165756.539835) can1 508#02854E0078000032
(1738165756.569865) can1 50A#007D7D0200000000
(1738165756.579850) can1 500#0112014400000102
(1738165756.580838) can1 4F1#0000000000000000
(1738165756.609825) can1 501#0AA10002423806E3
(1738165756.639834) can1 508#02864E0078000032
(1738165756.669887) can1 50A#007D7D0200000000
(1738165756.679880) can1 502#0000000000000000
(1738165756.680832) can1 4F1#0000000000000000
(1738165756.709833) can1 501#0AA10002423806E3
(1738165756.739833) can1 508#02814E0078000032
(1738165756.769845) can1 50A#007D7D0200000000
(1738165756.779848) can1 503#0000000000000000
(1738165756.780807) can1 4F1#0000000000000000
(1738165756.809819) can1 501#0AA10002423806E3
(1738165756.839826) can1 508#02834E0078000032
(1738165756.869831) can1 50A#007D7D0200000000
(1738165756.879851) can1 505#0A94000010104000
(1738165756.880836) can1 4F1#0000000000000000
(1738165756.909840) can1 501#0AA10002423806E3
(1738165756.939852) can1 508#027E4E0078000032
(1738165756.969863) can1 50A#007D7D0200000000
(1738165756.979857) can1 50C#821C0E1013150379
(1738165756.980323) can1 506#0000010000028400
(1738165756.980822) can1 4F1#0000000000000000
(1738165757.009829) can1 501#0AA10002423806E3
(1738165757.030587) can1 4FF#05
(1738165757.039834) can1 508#027F4E0078000032
(1738165757.069833) can1 50A#007D7D0200000000
(1738165757.079821) can1 50D#0000DEA700008F5A
(1738165757.080810) can1 4F1#0000000000000000
(1738165757.109820) can1 501#0AA10002423806E3
(1738165757.139831) can1 508#02824E0078000032
(1738165757.169875) can1 50A#007D7D0200000000
(1738165757.179864) can1 50E#00008FAE00000000
(1738165757.180817) can1 4F1#0000000000000000
(1738165757.209819) can1 501#0AA10002423806E3
(1738165757.239859) can1 508#02824E0078000032
(1738165757.269857) can1 50A#007D7D0200000000
(1738165757.279845) can1 50F#0000200000000000
(1738165757.280810) can1 4F1#0000000000000000
(1738165757.309834) can1 501#0AA10002423806E3
(1738165757.339835) can1 508#02864E0076000032
(1738165757.369879) can1 50A#007D7D0200000000
(1738165757.379885) can1 509#4900000000000000
(1738165757.380826) can1 4F1#0000000000000000
(1738165757.409817) can1 501#0AA10002423806E3
(1738165757.439828) can1 508#028A4E0076000032
(1738165757.469847) can1 50A#007D7D0200000000
(1738165757.470447) can1 351#7C0B2C012003D809
(1738165757.472467) can1 355#4000640084024900
(1738165757.474490) can1 356#940A000000000000
(1738165757.476481) can1 358#380F0309150F0509
(1738165757.478504) can1 359#100001010D000203
(1738165757.479821) can1 50C#821C0E1013150379
(1738165757.480545) can1 35B#0101000000000000
(1738165757.481032) can1 4F1#0000000000000000
(1738165757.482577) can1 35C#0800140004000C00
(1738165757.484561) can1 3D2#110000000000EEFC
(1738165757.486580) can1 35A#0000000000000000
(1738165757.509824) can1 501#0AA10002423806E3
(1738165757.530553) can1 4FF#05
(1738165757.539855) can1 508#02864E0076000032
(1738165757.569852) can1 50A#007D7D0200000000
(1738165757.579846) can1 500#0112014400000102
(1738165757.580824) can1 4F1#0000000000000000
(1738165757.609832) can1 501#0AA10002423806E3
(1738165757.639825) can1 508#02854E0076000032
(1738165757.669869) can1 50A#007D7D0200000000
(1738165757.679900) can1 502#0000000000000000
(1738165757.680813) can1 4F1#0000000000000000
(1738165757.709850) can1 501#0AA10002423806E3
(1738165757.739830) can1 508#02854E0076000032
(1738165757.769837) can1 50A#007D7D0200000000
(1738165757.779851) can1 503#0000000000000000
(1738165757.780805) can1 4F1#0000000000000000
(1738165757.809801) can1 501#0AA10002423806E3
(1738165757.839841) can1 508#028A4E0076000032
(1738165757.869820) can1 50A#007D7D0200000000
(1738165757.879819) can1 505#0A94000010104000
(1738165757.880817) can1 4F1#0000000000000000
(1738165757.909831) can1 501#0AA10002423806E3
(1738165757.939826) can1 508#02884E0076000032
(1738165757.969843) can1 50A#007D7D0200000000
(1738165757.979871) can1 50C#821C0E101315037C
(1738165757.980334) can1 506#0000010000028400
(1738165757.980824) can1 4F1#0000000000000000
(1738165758.009830) can1 501#0AA10002423806E3
(1738165758.030560) can1 4FF#05
(1738165758.039839) can1 508#02874E0076000032
(1738165758.069846) can1 50A#007D7D0200000000
(1738165758.079824) can1 50D#0000DEA700008F5A
(1738165758.080816) can1 4F1#0000000000000000
(1738165758.109809) can1 501#0AA10002423806E3
(1738165758.139845) can1 508#028A4E0076000032
(1738165758.169860) can1 50A#007D7D0200000000
(1738165758.179859) can1 50E#00008FAF00000000
(1738165758.180808) can1 4F1#0000000000000000
(1738165758.209807) can1 501#0AA10002423806E3
(1738165758.239822) can1 508#028C4E0076000032
(1738165758.269859) can1 50A#007D7D0200000000
(1738165758.279842) can1 50F#0000200000000000
(1738165758.280801) can1 4F1#0000000000000000
(1738165758.309826) can1 501#0AA10002423806E3
(1738165758.339816) can1 508#028B4E0086000032
(1738165758.369838) can1 50A#007D7D0200000000
(1738165758.379832) can1 509#4900000000000000
(1738165758.380838) can1 4F1#0000000000000000
(1738165758.409048) can1 351#7C0B2C012003D809
(1738165758.409812) can1 501#0AA10002423806E3
(1738165758.411063) can1 355#4000640084024900
(1738165758.413094) can1 356#940A000000000000
(1738165758.415086) can1 358#380F0309150F0509
(1738165758.417104) can1 359#100001010D000203
(1738165758.419127) can1 35B#0101000000000000
(1738165758.421133) can1 35C#0800140004000C00
(1738165758.423142) can1 3D2#110000000000EEFC
(1738165758.425169) can1 35A#0000000000000000
(1738165758.439855) can1 508#028C4E0086000032
(1738165758.469873) can1 50A#007D7D0200000000
(1738165758.479870) can1 50C#821C0E101315037E
(1738165758.480847) can1 4F1#0000000000000000
(1738165758.509832) can1 501#0AA10002423806E3
(1738165758.530541) can1 4FF#05
(1738165758.539804) can1 508#028C4E0086000032
(1738165758.569848) can1 50A#007D7D0200000000
(1738165758.579829) can1 500#0112014400000102
(1738165758.580840) can1 4F1#0000000000000000
(1738165758.609836) can1 501#0AA10002423806E3
(1738165758.639800) can1 508#028C4E0086000032
(1738165758.669882) can1 50A#007D7D0200000000
(1738165758.679843) can1 502#0000000000000000
(1738165758.680799) can1 4F1#0000000000000000
(1738165758.709804) can1 501#0AA10002423806E3
(1738165758.739832) can1 508#028C4E0086000032
(1738165758.769827) can1 50A#007D7D0200000000
(1738165758.779835) can1 503#0000000000000000
(1738165758.780796) can1 4F1#0000000000000000
(1738165758.809792) can1 501#0AA10002423806E3
(1738165758.839798) can1 508#028C4E0086000032
(1738165758.869829) can1 50A#007D7D0200000000
(1738165758.879818) can1 505#0A94000010104000
(1738165758.880823) can1 4F1#0000000000000000
(1738165758.909824) can1 501#0AA10002423806E3
(1738165758.939807) can1 508#028D4E0086000032
(1738165758.969820) can1 50A#007D7D0200000000
(1738165758.979817) can1 50C#821C0E101315037F
(1738165758.980312) can1 506#0000010000028400
(1738165758.980805) can1 4F1#0000000000000000
(1738165759.009830) can1 501#0AA10002423806E3
(1738165759.030574) can1 4FF#05
(1738165759.039800) can1 508#028B4E0086000032
(1738165759.069821) can1 50A#007D7D0200000000
(1738165759.079795) can1 50D#0000DEA800008F5A
(1738165759.080791) can1 4F1#0000000000000000
(1738165759.109810) can1 501#0AA10002423806E3
(1738165759.139812) can1 508#028B4E0086000032
(1738165759.169862) can1 50A#007D7D0200000000
(1738165759.179841) can1 50E#00008FAF00000000
(1738165759.180806) can1 4F1#0000000000000000
(1738165759.209792) can1 501#0AA10002423806E3
(1738165759.239792) can1 508#028A4E0086000032
(1738165759.269825) can1 50A#007D7D0200000000
(1738165759.279820) can1 50F#0000200000000000
(1738165759.280790) can1 4F1#0000000000000000
(1738165759.309811) can1 501#0AA10002423806E3
(1738165759.339853) can1 508#028B4E0086000032
(1738165759.369867) can1 50A#007D7D0200000000
(1738165759.379831) can1 509#4900000000000000
(1738165759.380803) can1 4F1#0000000000000000
(1738165759.401455) can1 351#7C0B2C012003D809
(1738165759.403456) can1 355#4000640084024900
(1738165759.405450) can1 356#940A000000000000
(1738165759.407432) can1 358#370F0309150F030D
(1738165759.409461) can1 359#100001010D000203
(1738165759.409928) can1 501#0AA10002423806E3
(1738165759.411505) can1 35B#0101000000000000
(1738165759.413506) can1 35C#0800140004000C00
(1738165759.415528) can1 3D2#110000000000EEFC
(1738165759.417537) can1 35A#0000000000000000
(1738165759.439775) can1 508#028A4E0086000032
(1738165759.469804) can1 50A#007D7D0200000000
(1738165759.479796) can1 50C#821C0E1013150380
(1738165759.480793) can1 4F1#0000000000000000
(1738165759.509778) can1 501#0AA10002423806E3
(1738165759.530545) can1 4FF#05
(1738165759.539804) can1 508#028C4E0086000032
(1738165759.569858) can1 50A#007D7D0200000000
(1738165759.579825) can1 500#0112014400000102
(1738165759.580819) can1 4F1#0000000000000000
(1738165759.609858) can1 501#0AA10002423806E3
(1738165759.639820) can1 508#028D4E0086000032
(1738165759.669838) can1 50A#007D7D0200000000
(1738165759.679825) can1 502#0000000000000000
(1738165759.680789) can1 4F1#0000000000000000
(1738165759.709799) can1 501#0AA10002423806E3
(1738165759.739789) can1 508#028D4E0086000032
(1738165759.769799) can1 50A#007D7D0200000000
(1738165759.779811) can1 503#0000000000000000
(1738165759.780780) can1 4F1#0000000000000000
(1738165759.809772) can1 501#0AA10002423806E3
(1738165759.839810) can1 508#02904E0086000032
(1738165759.869821) can1 50A#007D7D0200000000
(1738165759.879822) can1 505#0A94000010104000
(1738165759.880811) can1 4F1#0000000000000000
(1738165759.909836) can1 501#0AA10002423806E3
(1738165759.939817) can1 508#028B4E0086000032
(1738165759.969844) can1 50A#007D7D0200000000
(1738165759.979818) can1 50C#821C0E1013150381
(1738165759.980294) can1 506#0000010000028400
(1738165759.980790) can1 4F1#0000000000000000
(1738165760.009818) can1 501#0AA10002423806E3
(1738165760.030526) can1 4FF#05
(1738165760.039789) can1 508#028D4E0086000032
(1738165760.069820) can1 50A#007D7D0200000000
(1738165760.079784) can1 50D#0000DEA800008F5A
(1738165760.080785) can1 4F1#0000000000000000
(1738165760.109788) can1 501#0AA10002423806E3
(1738165760.139802) can1 508#028C4E0086000032
(1738165760.169831) can1 50A#007D7D0200000000
(1738165760.179863) can1 50E#00008FAF00000000
(1738165760.180807) can1 4F1#0000000000000000
(1738165760.209794) can1 501#0AA10002423806E3
(1738165760.239818) can1 508#02884E0086000032
(1738165760.269801) can1 50A#007D7D0200000000
(1738165760.279817) can1 50F#0000200000000000
(1738165760.280782) can1 4F1#0000000000000000
(1738165760.309785) can1 501#0AA10002423806E3
(1738165760.339789) can1 508#028B4E0085000032
(1738165760.369799) can1 50A#007D7D0200000000
(1738165760.379801) can1 509#4900000000000000
(1738165760.380784) can1 4F1#0000000000000000
(1738165760.393820) can1 351#7C0B2C012003D809
(1738165760.395842) can1 355#4000640084024900
(1738165760.397863) can1 356#940A000000000000
(1738165760.399850) can1 358#380F0309150F030D
(1738165760.401874) can1 359#100001010D000203
(1738165760.403901) can1 35B#0101000000000000
(1738165760.405910) can1 35C#0800140004000C00
(1738165760.407914) can1 3D2#110000000000EEFC
(1738165760.409774) can1 501#0AA10002423806E3
(1738165760.410283) can1 35A#0000000000000000
(1738165760.439792) can1 508#02884E0085000032
(1738165760.469807) can1 50A#007D7D0200000000
(1738165760.479842) can1 50C#821C0E1013150381
(1738165760.480795) can1 4F1#0000000000000000
(1738165760.509787) can1 501#0AA10002423806E3
(1738165760.530548) can1 4FF#05
(1738165760.539792) can1 508#02884E0085000032
(1738165760.569803) can1 50A#007D7D0200000000
(1738165760.579808) can1 500#0112014400000102
(1738165760.580791) can1 4F1#0000000000000000
(1738165760.609812) can1 501#0AA10002423806E3
(1738165760.639784) can1 508#028B4E0085000032
(1738165760.669831) can1 50A#007D7D0200000000
(1738165760.679849) can1 502#0000000000000000
(1738165760.680792) can1 4F1#0000000000000000
(1738165760.709779) can1 501#0AA10002423806E3
(1738165760.739786) can1 508#028C4E0085000032
(1738165760.769804) can1 50A#007D7D0200000000
(1738165760.779816) can1 503#0000000000000000
(1738165760.780777) can1 4F1#0000000000000000
(1738165760.809772) can1 501#0AA10002423806E3
(1738165760.839813) can1 508#028C4E0085000032
(1738165760.869794) can1 50A#007D7D0200000000
(1738165760.879796) can1 505#0A94000010104000
(1738165760.880802) can1 4F1#0000000000000000
(1738165760.909800) can1 501#0AA10002423806E3
(1738165760.939775) can1 508#028F4E0085000032
(1738165760.969792) can1 50A#007D7D0200000000
(1738165760.979817) can1 50C#821C0E1013150381
(1738165760.980290) can1 506#0000010000028400
(1738165760.980782) can1 4F1#0000000000000000
(1738165761.009777) can1 501#0AA10002423806E3
(1738165761.030541) can1 4FF#05
(1738165761.039781) can1 508#028A4E0085000032
(1738165761.069794) can1 50A#007D7D0200000000
(1738165761.079774) can1 50D#0000DEA800008F5A
(1738165761.080772) can1 4F1#0000000000000000
(1738165761.109766) can1 501#0AA10002423806E3
(1738165761.139797) can1 508#028B4E0085000032
(1738165761.169825) can1 50A#007D7D0200000000
(1738165761.179836) can1 50E#00008FAF00000000
(1738165761.180783) can1 4F1#0000000000000000
(1738165761.209767) can1 501#0AA10002423806E3
(1738165761.239779) can1 508#02884E0085000032
(1738165761.269803) can1 50A#007D7D0200000000
(1738165761.279803) can1 50F#0000200000000000
(1738165761.280768) can1 4F1#0000000000000000
(1738165761.309770) can1 501#0AA10002423806E3
(1738165761.339816) can1 508#02894E0087000032
(1738165761.369804) can1 50A#007D7D0200000000
(1738165761.379806) can1 509#4900000000000000
(1738165761.380783) can1 4F1#0000000000000000
(1738165761.406252) can1 351#7C0B2C012003D809
(1738165761.408270) can1 355#4000640084024900
(1738165761.409778) can1 501#0AA10002423806E3
(1738165761.410293) can1 356#940A000000000000
(1738165761.412285) can1 358#370F0309140F050A
(1738165761.414321) can1 359#100001010D000203
(1738165761.416403) can1 35B#0101000000000000
(1738165761.418364) can1 35C#0800140004000C00
(1738165761.420331) can1 3D2#110000000000EEFC
(1738165761.422365) can1 35A#0000000000000000
(1738165761.439767) can1 508#028A4E0087000032
(1738165761.469803) can1 50A#007D7D0200000000
(1738165761.479834) can1 50C#821C0E1013150381
(1738165761.480784) can1 4F1#0000000000000000
(1738165761.509765) can1 501#0AA10002423806E3
(1738165761.530511) can1 4FF#05
(1738165761.539773) can1 508#028C4E0087000032
(1738165761.569787) can1 50A#007D7D0200000000
(1738165761.579795) can1 500#0112014400000102
(1738165761.580787) can1 4F1#0000000000000000
(1738165761.609802) can1 501#0AA10002423806E3
(1738165761.639798) can1 508#028A4E0087000032
(1738165761.669805) can1 50A#007D7D0200000000
(1738165761.679837) can1 502#0000000000000000
(1738165761.680772) can1 4F1#0000000000000000
(1738165761.709768) can1 501#0AA10002423806E3
(1738165761.739793) can1 508#028B4E0087000032
(1738165761.769790) can1 50A#007D7D0200000000
(1738165761.779794) can1 503#0000000000000000
(1738165761.780750) can1 4F1#0000000000000000
(1738165761.809755) can1 501#0AA10002423806E3
(1738165761.839770) can1 508#028A4E0087000032
(1738165761.869779) can1 50A#007D7D0200000000
(1738165761.879785) can1 505#0A94000010104000
(1738165761.880770) can1 4F1#0000000000000000
(1738165761.909770) can1 501#0AA10002423806E3
(1738165761.939782) can1 508#028D4E0087000032
(1738165761.969786) can1 50A#007D7D0200000000
(1738165761.979808) can1 50C#821C0E1013150382
(1738165761.980273) can1 506#0000010000028400
(1738165761.980772) can1 4F1#0000000000000000
(1738165762.009769) can1 501#0AA10002423806E3
(1738165762.030553) can1 4FF#05
(1738165762.039770) can1 508#028B4E0087000032
(1738165762.069792) can1 50A#007D7D0200000000
(1738165762.079778) can1 50D#0000DEA800008F5A
(1738165762.080759) can1 4F1#0000000000000000
(1738165762.109766) can1 501#0AA10002423806E3
(1738165762.139783) can1 508#028C4E0087000032
(1738165762.169845) can1 50A#007D7D0200000000
(1738165762.179836) can1 50E#00008FAF00000000
(1738165762.180784) can1 4F1#0000000000000000
(1738165762.209773) can1 501#0AA10002423806E3
(1738165762.239800) can1 508#02944E0087000032
(1738165762.269783) can1 50A#007D7D0200000000
(1738165762.279799) can1 50F#0000200000000000
(1738165762.280757) can1 4F1#0000000000000000
(1738165762.309800) can1 501#0AA10002423806E3
(1738165762.339772) can1 508#028C4E0085000032
(1738165762.369789) can1 50A#007D7D0200000000
(1738165762.379796) can1 509#4900000000000000
(1738165762.380756) can1 4F1#0000000000000000
(1738165762.398656) can1 351#7C0B2C012003D809
(1738165762.400666) can1 355#4000640084024900
(1738165762.402689) can1 356#940A000000000000
(1738165762.404688) can1 358#370F0309150F0409
(1738165762.406706) can1 359#100001010D000203
(1738165762.408735) can1 35B#0101000000000000
(1738165762.409756) can1 501#0AA10002423806E3
(1738165762.410732) can1 35C#0800140004000C00
(1738165762.412743) can1 3D2#110000000000EEFC
(1738165762.414780) can1 35A#0000000000000000
(1738165762.439798) can1 508#02904E0085000032
(1738165762.469788) can1 50A#007D7D0200000000
(1738165762.479815) can1 50C#821C0E1013150382
(1738165762.480775) can1 4F1#0000000000000000
(1738165762.509763) can1 501#0AA10002423806E3
(1738165762.530506) can1 4FF#05
(1738165762.539761) can1 508#028C4E0085000032
(1738165762.569795) can1 50A#007D7D0200000000
(1738165762.579798) can1 500#0112014400000102
(1738165762.580787) can1 4F1#0000000000000000
(1738165762.609814) can1 501#0AA10002423806E3
(1738165762.639778) can1 508#02884E0085000032
(1738165762.669821) can1 50A#007D7D0200000000
(1738165762.679821) can1 502#0000000000000000
(1738165762.680759) can1 4F1#0000000000000000
(1738165762.709757) can1 501#0AA10002423806E3
(1738165762.739758) can1 508#02894E0085000032
(1738165762.769804) can1 50A#007D7D0200000000
(1738165762.779790) can1 503#0000000000000000
(1738165762.780753) can1 4F1#0000000000000000
(1738165762.809753) can1 501#0AA10002423806E3
(1738165762.839755) can1 508#02894E0085000032
(1738165762.869770) can1 50A#007D7D0200000000
(1738165762.879785) can1 505#0A94000010104000
(1738165762.880783) can1 4F1#0000000000000000
(1738165762.909788) can1 501#0AA10002423806E3
(1738165762.939760) can1 508#02884E0085000032
(1738165762.969776) can1 50A#007D7D0200000000
(1738165762.979802) can1 50C#821C0E1013150382
(1738165762.980265) can1 506#0000010000028400
(1738165762.980767) can1 4F1#0000000000000000
(1738165763.009762) can1 501#0AA10002423806E3
(1738165763.030492) can1 4FF#05
(1738165763.039751) can1 508#028B4E0085000032
(1738165763.069792) can1 50A#007D7D0200000000
(1738165763.079773) can1 50D#0000DEA800008F5A
(1738165763.080757) can1 4F1#0000000000000000
(1738165763.109750) can1 501#0AA10002423806E3
(1738165763.139767) can1 508#028A4E0085000032
(1738165763.169814) can1 50A#007D7D0200000000
(1738165763.179823) can1 50E#00008FAF00000000
(1738165763.180753) can1 4F1#0000000000000000
(1738165763.209790) can1 501#0AA10002423806E3
(1738165763.239786) can1 508#028C4E0085000032
(1738165763.269770) can1 50A#007D7D0200000000
(1738165763.279786) can1 50F#0000200000000000
(1738165763.280775) can1 4F1#0000000000000000
(1738165763.309756) can1 501#0AA10002423806E3
(1738165763.339766) can1 508#028D4E0086000032
(1738165763.369779) can1 50A#007D7D0200000000
(1738165763.379786) can1 509#4900000000000000
(1738165763.380756) can1 4F1#0000000000000000
(1738165763.409764) can1 501#0AA10002423806E3
(1738165763.411105) can1 351#7C0B2C012003D809
(1738165763.413149) can1 355#4000640084024900
(1738165763.415131) can1 356#940A000000000000
(1738165763.417111) can1 358#380F0307150F040C
(1738165763.419129) can1 359#100001010D000203
(1738165763.421154) can1 35B#0101000000000000
(1738165763.423161) can1 35C#0800140004000C00
(1738165763.425170) can1 3D2#110000000000EEFC
(1738165763.427202) can1 35A#0000000000000000
(1738165763.439760) can1 508#02894E0086000032
(1738165763.469788) can1 50A#007D7D0200000000
(1738165763.479803) can1 50C#821C0E1013150382
(1738165763.480768) can1 4F1#0000000000000000
(1738165763.509786) can1 501#0AA10002423806E3
(1738165763.530516) can1 4FF#05
(1738165763.539754) can1 508#028C4E0086000032
(1738165763.569766) can1 50A#007D7D0200000000
(1738165763.579773) can1 500#0112014400000102
(1738165763.580762) can1 4F1#0000000000000000
(1738165763.609754) can1 501#0AA10002423806E3
(1738165763.639754) can1 508#028A4E0086000032
(1738165763.669800) can1 50A#007D7D0200000000
(1738165763.679844) can1 502#0000000000000000
(1738165763.680761) can1 4F1#0000000000000000
(1738165763.709763) can1 501#0AA10002423806E3
(1738165763.739780) can1 508#02874E0086000032
(1738165763.769789) can1 50A#007D7D0200000000
(1738165763.779784) can1 503#0000000000000000
(1738165763.780738) can1 4F1#0000000000000000
(1738165763.809790) can1 501#0AA10002423806E3
(1738165763.839775) can1 508#028B4E0086000032
(1738165763.869766) can1 50A#007D7D0200000000
(1738165763.879768) can1 505#0A94000010104000
(1738165763.880756) can1 4F1#0000000000000000
(1738165763.909752) can1 501#0AA10002423806E3
(1738165763.939752) can1 508#028A4E0086000032
(1738165763.969764) can1 50A#007D7D0200000000
(1738165763.979802) can1 50C#821C0E1013150382
(1738165763.980266) can1 506#0000010000028400
(1738165763.980761) can1 4F1#0000000000000000
(1738165764.009758) can1 501#0AA10002423806E3
(1738165764.030500) can1 4FF#05
(1738165764.039757) can1 508#028B4E0086000032
(1738165764.069811) can1 50A#007D7D0200000000
(1738165764.079743) can1 50D#0000DEA800008F5A
(1738165764.080733) can1 4F1#0000000000000000
(1738165764.109775) can1 501#0AA10002423806E3
(1738165764.139752) can1 508#028C4E0086000032
(1738165764.169779) can1 50A#007D7D0200000000
(1738165764.179794) can1 50E#00008FAF00000000
(1738165764.180742) can1 4F1#0000000000000000
(1738165764.209736) can1 501#0AA10002423806E3
(1738165764.239748) can1 508#02884E0086000032
(1738165764.269758) can1 50A#007D7D0200000000
(1738165764.279779) can1 50F#0000200000000000
(1738165764.280733) can1 4F1#0000000000000000
(1738165764.309756) can1 501#0AA10002423806E3
(1738165764.339765) can1 508#028A4E0085000032
(1738165764.369819) can1 50A#007D7D0200000000
(1738165764.379817) can1 509#4900000000000000
(1738165764.380752) can1 4F1#0000000000000000
(1738165764.403549) can1 351#7C0B2C012003D809
(1738165764.405496) can1 355#4000640084024900
(1738165764.407543) can1 356#940A000000000000
(1738165764.409499) can1 358#370F0307150F0509
(1738165764.409964) can1 501#0AA10002423806E3
(1738165764.411552) can1 359#100001010D000203
(1738165764.413555) can1 35B#0101000000000000
(1738165764.415578) can1 35C#0800140004000C00
(1738165764.417573) can1 3D2#110000000000EEFC
(1738165764.419602) can1 35A#0000000000000000
(1738165764.439734) can1 508#028D4E0085000032
(1738165764.469765) can1 50A#007D7D0200000000
(1738165764.479771) can1 50C#821C0E1013150381
(1738165764.480750) can1 4F1#0000000000000000
(1738165764.509748) can1 501#0AA10002423806E3
(1738165764.530489) can1 4FF#05
(1738165764.539738) can1 508#028C4E0085000032
(1738165764.569760) can1 50A#007D7D0200000000
(1738165764.579762) can1 500#0112014400000102
(1738165764.580764) can1 4F1#0000000000000000
(1738165764.609738) can1 501#0AA10002423806E3
(1738165764.639771) can1 508#02924E0085000032
(1738165764.669787) can1 50A#007D7D0200000000
(1738165764.679813) can1 502#0000000000000000
(1738165764.680736) can1 4F1#0000000000000000
(1738165764.709765) can1 501#0AA10002423806E3
(1738165764.739739) can1 508#02884E0085000032
(1738165764.769759) can1 50A#007D7D0200000000
(1738165764.779772) can1 503#0000000000000000
(1738165764.780730) can1 4F1#0000000000000000
(1738165764.809731) can1 501#0AA10002423806E3
(1738165764.839731) can1 508#028D4E0085000032
(1738165764.869782) can1 50A#007D7D0200000000
(1738165764.879743) can1 505#0A94000010104000
(1738165764.880733) can1 4F1#0000000000000000
(1738165764.909767) can1 501#0AA10002423806E3
(1738165764.939776) can1 508#02894E0085000032
(1738165764.969767) can1 50A#007D7D0200000000
(1738165764.979797) can1 50C#821C0E1013150381
(1738165764.980248) can1 506#0000010000028400
(1738165764.980748) can1 4F1#0000000000000000
(1738165765.009774) can1 501#0AA10002423806E3
(1738165765.030476) can1 4FF#05
(1738165765.039732) can1 508#02894E0085000032
(1738165765.069751) can1 50A#007D7D0200000000
(1738165765.079732) can1 50D#0000DEA800008F5A
(1738165765.080736) can1 4F1#0000000000000000
(1738165765.109745) can1 501#0AA10002423806E3
(1738165765.139735) can1 508#02874E0085000032
(1738165765.169785) can1 50A#007D7D0200000000
(1738165765.179775) can1 50E#00008FAF00000000
(1738165765.180721) can1 4F1#0000000000000000
(1738165765.209722) can1 501#0AA10002423806E3
(1738165765.239724) can1 508#028A4E0085000032
(1738165765.269745) can1 50A#007D7D0200000000
(1738165765.279757) can1 50F#0000200000000000
(1738165765.280722) can1 4F1#0000000000000000
(1738165765.309766) can1 501#0AA10002423806E3
(1738165765.339741) can1 508#02874E0085000032
(1738165765.369763) can1 50A#007D7D0200000000
(1738165765.379754) can1 509#4900000000000000
(1738165765.380731) can1 4F1#0000000000000000
(1738165765.395888) can1 351#7C0B2C012003D809
(1738165765.397904) can1 355#4000640084024900
(1738165765.399922) can1 356#940A000000000000
(1738165765.401913) can1 358#380F030A150F030D
(1738165765.403940) can1 359#100001010D000203
(1738165765.405958) can1 35B#0101000000000000
(1738165765.407969) can1 35C#0800140004000C00
(1738165765.409720) can1 501#0AA10002423806E3
(1738165765.410212) can1 3D2#110000000000EEFC
(1738165765.412007) can1 35A#0000000000000000
(1738165765.439731) can1 508#028A4E0085000032
(1738165765.469770) can1 50A#007D7D0200000000
(1738165765.479764) can1 50C#821C0E1013150381
(1738165765.480733) can1 4F1#0000000000000000
(1738165765.509740) can1 501#0AA10002423806E3
(1738165765.530469) can1 4FF#05
(1738165765.539724) can1 508#028A4E0085000032
(1738165765.569741) can1 50A#007D7D0200000000
(1738165765.579743) can1 500#0112014400000102
(1738165765.580727) can1 4F1#0000000000000000
(1738165765.609752) can1 501#0AA10002423806E3
(1738165765.639728) can1 508#028A4E0085000032
(1738165765.669774) can1 50A#007D7D0200000000
(1738165765.679785) can1 502#0000000000000000
(1738165765.680726) can1 4F1#0000000000000000
(1738165765.709737) can1 501#0AA10002423806E3
(1738165765.739727) can1 508#028A4E0085000032
(1738165765.769757) can1 50A#007D7D0200000000
(1738165765.779758) can1 503#0000000000000000
(1738165765.780721) can1 4F1#0000000000000000
(1738165765.809714) can1 501#0AA10002423806E3
(1738165765.839711) can1 508#028A4E0085000032
(1738165765.869732) can1 50A#007D7D0200000000
(1738165765.879733) can1 505#0A94000010104000
(1738165765.880715) can1 4F1#0000000000000000
(1738165765.909745) can1 501#0AA10002423806E3
(1738165765.939727) can1 508#028C4E0085000032
(1738165765.969773) can1 50A#007D7D0200000000
(1738165765.979741) can1 50C#821C0E1013150381
(1738165765.980239) can1 506#0000010000028400
(1738165765.980729) can1 4F1#0000000000000000
(1738165766.009723) can1 501#0AA10002423806E3
(1738165766.030486) can1 4FF#05
(1738165766.039718) can1 508#02864E0085000032
(1738165766.069733) can1 50A#007D7D0200000000
(1738165766.079720) can1 50D#0000DEA800008F5A
(1738165766.080720) can1 4F1#0000000000000000
(1738165766.109736) can1 501#0AA10002423806E3
(1738165766.139724) can1 508#028A4E0085000032
(1738165766.169774) can1 50A#007D7D0200000000
(1738165766.179778) can1 50E#00008FAF00000000
(1738165766.180716) can1 4F1#0000000000000000
(1738165766.209737) can1 501#0AA10002423806E3
(1738165766.239711) can1 508#02874E0085000032
(1738165766.269738) can1 50A#007D7D0200000000
(1738165766.279733) can1 50F#0000200000000000
(1738165766.280705) can1 4F1#0000000000000000
(1738165766.309733) can1 501#0AA10002423806E3
(1738165766.339721) can1 508#02874E0085000032
(1738165766.369744) can1 50A#007D7D0200000000
(1738165766.379727) can1 509#4900000000000000
(1738165766.380732) can1 4F1#0000000000000000
(1738165766.408323) can1 351#7C0B2C012003D809
(1738165766.409721) can1 501#0AA10002423806E3
(1738165766.410327) can1 355#4000640084024900
(1738165766.412351) can1 356#940A000000000000
(1738165766.414346) can1 358#370F030A140F040C
(1738165766.416369) can1 359#100001010D000203
(1738165766.418395) can1 35B#0101000000000000
(1738165766.420401) can1 35C#0800140004000C00
(1738165766.422402) can1 3D2#110000000000EEFC
(1738165766.424435) can1 35A#0000000000000000
(1738165766.439729) can1 508#02864E0085000032
(1738165766.469757) can1 50A#007D7D0200000000
(1738165766.479761) can1 50C#821C0E1013150381
(1738165766.480723) can1 4F1#0000000000000000
(1738165766.509749) can1 501#0AA10002423806E3
(1738165766.530468) can1 4FF#05
(1738165766.539712) can1 508#028B4E0085000032
(1738165766.569735) can1 50A#007D7D0200000000
(1738165766.579734) can1 500#0112014400000102
(1738165766.580715) can1 4F1#0000000000000000
(1738165766.609750) can1 501#0AA10002423806E3
(1738165766.639710) can1 508#028E4E0085000032
(1738165766.669736) can1 50A#007D7D0200000000
(1738165766.679763) can1 502#0000000000000000
(1738165766.680720) can1 4F1#0000000000000000
(1738165766.709752) can1 501#0AA10002423806E3
(1738165766.739730) can1 508#028A4E0085000032
(1738165766.769743) can1 50A#007D7D0200000000
(1738165766.779753) can1 503#0000000000000000
(1738165766.780749) can1 4F1#0000000000000000
(1738165766.809716) can1 501#0AA10002423806E3
(1738165766.839714) can1 508#028F4E0085000032
(1738165766.869751) can1 50A#007D7D0200000000
(1738165766.879727) can1 505#0A94000010104000
(1738165766.880712) can1 4F1#0000000000000000
(1738165766.909736) can1 501#0AA10002423806E3
(1738165766.939723) can1 508#02884E0085000032
(1738165766.969727) can1 50A#007D7D0200000000
(1738165766.979722) can1 50C#821C0E1013150381
(1738165766.980216) can1 506#0000010000028400
(1738165766.980731) can1 4F1#0000000000000000
(1738165767.009739) can1 501#0AA10002423806E3
(1738165767.030459) can1 4FF#05
(1738165767.039725) can1 508#028C4E0085000032
(1738165767.069736) can1 50A#007D7D0200000000
(1738165767.079772) can1 50D#0000DEA800008F5A
(1738165767.080721) can1 4F1#0000000000000000
(1738165767.109732) can1 501#0AA10002423806E3
(1738165767.139707) can1 508#02894E0085000032
(1738165767.169726) can1 50A#007D7D0200000000
(1738165767.179756) can1 50E#00008FAF00000000
(1738165767.180707) can1 4F1#0000000000000000
(1738165767.209702) can1 501#0AA10002423806E3
(1738165767.239714) can1 508#028A4E0085000032
(1738165767.269756) can1 50A#007D7D0200000000
(1738165767.279740) can1 50F#0000200000000000
(1738165767.280703) can1 4F1#0000000000000000
(1738165767.309714) can1 501#0AA10002423806E3
(1738165767.339715) can1 508#028A4E0085000032
(1738165767.369739) can1 50A#007D7D0200000000
(1738165767.379759) can1 509#4900000000000000
(1738165767.380703) can1 4F1#0000000000000000
(1738165767.400703) can1 351#7C0B2C012003D809
(1738165767.402720) can1 355#4000640084024900
(1738165767.404744) can1 356#940A000000000000
(1738165767.406734) can1 358#380F0309140F050A
(1738165767.408760) can1 359#100001010D000203
(1738165767.409695) can1 501#0AA10002423806E3
(1738165767.410816) can1 35B#0101000000000000
(1738165767.412834) can1 35C#0800140004000C00
(1738165767.414808) can1 3D2#110000000000EEFC
(1738165767.416838) can1 35A#0000000000000000
(1738165767.439706) can1 508#028A4E0085000032
(1738165767.469738) can1 50A#007D7D0200000000
(1738165767.479724) can1 50C#821C0E1013150381
(1738165767.480713) can1 4F1#0000000000000000
(1738165767.509734) can1 501#0AA10002423806E3
(1738165767.530455) can1 4FF#05
(1738165767.539720) can1 508#02874E0085000032
(1738165767.569772) can1 50A#007D7D0200000000
(1738165767.579758) can1 500#0112014400000102
(1738165767.580718) can1 4F1#0000000000000000
(1738165767.609745) can1 501#0AA10002423806E3
(1738165767.639706) can1 508#028A4E0085000032
(1738165767.669717) can1 50A#007D7D0200000000
(1738165767.679792) can1 502#0000000000000000
(1738165767.680722) can1 4F1#0000000000000000
(1738165767.709726) can1 501#0AA10002423806E3
(1738165767.739707) can1 508#02894E0085000032
(1738165767.769735) can1 50A#007D7D0200000000
(1738165767.779733) can1 503#0000000000000000
(1738165767.780697) can1 4F1#0000000000000000
(1738165767.809693) can1 501#0AA10002423806E3
(1738165767.839720) can1 508#028B4E0085000032
(1738165767.869730) can1 50A#007D7D0200000000
(1738165767.879754) can1 505#0A94000010104000
(1738165767.880715) can1 4F1#0000000000000000
(1738165767.909740) can1 501#0AA10002423806E3
(1738165767.939693) can1 508#028C4E0085000032
(1738165767.969710) can1 50A#007D7D0200000000
(1738165767.979739) can1 50C#821C0E1013150381
(1738165767.980203) can1 506#0000010000028400
(1738165767.980692) can1 4F1#0000000000000000
(1738165768.009713) can1 501#0AA10002423806E3
(1738165768.030440) can1 4FF#05
(1738165768.039702) can1 508#028A4E0085000032
(1738165768.069727) can1 50A#007D7D0200000000
(1738165768.079696) can1 50D#0000DEA800008F5A
(1738165768.080692) can1 4F1#0000000000000000
(1738165768.109699) can1 501#0AA10002423806E3
(1738165768.139704) can1 508#028B4E0085000032
(1738165768.169710) can1 50A#007D7D0200000000
(1738165768.179751) can1 50E#00008FAF00000000
(1738165768.180699) can1 4F1#0000000000000000
(1738165768.209705) can1 501#0AA10002423806E3
(1738165768.239696) can1 508#02894E0085000032
(1738165768.269713) can1 50A#007D7D0200000000
(1738165768.279769) can1 50F#0000200000000000
(1738165768.280703) can1 4F1#0000000000000000
(1738165768.309733) can1 501#0AA10002423806E3
(1738165768.339709) can1 508#02864E0085000032
(1738165768.369729) can1 50A#007D7D0200000000
(1738165768.379758) can1 509#4900000000000000
(1738165768.380703) can1 4F1#0000000000000000
(1738165768.409710) can1 501#0AA10002423806E3
(1738165768.439708) can1 508#02884E0085000032
(1738165768.469717) can1 50A#007D7D0200000000
(1738165768.473158) can1 351#7C0B2C012003D809
(1738165768.475167) can1 355#4000640084024900
(1738165768.477192) can1 356#940A000000000000
(1738165768.479175) can1 358#370F0309150F030D
(1738165768.479718) can1 50C#821C0E1013150381
(1738165768.480682) can1 4F1#0000000000000000
(1738165768.481206) can1 359#100001010D000203
(1738165768.483230) can1 35B#0101000000000000
(1738165768.485253) can1 35C#0800140004000C00
(1738165768.487246) can1 3D2#110000000000EEFC
(1738165768.489280) can1 35A#0000000000000000
(1738165768.509689) can1 501#0AA10002423806E3
(1738165768.530446) can1 4FF#05
(1738165768.539706) can1 508#02854E0085000032
(1738165768.569749) can1 50A#007D7D0200000000
(1738165768.579769) can1 500#0112014400000102
(1738165768.580704) can1 4F1#0000000000000000
(1738165768.609734) can1 501#0AA10002423806E3
(1738165768.639716) can1 508#02884E0085000032
(1738165768.669715) can1 50A#007D7D0200000000
(1738165768.679753) can1 502#0000000000000000
(1738165768.680687) can1 4F1#0000000000000000
(1738165768.709704) can1 501#0AA10002423806E3
(1738165768.739690) can1 508#02894E0085000032
(1738165768.769710) can1 50A#007D7D0200000000
(1738165768.779729) can1 503#0000000000000000
(1738165768.780697) can1 4F1#0000000000000000
(1738165768.809716) can1 501#0AA10002423806E3
(1738165768.839696) can1 508#02884E0085000032
(1738165768.869739) can1 50A#007D7D0200000000
(1738165768.879740) can1 505#0A94000010104000
(1738165768.880694) can1 4F1#0000000000000000
(1738165768.909711) can1 501#0AA10002423806E3
(1738165768.939697) can1 508#028C4E0085000032
(1738165768.969705) can1 50A#007D7D0200000000
(1738165768.979704) can1 50C#821C0E1013150381
(1738165768.980197) can1 506#0000010000028400
(1738165768.980697) can1 4F1#0000000000000000
(1738165769.009716) can1 501#0AA10002423806E3
(1738165769.030452) can1 4FF#05
(1738165769.039698) can1 508#028B4E0085000032
(1738165769.069719) can1 50A#007D7D0200000000
(1738165769.079701) can1 50D#0000DEA800008F5A
(1738165769.080689) can1 4F1#0000000000000000
(1738165769.109694) can1 501#0AA10002423806E3
(1738165769.139699) can1 508#028A4E0085000032
(1738165769.169734) can1 50A#007D7D0200000000
(1738165769.179742) can1 50E#00008FAF00000000
(1738165769.180685) can1 4F1#0000000000000000
(1738165769.209680) can1 501#0AA10002423806E3
(1738165769.239694) can1 508#028D4E0085000032
(1738165769.269698) can1 50A#007D7D0200000000
(1738165769.279710) can1 50F#0000200000000000
(1738165769.280674) can1 4F1#0000000000000000
(1738165769.309681) can1 501#0AA10002423806E3
(1738165769.339699) can1 508#02884E0085000032
(1738165769.369721) can1 50A#007D7D0200000000
(1738165769.379722) can1 509#4900000000000000
(1738165769.380683) can1 4F1#0000000000000000
(1738165769.409687) can1 501#0AA10002423806E3
(1738165769.411743) can1 351#7C0B2C012003D809
(1738165769.413763) can1 355#4000640084024900
(1738165769.415806) can1 356#940A000000000000
(1738165769.417769) can1 358#370F0309150F030D
(1738165769.419799) can1 359#100001010D000203
(1738165769.421829) can1 35B#0101000000000000
(1738165769.423835) can1 35C#0800140004000C00
(1738165769.425836) can1 3D2#110000000000EEFC
(1738165769.427869) can1 35A#0000000000000000
(1738165769.439692) can1 508#028C4E0085000032
(1738165769.469740) can1 50A#007D7D0200000000
(1738165769.479737) can1 50C#821C0E1013150381
(1738165769.480686) can1 4F1#0000000000000000
(1738165769.509708) can1 501#0AA10002423806E3
(1738165769.530428) can1 4FF#05
(1738165769.539684) can1 508#028D4E0085000032
(1738165769.569696) can1 50A#007D7D0200000000
(1738165769.579703) can1 500#0112014400000102
(1738165769.580697) can1 4F1#0000000000000000
(1738165769.609707) can1 501#0AA10002423806E3
(1738165769.639700) can1 508#028B4E0085000032
(1738165769.669717) can1 50A#007D7D0200000000
(1738165769.679761) can1 502#0000000000000000
(1738165769.680719) can1 4F1#0000000000000000
(1738165769.709710) can1 501#0AA10002423806E3
(1738165769.739705) can1 508#028A4E0085000032
(1738165769.769729) can1 50A#007D7D0200000000
(1738165769.779758) can1 503#0000000000000000
(1738165769.780704) can1 4F1#0000000000000000
(1738165769.809711) can1 501#0AA10002423806E3
(1738165769.839706) can1 508#02884E0085000032
(1738165769.869690) can1 50A#007D7D0200000000
(1738165769.879694) can1 505#0A94000010104000
(1738165769.880667) can1 4F1#0000000000000000
(1738165769.909677) can1 501#0AA10002423806E3
(1738165769.939672) can1 508#02874E0085000032
(1738165769.969695) can1 50A#007D7D0200000000
(1738165769.979692) can1 50C#821C0E1013150381
(1738165769.980182) can1 506#0000010000028400
(1738165769.980683) can1 4F1#0000000000000000
(1738165770.009668) can1 501#0AA10002423806E3
(1738165770.030442) can1 4FF#05
(1738165770.039686) can1 508#028C4E0085000032
(1738165770.069698) can1 50A#007D7D0200000000
(1738165770.079712) can1 50D#0000DEA800008F5A
(1738165770.080673) can1 4F1#0000000000000000
(1738165770.109666) can1 501#0AA10002423806E3
(1738165770.139690) can1 508#028A4E0085000032
(1738165770.169691) can1 50A#007D7D0200000000
(1738165770.179724) can1 50E#00008FAF00000000
(1738165770.180694) can1 4F1#0000000000000000
(1738165770.209667) can1 501#0AA10002423806E3
(1738165770.239707) can1 508#028A4E0085000032
(1738165770.269688) can1 50A#007D7D0200000000
(1738165770.279699) can1 50F#0000200000000000
(1738165770.280676) can1 4F1#0000000000000000
(1738165770.309669) can1 501#0AA10002423806E3
(1738165770.339705) can1 508#02914E0085000032
(1738165770.369700) can1 50A#007D7D0200000000
(1738165770.379720) can1 509#4900000000000000
(1738165770.380667) can1 4F1#0000000000000000
(1738165770.404138) can1 351#7C0B2C012003D809
(1738165770.406149) can1 355#4000640084024900
(1738165770.408172) can1 356#940A000000000000
(1738165770.409663) can1 501#0AA10002423806E3
(1738165770.410165) can1 358#380F0307150F0409
(1738165770.412191) can1 359#100001010D000203
(1738165770.414216) can1 35B#0101000000000000
(1738165770.416219) can1 35C#0800140004000C00
(1738165770.418227) can1 3D2#110000000000EEFC
(1738165770.420255) can1 35A#0000000000000000
(1738165770.439691) can1 508#02884E0085000032
(1738165770.469688) can1 50A#007D7D0200000000
(1738165770.479690) can1 50C#821C0E1013150381
(1738165770.480663) can1 4F1#0000000000000000
(1738165770.509671) can1 501#0AA10002423806E3
(1738165770.530437) can1 4FF#05
(1738165770.539670) can1 508#028F4E0085000032
(1738165770.569724) can1 50A#007D7D0200000000
(1738165770.579722) can1 500#0112014400000102
(1738165770.580678) can1 4F1#0000000000000000
(1738165770.609671) can1 501#0AA10002423806E3
(1738165770.639691) can1 508#02884E0085000032
(1738165770.669721) can1 50A#007D7D0200000000
(1738165770.679729) can1 502#0000000000000000
(1738165770.680692) can1 4F1#0000000000000000
(1738165770.709669) can1 501#0AA10002423806E3
(1738165770.739676) can1 508#02864E0085000032
(1738165770.769694) can1 50A#007D7D0200000000
(1738165770.779704) can1 503#0000000000000000
(1738165770.780659) can1 4F1#0000000000000000
(1738165770.809665) can1 501#0AA10002423806E3
(1738165770.839681) can1 508#02884E0085000032
(1738165770.869701) can1 50A#007D7D0200000000
(1738165770.879699) can1 505#0A94000010104000
(1738165770.880690) can1 4F1#0000000000000000
(1738165770.909682) can1 501#0AA10002423806E3
(1738165770.939678) can1 508#02894E0085000032
(1738165770.969648) can1 50A#007D7D0200000000
(1738165770.979644) can1 50C#821C0E1013150381
(1738165770.980142) can1 506#0000010000028400
(1738165770.980644) can1 4F1#0000000000000000
(1738165771.009624) can1 501#0AA10002423806E3
(1738165771.030415) can1 4FF#05
(1738165771.039660) can1 508#02894E0085000032
(1738165771.069682) can1 50A#007D7D0200000000
(1738165771.079655) can1 50D#0000DEA800008F5A
(1738165771.080635) can1 4F1#0000000000000000
(1738165771.109658) can1 501#0AA10002423806E3
(1738165771.139672) can1 508#028B4E0085000032
(1738165771.169666) can1 50A#007D7D0200000000
(1738165771.179664) can1 50E#00008FAF00000000
(1738165771.180618) can1 4F1#0000000000000000
(1738165771.209621) can1 501#0AA10002423806E3
(1738165771.239625) can1 508#02874E0085000032
(1738165771.269668) can1 50A#007D7D0200000000
(1738165771.279648) can1 50F#0000200000000000
(1738165771.280616) can1 4F1#0000000000000000
(1738165771.309622) can1 501#0AA10002423806E3
(1738165771.339634) can1 508#028B4E0085000032
(1738165771.369638) can1 50A#007D7D0200000000
(1738165771.379635) can1 509#4900000000000000
(1738165771.380614) can1 4F1#0000000000000000
(1738165771.396498) can1 351#7C0B2C012003D809
(1738165771.398512) can1 355#4000640084024900
(1738165771.400546) can1 356#940A000000000000
(1738165771.402551) can1 358#390F0307140F0409
(1738165771.404553) can1 359#100001010D000203
(1738165771.406577) can1 35B#0101000000000000
(1738165771.408584) can1 35C#0800140004000C00
(1738165771.409611) can1 501#0AA10002423806E3
(1738165771.410592) can1 3D2#110000000000EEFC
(1738165771.412623) can1 35A#0000000000000000
(1738165771.439619) can1 508#028A4E0085000032
(1738165771.469658) can1 50A#007D7D0200000000
(1738165771.479667) can1 50C#821C0D1013150381
(1738165771.480640) can1 4F1#0000000000000000
(1738165771.509634) can1 501#0AA10002423806E3
(1738165771.530367) can1 4FF#05
(1738165771.539621) can1 508#028A4E0085000032
(1738165771.569665) can1 50A#007D7D0200000000
(1738165771.579638) can1 500#0112014400000102
(1738165771.580637) can1 4F1#0000000000000000
(1738165771.609614) can1 501#0AA10002423806E3
(1738165771.639637) can1 508#028A4E0085000032
(1738165771.669636) can1 50A#007D7D0200000000
(1738165771.679674) can1 502#0000000000000000
(1738165771.680626) can1 4F1#0000000000000000
(1738165771.709615) can1 501#0AA10002423806E3
(1738165771.739628) can1 508#028A4E0085000032
(1738165771.769658) can1 50A#007D7D0200000000
(1738165771.779669) can1 503#0000000000000000
(1738165771.780612) can1 4F1#0000000000000000
(1738165771.809612) can1 501#0AA10002423806E3
(1738165771.839637) can1 508#028A4E0085000032
(1738165771.869632) can1 50A#007D7D0200000000
(1738165771.879630) can1 505#0A94000010104000
(1738165771.880626) can1 4F1#0000000000000000
(1738165771.909610) can1 501#0AA10002423806E3
(1738165771.939613) can1 508#028D4E0085000032
(1738165771.969631) can1 50A#007D7D0200000000
(1738165771.979626) can1 50C#821C0E1013150381
(1738165771.980126) can1 506#0000010000028400
(1738165771.980632) can1 4F1#0000000000000000
(1738165772.009611) can1 501#0AA10002423806E3
(1738165772.030369) can1 4FF#05
(1738165772.039619) can1 508#02884E0085000032
(1738165772.069629) can1 50A#007D7D0200000000
(1738165772.079630) can1 50D#0000DEA800008F5A
(1738165772.080606) can1 4F1#0000000000000000
(1738165772.109609) can1 501#0AA10002423806E3
(1738165772.139622) can1 508#02874E0085000032
(1738165772.169633) can1 50A#007D7D0200000000
(1738165772.179648) can1 50E#00008FAF00000000
(1738165772.180607) can1 4F1#0000000000000000
(1738165772.209608) can1 501#0AA10002423806E3
(1738165772.239635) can1 508#02864E0085000032
(1738165772.269649) can1 50A#007D7D0200000000
(1738165772.279660) can1 50F#0000200000000000
(1738165772.280625) can1 4F1#0000000000000000
(1738165772.309605) can1 501#0AA10002423806E3
(1738165772.339618) can1 508#02854E0085000032
(1738165772.369625) can1 50A#007D7D0200000000
(1738165772.379625) can1 509#4900000000000000
(1738165772.380601) can1 4F1#0000000000000000
(1738165772.408914) can1 351#7C0B2C012003D809
(1738165772.409602) can1 501#0AA10002423806E3
(1738165772.410965) can1 355#4000640084024900
(1738165772.412956) can1 356#940A000000000000
(1738165772.414948) can1 358#370F0309140F050A
(1738165772.416972) can1 359#100001010D000203
(1738165772.418996) can1 35B#0101000000000000
(1738165772.421005) can1 35C#0800140004000C00
(1738165772.423009) can1 3D2#110000000000EEFC
(1738165772.425045) can1 35A#0000000000000000
(1738165772.439605) can1 508#028A4E0085000032
(1738165772.469645) can1 50A#007D7D0200000000
(1738165772.479631) can1 50C#821C0E1013150381
(1738165772.480606) can1 4F1#0000000000000000
(1738165772.509602) can1 501#0AA10002423806E3
(1738165772.530361) can1 4FF#05
(1738165772.539603) can1 508#028D4E0085000032
(1738165772.569627) can1 50A#007D7D0200000000
(1738165772.579647) can1 500#0112014400000102
(1738165772.580624) can1 4F1#0000000000000000
(1738165772.609612) can1 501#0AA10002423806E3
(1738165772.639601) can1 508#02894E0085000032
(1738165772.669634) can1 50A#007D7D0200000000
(1738165772.679666) can1 502#0000000000000000
(1738165772.680603) can1 4F1#0000000000000000
(1738165772.709603) can1 501#0AA10002423806E3
(1738165772.739608) can1 508#02904E0085000032
(1738165772.769641) can1 50A#007D7D0200000000
(1738165772.779662) can1 503#0000000000000000
(1738165772.780602) can1 4F1#0000000000000000
(1738165772.809599) can1 501#0AA10002423806E3
(1738165772.839621) can1 508#02874E0085000032
(1738165772.869621) can1 50A#007D7D0200000000
(1738165772.879620) can1 505#0A94000010104000
(1738165772.880630) can1 4F1#0000000000000000
(1738165772.909598) can1 501#0AA10002423806E3
(1738165772.939598) can1 508#02894E0085000032
(1738165772.969622) can1 50A#007D7D0200000000
(1738165772.979616) can1 50C#821C0E1013150381
(1738165772.980115) can1 506#0000010000028400
(1738165772.980621) can1 4F1#0000000000000000
(1738165773.009600) can1 501#0AA10002423806E3
(1738165773.030354) can1 4FF#05
(1738165773.039598) can1 508#02874E0085000032
(1738165773.069622) can1 50A#007D7D0200000000
(1738165773.079625) can1 50D#0000DEA800008F5A
(1738165773.080602) can1 4F1#0000000000000000
(1738165773.109596) can1 501#0AA10002423806E3
(1738165773.139599) can1 508#02874E0085000032
(1738165773.169618) can1 50A#007D7D0200000000
(1738165773.179643) can1 50E#00008FAF00000000
(1738165773.180598) can1 4F1#0000000000000000
(1738165773.209597) can1 501#0AA10002423806E3
(1738165773.239600) can1 508#02884E0085000032
(1738165773.269641) can1 50A#007D7D0200000000
(1738165773.279645) can1 50F#0000200000000000
(1738165773.280620) can1 4F1#0000000000000000
(1738165773.309596) can1 501#0AA10002423806E3
(1738165773.339621) can1 508#028A4E0085000032
(1738165773.369637) can1 50A#007D7D0200000000
(1738165773.379614) can1 509#4900000000000000
(1738165773.380592) can1 4F1#0000000000000000
(1738165773.401323) can1 351#7C0B2C012003D809
(1738165773.403342) can1 355#4000640084024900
(1738165773.405361) can1 356#940A000000000000
(1738165773.407356) can1 358#370F0309150F040C
(1738165773.409376) can1 359#100001010D000203
(1738165773.409843) can1 501#0AA10002423806E3
(1738165773.411432) can1 35B#0101000000000000
(1738165773.413417) can1 35C#0800140004000C00
(1738165773.415420) can1 3D2#110000000000EEFC
(1738165773.417454) can1 35A#0000000000000000
(1738165773.439590) can1 508#02864E0085000032
(1738165773.469615) can1 50A#007D7D0200000000
(1738165773.479620) can1 50C#821C0E1013150381
(1738165773.480592) can1 4F1#0000000000000000
(1738165773.509592) can1 501#0AA10002423806E3
(1738165773.530353) can1 4FF#05
(1738165773.539588) can1 508#028B4E0085000032
(1738165773.569619) can1 50A#007D7D0200000000
(1738165773.579636) can1 500#0112014400000102
(1738165773.580614) can1 4F1#0000000000000000
(1738165773.609593) can1 501#0AA10002423806E3
(1738165773.639629) can1 508#028A4E0085000032
(1738165773.669632) can1 50A#007D7D0200000000
(1738165773.679647) can1 502#0000000000000000
(1738165773.680600) can1 4F1#0000000000000000
(1738165773.709626) can1 501#0AA10002423806E3
(1738165773.739592) can1 508#028C4E0085000032
(1738165773.769635) can1 50A#007D7D0200000000
(1738165773.779646) can1 503#0000000000000000
(1738165773.780593) can1 4F1#0000000000000000
(1738165773.809588) can1 501#0AA10002423806E3
(1738165773.839596) can1 508#028D4E0085000032
(1738165773.869609) can1 50A#007D7D0200000000
(1738165773.879618) can1 505#0A94000010104000
(1738165773.880615) can1 4F1#0000000000000000
(1738165773.909590) can1 501#0AA10002423806E3
(1738165773.939593) can1 508#028A4E0085000032
(1738165773.969609) can1 50A#007D7D0200000000
(1738165773.979603) can1 50C#821C0E1013150381
(1738165773.980106) can1 506#0000010000028400
(1738165773.980613) can1 4F1#0000000000000000
(1738165774.009592) can1 501#0AA10002423806E3
(1738165774.030324) can1 4FF#05
(1738165774.039589) can1 508#028A4E0085000032
(1738165774.069633) can1 50A#007D7D0200000000
(1738165774.079607) can1 50D#0000DEA800008F5A
(1738165774.080589) can1 4F1#0000000000000000
(1738165774.109601) can1 501#0AA10002423806E3
(1738165774.139586) can1 508#028C4E0085000032
(1738165774.169602) can1 50A#007D7D0200000000
(1738165774.179630) can1 50E#00008FAF00000000
(1738165774.180587) can1 4F1#0000000000000000
(1738165774.209583) can1 501#0AA10002423806E3
(1738165774.239617) can1 508#02884E0085000032
(1738165774.269615) can1 50A#007D7D0200000000
(1738165774.279610) can1 50F#0000200000000000
(1738165774.280611) can1 4F1#0000000000000000
(1738165774.309588) can1 501#0AA10002423806E3
(1738165774.339584) can1 508#028B4E0085000032
(1738165774.369631) can1 50A#007D7D0200000000
(1738165774.379645) can1 509#4900000000000000
(1738165774.380586) can1 4F1#0000000000000000
(1738165774.393734) can1 351#7C0B2C012003D809
(1738165774.395752) can1 355#4000640084024900
(1738165774.397770) can1 356#940A000000000000
(1738165774.399766) can1 358#380F0309150F040C
(1738165774.401783) can1 359#100001010D000203
(1738165774.403807) can1 35B#0101000000000000
(1738165774.405814) can1 35C#0800140004000C00
(1738165774.407822) can1 3D2#110000000000EEFC
(1738165774.409574) can1 501#0AA10002423806E3
(1738165774.410078) can1 35A#0000000000000000
(1738165774.439587) can1 508#02864E0085000032
(1738165774.469610) can1 50A#007D7D0200000000
(1738165774.479616) can1 50C#821C0E1013150381
(1738165774.480582) can1 4F1#0000000000000000
(1738165774.509582) can1 501#0AA10002423806E3
