(1716195923.422991) can0 50A#197E7EFF00000000
(1716195923.443240) can0 502#0000000000000000
(1716195923.466878) can0 182#F55C6100
(1716195923.468245) can0 183#0000000000006100
(1716195923.468981) can0 185#1313131414141313
(1716195923.483212) can0 501#08390083151401AE
(1716195923.523284) can0 50A#197E7EFF00000000
(1716195923.543201) can0 503#0105CB0671002600
(1716195923.583206) can0 501#083D003415140246
(1716195923.623276) can0 50A#1A7E7EFF00000000
(1716195923.643255) can0 505#094BFFF713156100
(1716195923.667684) can0 460#0003A19BFFFFFEA2
(1716195923.667999) can0 462#0013001561001A
(1716195923.668936) can0 463#0000015E
(1716195923.669878) can0 461#06000000
(1716195923.671051) can0 464#000000000000AE41
(1716195923.672462) can0 466#0042070200000000
(1716195923.672832) can0 468#0303
(1716195923.682955) can0 501#083E004C151402E4
(1716195923.721843) can0 186#1415
(1716195923.722909) can0 50A#1E7E7EFF00000000
(1716195923.743268) can0 50C#461A000000000100
(1716195923.743409) can0 506#0000020008EA5F00
(1716195923.783231) can0 501#083E00CA1514038F
(1716195923.817185) can0 182#F55C6100
(1716195923.818344) can0 183#0000000003006100
(1716195923.819042) can0 185#1313131414141313
(1716195923.822908) can0 50A#227E7EFF00000000
(1716195923.842938) can0 50D#0000007E00000000
(1716195923.882904) can0 501#084200D915140454
(1716195923.922969) can0 50A#257E7EFF00000000
(1716195923.943178) can0 50F#0000000000000000
(1716195923.967427) can0 460#0003A195FFFFFDEA
(1716195923.968092) can0 462#0013001561001A
(1716195923.968963) can0 463#00000216
(1716195923.969941) can0 461#07000000
(1716195923.971100) can0 464#000000000000AE41
(1716195923.972104) can0 466#0042070200000000
(1716195923.972897) can0 468#0303
(1716195923.983145) can0 501#084600AE1514052A
(1716195924.022923) can0 50A#277E7EFF00000000
(1716195924.072244) can0 186#1415
(1716195924.083101) can0 501#08490082151405FD
(1716195924.123225) can0 50A#297E7EFF00000000
(1716195924.167370) can0 182#F55C6100
(1716195924.168229) can0 183#0000000005006100
(1716195924.169150) can0 185#1313131414141313
(1716195924.183198) can0 501#084A0074151406AF
(1716195924.223189) can0 50A#297E7EFF00000000
(1716195924.242897) can0 50C#461A000000000100
(1716195924.267473) can0 460#0003A195FFFFFCDF
(1716195924.268183) can0 462#0013001561001A
(1716195924.269065) can0 463#00000321
(1716195924.270282) can0 461#08000000
(1716195924.271494) can0 464#000000000000AE41
(1716195924.272258) can0 466#0042070200000000
(1716195924.273014) can0 468#0303
(1716195924.283177) can0 501#084C007C1514074E
(1716195924.323189) can0 50A#2A7E7EFF00000000
(1716195924.343196) can0 500#000F000001C40000
(1716195924.367372) can0 46A#019000DC
(1716195924.368246) can0 776#006409D8000001E0
(1716195924.382839) can0 501#08490077151407C9
(1716195924.422064) can0 186#1415
(1716195924.422807) can0 50A#2B7E7EFF00000000
(1716195924.443168) can0 502#0000000000000000
(1716195924.482853) can0 501#084D007215140835
(1716195924.517431) can0 182#F45C6100
(1716195924.518344) can0 183#0000000008006100
(1716195924.519830) can0 185#1313131414141313
(1716195924.522804) can0 50A#2C7E7EFF00000000
(1716195924.542841) can0 503#010A120671001600
(1716195924.567661) can0 460#0003A190FFFFFDAA
(1716195924.568325) can0 462#0013001561001A
(1716195924.569194) can0 463#00000256
(1716195924.570495) can0 461#09000000
(1716195924.571343) can0 464#000000000000AE41
(1716195924.572337) can0 466#0042070200000000
(1716195924.573104) can0 468#0303
(1716195924.583047) can0 501#084F0085151408A1
(1716195924.622818) can0 50A#2E7E7EFF00000000
(1716195924.643504) can0 505#094BFFC513156100
(1716195924.683034) can0 501#085100841514090E
(1716195924.723136) can0 50A#2E7E7EFF00000000
(1716195924.743335) can0 50C#461A000000000100
(1716195924.743355) can0 506#000002000EEA5F00
(1716195924.772196) can0 186#1415
(1716195924.783031) can0 501#0852008015140974
(1716195924.822835) can0 50A#2F7E7EFF00000000
(1716195924.843120) can0 50D#0000007E00000000
(1716195924.867710) can0 460#0003A184FFFFFD6B
(1716195924.868438) can0 462#0013001561001A
(1716195924.869260) can0 463#00000256
(1716195924.870656) can0 461#0A000000
(1716195924.871690) can0 464#000000000000AE41
(1716195924.872726) can0 466#0042070200000000
(1716195924.873290) can0 468#0303
(1716195924.874605) can0 182#F35C6100
(1716195924.875769) can0 183#0000000005006100
(1716195924.876923) can0 185#1313131414141313
(1716195924.882762) can0 501#08530083151409C6
(1716195924.922783) can0 50A#307E7EFF00000000
(1716195924.943089) can0 50F#0000000000000000
(1716195924.983019) can0 501#0854010015140A04
(1716195925.023515) can0 50A#317E7EFF00000000
(1716195925.083080) can0 501#0851016C15140A3C
(1716195925.122316) can0 186#1415
(1716195925.122791) can0 50A#327E7EFF00000000
(1716195925.167885) can0 460#0003A180FFFFFADC
(1716195925.168557) can0 462#0013001561001A
(1716195925.169631) can0 463#00000524
(1716195925.170696) can0 461#0B000000
(1716195925.171568) can0 464#000000000000AE41
(1716195925.172565) can0 466#0042070200000000
(1716195925.173357) can0 468#0303
(1716195925.182987) can0 501#084F02C115140A6B
(1716195925.217466) can0 182#F35C6100
(1716195925.218594) can0 183#000000000D006100
(1716195925.219526) can0 185#1313131414141313
(1716195925.222732) can0 50A#337E7EFF00000000
(1716195925.242752) can0 50C#461A000000000100
(1716195925.282970) can0 501#0848035515140AA2
(1716195925.323042) can0 50A#337E7EFF00000000
(1716195925.343332) can0 500#000F000001C40000
(1716195925.367750) can0 46A#019000DC
(1716195925.368929) can0 776#006409D8000001E0
(1716195925.382948) can0 501#0844062615140AC9
(1716195925.422784) can0 50A#347E7EFF00000000
(1716195925.443049) can0 502#0000000000000000
(1716195925.467970) can0 460#0003A166FFFFE764
(1716195925.468704) can0 462#0013001561001A
(1716195925.469521) can0 463#0000189C
(1716195925.470525) can0 461#0C000000
(1716195925.471720) can0 464#000000000000AE41
(1716195925.473078) can0 466#0042070200000000
(1716195925.473438) can0 468#0303
(1716195925.474732) can0 186#1415
(1716195925.482680) can0 501#0839069516140AE1
(1716195925.522955) can0 50A#347E7EFF00000000
(1716195925.543000) can0 503#010BAF0671001300
(1716195925.567906) can0 182#F05C6100
(1716195925.568797) can0 183#000000003F006100
(1716195925.569762) can0 185#1313131314141313
(1716195925.582923) can0 501#0830068616140ADD
(1716195925.623015) can0 50A#347E7EFF00000000
(1716195925.642855) can0 505#094BFD8A13156100
(1716195925.682858) can0 501#0829068C16140AC1
(1716195925.723014) can0 50A#347E7EFF00000000
(1716195925.742675) can0 50C#461A000000000100
(1716195925.743321) can0 506#0000020095EA5F00
(1716195925.768088) can0 460#0003A166FFFFE29F
(1716195925.768753) can0 462#0013001561001A
(1716195925.769844) can0 463#00001D61
(1716195925.770729) can0 461#0D000000
(1716195925.772002) can0 464#000000000000AE41
(1716195925.772785) can0 466#0042070200000000
(1716195925.773545) can0 468#0303
(1716195925.782915) can0 501#0822068F16140A90
(1716195925.823379) can0 50A#347E7EFF00000000
(1716195925.823402) can0 186#1415
(1716195925.842708) can0 50D#0000007E00000000
(1716195925.882972) can0 501#081D068D17140A49
(1716195925.918031) can0 182#EE5C6100
(1716195925.918846) can0 183#000000004B006100
(1716195925.919802) can0 185#1313131314141313
(1716195925.922900) can0 50A#347E7EFF00000000
(1716195925.942983) can0 50F#0000000000000000
(1716195925.982940) can0 501#0819068B171409F7
(1716195926.022880) can0 50A#347E7EFF00000000
(1716195926.068271) can0 460#0003A0F7FFFFE76A
(1716195926.068918) can0 462#0013001561001A
(1716195926.070086) can0 463#00001896
(1716195926.070793) can0 461#0E000000
(1716195926.071945) can0 464#000000000000AE41
(1716195926.072943) can0 466#0042070200000000
(1716195926.073719) can0 468#0303
(1716195926.082822) can0 501#0817068A1714098E
(1716195926.122931) can0 50A#347E7EFF00000000
(1716195926.173082) can0 186#1414
(1716195926.182920) can0 501#0815068C1714091F
(1716195926.223044) can0 50A#347E7EFF00000000
(1716195926.242617) can0 50C#461A000000000100
(1716195926.268142) can0 182#E25C6100
(1716195926.269116) can0 183#000000003E006100
(1716195926.269999) can0 185#1313131314141313
(1716195926.282807) can0 501#0812068818140895
(1716195926.322820) can0 50A#357E7EFF00000000
(1716195926.342960) can0 500#000F000001C40000
(1716195926.368338) can0 460#0003A0DDFFFFEA78
(1716195926.369044) can0 462#0013001561001A
(1716195926.370113) can0 463#00001588
(1716195926.370922) can0 461#0F000000
(1716195926.372287) can0 464#000000000000AE41
(1716195926.373068) can0 466#0042070200000000
(1716195926.373860) can0 468#0303
(1716195926.375257) can0 46A#019000DC
(1716195926.376412) can0 776#006409D8000001E0
(1716195926.382935) can0 501#081406781814080E
(1716195926.422766) can0 50A#357E7EFF00000000
(1716195926.442927) can0 502#0000000000000000
(1716195926.482919) can0 501#0812067F18140787
(1716195926.522806) can0 50A#397E7EFF00000000
(1716195926.522888) can0 186#1414
(1716195926.542608) can0 503#010D2C0671001F00
(1716195926.582758) can0 501#081006821914070E
(1716195926.618291) can0 182#E05C6100
(1716195926.619390) can0 183#0000000037006100
(1716195926.620362) can0 185#1313131314141313
(1716195926.622948) can0 50A#437E7EFF00000000
(1716195926.642564) can0 505#0949FDD913156100
(1716195926.668206) can0 460#0003A0C2FFFFED93
(1716195926.669149) can0 462#0013001561001A
(1716195926.670631) can0 463#0000126D
(1716195926.671054) can0 461#01151313
(1716195926.672818) can0 464#000000000000AE41
(1716195926.673231) can0 466#0042070200000000
(1716195926.673984) can0 468#0303
(1716195926.682615) can0 501#080F06811915069F
(1716195926.722583) can0 50A#557E7EFF00000000
(1716195926.742771) can0 50C#461A000000000100
(1716195926.743003) can0 506#000002006FEA5F00
(1716195926.782545) can0 501#080E06761914063B
(1716195926.822524) can0 50A#5F7E7EFF00000000
(1716195926.842883) can0 50D#0000007E00000000
(1716195926.873114) can0 186#1414
(1716195926.882498) can0 501#080D06891A1405E1
(1716195926.922708) can0 50A#627E7EFF00000000
(1716195926.942885) can0 50F#0000000000000000
(1716195926.968677) can0 460#0003A05CFFFFEF50
(1716195926.969301) can0 462#0013001561001A
(1716195926.970493) can0 463#000010B0
(1716195926.971673) can0 461#02151313
(1716195926.972473) can0 464#000000000000AE41
(1716195926.973347) can0 466#0042070200000000
(1716195926.974130) can0 468#0303
(1716195926.975179) can0 182#D65C6100
(1716195926.976365) can0 183#000000002A006100
(1716195926.977950) can0 185#1313131314141313
(1716195926.982736) can0 501#080D067B1A150591
(1716195927.022482) can0 50A#637E7EFF00000000
(1716195927.082810) can0 501#080D06801A140548
(1716195927.122485) can0 50A#637E7EFF00000000
(1716195927.182796) can0 501#080D06731A150505
(1716195927.222506) can0 50A#637E7EFF00000000
(1716195927.223487) can0 186#1414
(1716195927.242512) can0 50C#461A000000000100
(1716195927.268620) can0 460#0003A044FFFFF100
(1716195927.269457) can0 462#0013001561001A
(1716195927.270679) can0 463#00000F00
(1716195927.271340) can0 461#03151414
(1716195927.272518) can0 464#000000000000AE41
(1716195927.273503) can0 466#0042070200000000
(1716195927.274279) can0 468#0303
(1716195927.282629) can0 501#080A06901B1504CB
(1716195927.318612) can0 182#D15C6100
(1716195927.319767) can0 183#0000000026006100
(1716195927.320622) can0 185#1313131314141313
(1716195927.322501) can0 50A#637E7EFF00000000
(1716195927.342695) can0 500#000F000001C40000
(1716195927.368394) can0 46A#019000DC
(1716195927.369696) can0 776#006409D8000001E0
(1716195927.382677) can0 501#080B06851B150494
(1716195927.422524) can0 50A#637E7EFF00000000
(1716195927.442718) can0 502#0000000000000000
(1716195927.482756) can0 501#080C067C1B150465
(1716195927.522634) can0 50A#637E7EFF00000000
(1716195927.542722) can0 503#0116580671002A00
(1716195927.568884) can0 460#00039FF7FFFFF238
(1716195927.569588) can0 462#0013001561001A
(1716195927.570795) can0 463#00000DC8
(1716195927.571636) can0 461#04151313
(1716195927.572938) can0 464#000000000000AE41
(1716195927.573615) can0 466#0042070200000000
(1716195927.574800) can0 468#0303
(1716195927.575924) can0 186#1414
(1716195927.582430) can0 501#080C06741B150439
(1716195927.622427) can0 50A#637E7EFF00000000
(1716195927.642714) can0 505#0947FEA013156100
(1716195927.668848) can0 182#CA5C6100
(1716195927.669771) can0 183#0000000023006100
(1716195927.670623) can0 185#1313131314141313
(1716195927.682653) can0 501#080B06751C150412
(1716195927.722628) can0 50A#637E7EFF00000000
(1716195927.742688) can0 50C#461A000000000100
(1716195927.742851) can0 506#0000020053EA5F00
(1716195927.782607) can0 501#080B06751C1503EF
(1716195927.822633) can0 50A#637E7EFF00000000
(1716195927.842766) can0 50D#0000007E00000000
(1716195927.868996) can0 460#00039FC4FFFFF336
(1716195927.869712) can0 462#0013001561001A
(1716195927.870979) can0 463#00000CCA
(1716195927.871791) can0 461#05151414
(1716195927.873104) can0 464#000000000000AE41
(1716195927.873768) can0 466#0042070200000000
(1716195927.874715) can0 468#0303
(1716195927.882616) can0 501#080A067F1C1503CE
(1716195927.922706) can0 50A#637E7EFF00000000
(1716195927.923841) can0 186#1414
(1716195927.942727) can0 50F#0000000000000000
(1716195927.982667) can0 501#080A06751C1503B2
(1716195928.018987) can0 182#C45C6100
(1716195928.020240) can0 183#0000000020006100
(1716195928.020775) can0 185#1313131314141313
(1716195928.022583) can0 50A#637E7EFF00000000
(1716195928.082665) can0 501#080A06721C150399
(1716195928.122422) can0 50A#637E7EFF00000000
(1716195928.169207) can0 460#00039F7BFFFFF3DB
(1716195928.169932) can0 462#0013001561001A
(1716195928.170727) can0 463#00000C25
(1716195928.171724) can0 461#06000000
(1716195928.172889) can0 464#000000000000AE41
(1716195928.173872) can0 466#0042070200000000
(1716195928.175102) can0 468#0303
(1716195928.182408) can0 501#080906791D150382
(1716195928.222607) can0 50A#637E7EFF00000000
(1716195928.242787) can0 50C#461A000000000100
(1716195928.274023) can0 186#1415
(1716195928.282492) can0 501#080906761D15036D
(1716195928.322639) can0 50A#637E7EFF00000000
(1716195928.342580) can0 500#000F000001C40000
(1716195928.369076) can0 46A#019000DC
(1716195928.369956) can0 182#BC5C6100
(1716195928.371348) can0 183#000000001F006100
(1716195928.371945) can0 185#1313131314141313
(1716195928.372950) can0 776#006409D8000001E0
(1716195928.382330) can0 501#080A06761D15035A
(1716195928.422634) can0 50A#637E7EFF00000000
(1716195928.442645) can0 502#0000000000000000
(1716195928.469263) can0 460#00039F61FFFFF428
(1716195928.469981) can0 462#0013001561001A
(1716195928.471055) can0 463#00000BD8
(1716195928.471921) can0 461#07000000
(1716195928.473230) can0 464#000000000000AE41
(1716195928.473980) can0 466#0042070200000000
(1716195928.474952) can0 468#0303
(1716195928.482308) can0 501#080906711D150349
(1716195928.522477) can0 50A#637E7EFF00000000
(1716195928.542610) can0 503#0116580671003200
(1716195928.582543) can0 501#0809067D1D15033A
(1716195928.622523) can0 50A#637E7EFF00000000
(1716195928.624377) can0 186#1415
(1716195928.642291) can0 505#0946FED113156100
(1716195928.682512) can0 501#0809065C1D15032D
(1716195928.719200) can0 182#B75C6100
(1716195928.720361) can0 183#000000001E006100
(1716195928.721068) can0 185#1313131314141313
(1716195928.722444) can0 50A#637E7EFF00000000
(1716195928.742826) can0 50C#461A000000000100
(1716195928.742848) can0 506#0000020047EA5F00
(1716195928.769343) can0 460#00039F2FFFFFF48D
(1716195928.770156) can0 462#0013001561001A
(1716195928.770949) can0 463#00000B73
(1716195928.772230) can0 461#08000000
(1716195928.773129) can0 464#000000000000AE41
(1716195928.774531) can0 466#0042070200000000
(1716195928.774908) can0 468#0303
(1716195928.782496) can0 501#080906641E15031F
(1716195928.822588) can0 50A#637E7EFF00000000
(1716195928.842370) can0 50D#0000007E00000000
(1716195928.882559) can0 501#0808065B1E150312
(1716195928.922554) can0 50A#637E7EFF00000000
(1716195928.942578) can0 50F#0000000000000000
(1716195928.974215) can0 186#1415
(1716195928.982234) can0 501#080806601E150310
(1716195929.022612) can0 50A#637E7EFF00000000
(1716195929.069582) can0 460#00039EEFFFFFF4C0
(1716195929.070179) can0 462#0013001561001A
(1716195929.071372) can0 463#00000B40
(1716195929.072061) can0 461#09000000
(1716195929.073530) can0 464#000000000000AE41
(1716195929.074200) can0 466#0042070200000000
(1716195929.074981) can0 468#0303
(1716195929.076066) can0 182#B15C6100
(1716195929.077410) can0 183#000000001C006100
(1716195929.078212) can0 185#1313131314141313
(1716195929.082487) can0 501#080706701E150316
(1716195929.122465) can0 50A#637E7EFF00000000
(1716195929.182518) can0 501#080606711E150320
(1716195929.222467) can0 50A#637E7EFF00000000
(1716195929.242198) can0 50C#461A000000000100
(1716195929.282800) can0 501#0806066E1E150331
(1716195929.322440) can0 50A#637E7EFF00000000
(1716195929.324363) can0 186#1415
(1716195929.342543) can0 500#000F000001C40000
(1716195929.369443) can0 460#00039ED4FFFFF310
(1716195929.370552) can0 462#0013001561001A
(1716195929.371216) can0 463#00000CF0
(1716195929.372456) can0 461#0A000000
(1716195929.373369) can0 464#000000000000AE41
(1716195929.374734) can0 466#0042070200000000
(1716195929.375152) can0 468#0303
(1716195929.376407) can0 46A#019000DC
(1716195929.377390) can0 776#006409D8000001E0
(1716195929.382175) can0 501#0806066A1F150345
(1716195929.419563) can0 182#AE5C6100
(1716195929.420775) can0 183#0000000021006100
(1716195929.421467) can0 185#1313131314141313
(1716195929.422409) can0 50A#637E7EFF00000000
(1716195929.442181) can0 502#0000000000000000
(1716195929.482488) can0 501#0807065B1F16035B
(1716195929.522473) can0 50A#637E7EFF00000000
(1716195929.542156) can0 503#0116580671002700
(1716195929.582464) can0 501#0803067C1F160375
(1716195929.622506) can0 50A#637E7EFF00000000
(1716195929.642159) can0 505#0944FEB513156100
(1716195929.669543) can0 460#00039EA2FFFFF258
(1716195929.670772) can0 462#0013001561001A
(1716195929.671360) can0 463#00000DA8
(1716195929.672348) can0 461#0B000000
(1716195929.673477) can0 464#000000000000AE41
(1716195929.674665) can0 466#0042070200000000
(1716195929.675276) can0 468#0303
(1716195929.676492) can0 186#1415
(1716195929.682327) can0 501#080506711F160391
(1716195929.722484) can0 50A#637E7EFF00000000
(1716195929.742267) can0 50C#461A000000000100
(1716195929.742610) can0 506#0000020052EA5F00
(1716195929.769401) can0 182#A45C6100
(1716195929.770609) can0 183#0000000022006100
(1716195929.771639) can0 185#1313131314141313
(1716195929.782438) can0 501#0805066F1F1603B1
(1716195929.822442) can0 50A#637E7EFF00000000
(1716195929.842166) can0 50D#0000007E00000000
(1716195929.882423) can0 501#080306771F1603D3
(1716195929.922539) can0 50A#637E7EFF00000000
(1716195929.942434) can0 50F#0000000000000000
(1716195929.969775) can0 460#00039E69FFFFF1A6
(1716195929.970571) can0 462#0013001561001A
(1716195929.971675) can0 463#00000E5A
(1716195929.972585) can0 461#0C000000
(1716195929.973630) can0 464#000000000000AE41
(1716195929.974627) can0 466#0042070200000000
(1716195929.975396) can0 468#0303
(1716195929.982114) can0 501#0803066E1F1603EE
(1716195930.022526) can0 50A#637E7EFF00000000
(1716195930.024684) can0 186#1415
(1716195930.082390) can0 501#0803066D20160403
(1716195930.119581) can0 182#A05C6100
(1716195930.120707) can0 183#0000000024006100
(1716195930.121660) can0 185#1313131314141313
(1716195930.122145) can0 50A#637E7EFF00000000
(1716195930.182383) can0 501#0802066E20160417
(1716195930.222311) can0 50A#637E7EFF00000000
(1716195930.242104) can0 50C#461A000000000100
(1716195930.270311) can0 460#00039E26FFFFF139
(1716195930.270730) can0 462#0013001561001A
(1716195930.271601) can0 463#00000EC7
(1716195930.272598) can0 461#0D000000
(1716195930.274034) can0 464#000000000000AE41
(1716195930.274914) can0 466#0042070200000000
(1716195930.275782) can0 468#0303
(1716195930.282041) can0 501#0802067720160429
(1716195930.322305) can0 50A#637E7EFF00000000
(1716195930.342311) can0 500#000F000001C40000
(1716195930.369687) can0 46A#019000DC
(1716195930.370799) can0 776#006409D8000001E0
(1716195930.374840) can0 186#1415
(1716195930.382379) can0 501#0802064A20160444
(1716195930.422378) can0 50A#637E7EFF00000000
(1716195930.442309) can0 502#0000000000000000
(1716195930.469993) can0 182#945C6100
(1716195930.470951) can0 183#0000000025006100
(1716195930.472008) can0 185#1313131314141313
(1716195930.482337) can0 501#0802065C20160470
(1716195930.522356) can0 50A#637E7EFF00000000
(1716195930.542130) can0 503#0116580671001D00
(1716195930.570302) can0 460#00039DCBFFFFEEBE
(1716195930.570828) can0 462#0013001561001A
(1716195930.572012) can0 463#00001142
(1716195930.572736) can0 461#0E000000
(1716195930.574234) can0 464#000000000000AE41
(1716195930.574954) can0 466#0042070200000000
(1716195930.575700) can0 468#0303
(1716195930.582023) can0 501#080406612016049D
(1716195930.622213) can0 50A#637E7EFF00000000
(1716195930.642247) can0 505#0942FE4713156100
(1716195930.682363) can0 501#08030664201604D3
(1716195930.722276) can0 50A#637E7EFF00000000
(1716195930.724954) can0 186#1415
(1716195930.742053) can0 50C#461A000000000100
(1716195930.742460) can0 506#0000020068EA5F00
(1716195930.782007) can0 501#0802066420160509
(1716195930.820190) can0 182#8F5C6100
(1716195930.821113) can0 183#000000002C006100
(1716195930.822004) can0 185#1313131314141313
(1716195930.822385) can0 50A#637E7EFF00000000
(1716195930.842242) can0 50D#0000007E00000000
(1716195930.869976) can0 460#00039D9CFFFFECD4
(1716195930.871661) can0 462#0013001561001A
(1716195930.871786) can0 463#0000132C
(1716195930.873028) can0 461#0F000000
(1716195930.874232) can0 464#000000000000AE41
(1716195930.875017) can0 466#0042070200000000
(1716195930.876042) can0 468#0303
(1716195930.882192) can0 501#0802066A20160543
(1716195930.922316) can0 50A#637E7EFF00000000
(1716195930.942240) can0 50F#0000000000000000
(1716195930.982295) can0 501#0801066A2116057F
(1716195931.022274) can0 50A#637E7EFF00000000
(1716195931.075142) can0 186#1415
(1716195931.081966) can0 501#0801067F211705BC
(1716195931.122189) can0 50A#637E7EFF00000000
(1716195931.170384) can0 460#00039D1BFFFFEB44
(1716195931.171016) can0 462#0013001561001A
(1716195931.172198) can0 463#000014BC
(1716195931.172885) can0 461#01151313
(1716195931.174066) can0 464#000000000000AE41
(1716195931.175054) can0 466#0042070200000000
(1716195931.175813) can0 468#0303
(1716195931.176899) can0 182#825C6100
(1716195931.178235) can0 183#0000000035006100
(1716195931.179222) can0 185#1313131314141313
(1716195931.181923) can0 501#0801067E211605FD
(1716195931.222189) can0 50A#637E7EFF00000000
(1716195931.242195) can0 50C#461A000000000100
(1716195931.281953) can0 501#0801066D2116063E
(1716195931.322292) can0 50A#637E7EFF00000000
(1716195931.342193) can0 500#000F000001C40000
(1716195931.370242) can0 46A#019000DC
(1716195931.371198) can0 776#006409D8000001E0
(1716195931.382300) can0 501#0800067021160675
(1716195931.422257) can0 50A#637E7EFF00000000
(1716195931.425028) can0 186#1415
(1716195931.442166) can0 502#0000000000000000
(1716195931.470541) can0 460#00039CC0FFFFEA4C
(1716195931.471239) can0 462#0013001561001A
(1716195931.472170) can0 463#000015B4
(1716195931.473163) can0 461#02151313
(1716195931.474752) can0 464#000000000000AE41
(1716195931.475139) can0 466#0042070200000000
(1716195931.476111) can0 468#0303
(1716195931.482128) can0 501#07FF06762117069B
(1716195931.520320) can0 182#795C6100
(1716195931.521155) can0 183#0000000037006100
(1716195931.522306) can0 50A#637E7EFF00000000
(1716195931.522366) can0 185#1313131314141313
(1716195931.542240) can0 503#0116570671001900
(1716195931.582168) can0 501#08000664211706C0
(1716195931.621971) can0 50A#637E7EFF00000000
(1716195931.641877) can0 505#093FFDD513156100
(1716195931.682093) can0 501#08020642211706E7
(1716195931.721906) can0 50A#637E7EFF00000000
(1716195931.742128) can0 50C#461A000000000100
(1716195931.742354) can0 506#0000020083EA5F00
(1716195931.770238) can0 460#00039C99FFFFE9C0
(1716195931.771378) can0 462#0013001561001A
(1716195931.772313) can0 463#00001640
(1716195931.773319) can0 461#03151414
(1716195931.774499) can0 464#000000000000AE41
(1716195931.775422) can0 466#0042070200000000
(1716195931.776194) can0 468#0303
(1716195931.777205) can0 186#1415
(1716195931.782073) can0 501#0805065F21170722
(1716195931.822199) can0 50A#637E7EFF00000000
(1716195931.842017) can0 50D#0000007E00000000
(1716195931.870552) can0 182#6E5C6100
(1716195931.871291) can0 183#0000000038006100
(1716195931.872577) can0 185#1313131314141313
(1716195931.882114) can0 501#080506742217075D
(1716195931.922221) can0 50A#637E7EFF00000000
(1716195931.941894) can0 50F#0000000000000000
(1716195931.982164) can0 501#080706642217079D
(1716195932.021922) can0 50A#637E7EFF00000000
(1716195932.070646) can0 460#00039C4DFFFFE5F3
(1716195932.071272) can0 462#0013001561001A
(1716195932.072195) can0 463#00001A0D
(1716195932.073145) can0 461#04151313
(1716195932.074511) can0 464#000000000000AE41
(1716195932.075493) can0 466#0042070200000000
(1716195932.076273) can0 468#0303
(1716195932.081863) can0 501#08080670221707E2
(1716195932.122130) can0 50A#637E7EFF00000000
(1716195932.125424) can0 186#1415
(1716195932.182109) can0 501#0809066B22170826
(1716195932.220490) can0 182#6E5C6100
(1716195932.221379) can0 183#0000000042006100
(1716195932.222078) can0 50A#637E7EFF00000000
(1716195932.222323) can0 185#1313131314141313
(1716195932.241835) can0 50C#461A000000000100
(1716195932.282107) can0 501#080506922217086C
(1716195932.322069) can0 50A#637E7EFF00000000
(1716195932.341844) can0 500#000F000001C40000
(1716195932.370637) can0 460#00039BF8FFFFE456
(1716195932.371607) can0 462#0013001561001A
(1716195932.372535) can0 463#00001BAA
(1716195932.373253) can0 461#05151415
(1716195932.374947) can0 464#000000000000AE41
(1716195932.375450) can0 466#0042070200000000
(1716195932.376214) can0 468#0303
(1716195932.377476) can0 46A#019000DC
(1716195932.378581) can0 776#006409D8000001E0
(1716195932.381941) can0 501#080B066F221708B4
(1716195932.422082) can0 50A#637E7EFF00000000
(1716195932.441861) can0 502#0000000000000000
(1716195932.475669) can0 186#1415
(1716195932.481962) can0 501#08090674221708FC
(1716195932.522086) can0 50A#637E7EFF00000000
(1716195932.542070) can0 503#0116580671001100
(1716195932.570713) can0 182#585C6100
(1716195932.571952) can0 183#0000000046006100
(1716195932.572502) can0 185#1313131314141313
(1716195932.581725) can0 501#080A067F22170944
(1716195932.621990) can0 50A#637E7EFF00000000
(1716195932.642087) can0 505#093DFD3C13156100
(1716195932.670861) can0 460#00039B78FFFFE312
(1716195932.672017) can0 462#0013001561001A
(1716195932.672396) can0 463#00001CEE
(1716195932.673410) can0 461#06000000
(1716195932.674559) can0 464#000000000000AE41
(1716195932.675567) can0 466#0042070200000000
(1716195932.676623) can0 468#0303
(1716195932.681790) can0 501#080A065C22170984
(1716195932.722000) can0 50A#637E7EFF00000000
(1716195932.742049) can0 50C#461A000000000100
(1716195932.742225) can0 506#00000200AEEA5F00
(1716195932.781925) can0 501#080A067F221809AE
(1716195932.821803) can0 50A#637E7EFF00000000
(1716195932.825540) can0 186#1415
(1716195932.841882) can0 50D#0000007E00000000
(1716195932.882115) can0 501#080A067B221809D3
(1716195932.920842) can0 182#585C6100
(1716195932.921753) can0 183#000000004A006100
(1716195932.922163) can0 50A#637E7EFF00000000
(1716195932.922663) can0 185#1313131314141313
(1716195932.941898) can0 50F#0000000000000000
(1716195932.970870) can0 460#00039B78FFFFE279
(1716195932.971765) can0 462#0013001561001A
(1716195932.972837) can0 463#00001D87
(1716195932.973755) can0 461#07000000
(1716195932.975047) can0 464#000000000000AE41
(1716195932.975688) can0 466#0042070200000000
(1716195932.976440) can0 468#0303
(1716195932.982291) can0 501#080A066A231809F2
(1716195933.021759) can0 50A#637E7EFF00000000
(1716195933.081691) can0 501#0809066F23180A0A
(1716195933.121805) can0 50A#637E7EFF00000000
(1716195933.175874) can0 186#1415
(1716195933.181982) can0 501#0809067323180A21
(1716195933.221736) can0 50A#637E7EFF00000000
(1716195933.241767) can0 50C#461A000000000100
(1716195933.271002) can0 460#00039A85FFFFE1CE
(1716195933.271893) can0 462#0013001561001A
(1716195933.272905) can0 463#00001E32
(1716195933.273883) can0 461#08000000
(1716195933.275069) can0 464#000000000000AE41
(1716195933.275822) can0 466#0042070200000000
(1716195933.276576) can0 468#0303
(1716195933.277854) can0 182#405C6100
(1716195933.279003) can0 183#000000004D006100
(1716195933.279967) can0 185#1313131314141313
(1716195933.282161) can0 501#0809066523180A34
(1716195933.321714) can0 50A#637E7EFF00000000
(1716195933.341796) can0 500#000F000001C40000
(1716195933.370894) can0 46A#019000DC
(1716195933.372002) can0 776#006409D8000001E0
(1716195933.381642) can0 501#080E065C23180A50
(1716195933.421689) can0 50A#637E7EFF00000000
(1716195933.441706) can0 502#0000000000000000
(1716195933.481668) can0 501#080F065223180A70
(1716195933.521798) can0 50A#637E7EFF00000000
(1716195933.525970) can0 186#1415
(1716195933.541608) can0 503#0116580671001000
(1716195933.570948) can0 460#00039A85FFFFE0DC
(1716195933.571876) can0 462#0013001561001A
(1716195933.572740) can0 463#00001F24
(1716195933.573744) can0 461#09000000
(1716195933.575246) can0 464#000000000000AE41
(1716195933.576404) can0 466#0042070200000000
(1716195933.576679) can0 468#0303
(1716195933.581632) can0 501#0811069223180A90
(1716195933.621131) can0 182#405C6100
(1716195933.621615) can0 50A#637E7EFF00000000
(1716195933.622394) can0 183#000000004F006100
(1716195933.622898) can0 185#1313131314141313
(1716195933.641678) can0 505#0939FCE313156100
(1716195933.681614) can0 501#0811066C23180AB1
(1716195933.721942) can0 50A#637E7EFF00000000
(1716195933.741629) can0 50C#461A000000000100
(1716195933.742100) can0 506#00000200BCEA5F00
(1716195933.781580) can0 501#0810066C23180ACF
(1716195933.821633) can0 50A#637E7EFF00000000
(1716195933.841969) can0 50D#0000007E00000000
(1716195933.871371) can0 460#000399ECFFFFDF32
(1716195933.872047) can0 462#0013001561001A
(1716195933.873429) can0 463#000020CE
(1716195933.873858) can0 461#0A000000
(1716195933.875356) can0 464#000000000000AE41
(1716195933.876477) can0 466#0042070200000000
(1716195933.876788) can0 468#0303
(1716195933.878097) can0 186#1415
(1716195933.881537) can0 501#0810064F23180AED
(1716195933.921580) can0 50A#637E7EFF00000000
(1716195933.941642) can0 50F#0000000000000000
(1716195933.971218) can0 182#315C6100
(1716195933.972064) can0 183#0000000053006100
(1716195933.973034) can0 185#1313131314141313
(1716195933.981560) can0 501#0814063A23180B0C
(1716195934.021664) can0 50A#637E7EFF00000000
(1716195934.081769) can0 501#0810064A24180B2B
(1716195934.121742) can0 50A#637E7EFF00000000
(1716195934.171424) can0 460#00039985FFFFDEB9
(1716195934.172098) can0 462#0013001561001A
(1716195934.173340) can0 463#00002147
(1716195934.174506) can0 461#0B000000
(1716195934.175711) can0 464#000000000000AE41
(1716195934.176111) can0 466#0042070200000000
(1716195934.176910) can0 468#0303
(1716195934.181566) can0 501#080F067B24190B49
(1716195934.221587) can0 50A#637E7EFF00000000
(1716195934.226272) can0 186#1415
(1716195934.241584) can0 50C#461A000000000100
(1716195934.281532) can0 501#0811067024190B6C
(1716195934.321358) can0 182#265C6100
(1716195934.321521) can0 50A#637E7EFF00000000
(1716195934.322178) can0 183#0000000055006100
(1716195934.323125) can0 185#1313131314141313
(1716195934.341563) can0 500#000F000001C40000
(1716195934.371384) can0 46A#019000DC
(1716195934.372290) can0 776#006409D8000001E0
(1716195934.381555) can0 501#0813066724190B82
(1716195934.421559) can0 50A#637E7EFF00000000
(1716195934.441550) can0 502#0000000000000000
(1716195934.471452) can0 460#00039912FFFFDE47
(1716195934.472216) can0 462#0013001561001A
(1716195934.473370) can0 463#000021B9
(1716195934.474168) can0 461#0C000000
(1716195934.475538) can0 464#000000000000AE41
(1716195934.476357) can0 466#0042070200000000
(1716195934.476995) can0 468#0303
(1716195934.481467) can0 501#081306A524190B8F
(1716195934.521500) can0 50A#637E7EFF00000000
(1716195934.542021) can0 503#01165A0671000E00
(1716195934.576057) can0 186#1414
(1716195934.581485) can0 501#081306A124190BA5
(1716195934.621694) can0 50A#637E7EFF00000000
(1716195934.641545) can0 505#0935FCA113156100
(1716195934.671148) can0 182#165C6100
(1716195934.672944) can0 183#0000000056006100
(1716195934.673247) can0 185#1313131314141313
(1716195934.681569) can0 501#0812064624190BB7
(1716195934.721550) can0 50A#637E7EFF00000000
(1716195934.741616) can0 50C#461A000000000100
(1716195934.741988) can0 506#00000200CBEA5F00
(1716195934.771311) can0 460#00039871FFFFDE0E
(1716195934.772481) can0 462#0013001561001A
(1716195934.773155) can0 463#000021F2
(1716195934.774424) can0 461#0D000000
(1716195934.775390) can0 464#000000000000AE41
(1716195934.776527) can0 466#0042070200000000
(1716195934.777099) can0 468#0303
(1716195934.781614) can0 501#0810065F24190BC2
(1716195934.821560) can0 50A#637E7EFF00000000
(1716195934.841728) can0 50D#0000007E00000000
(1716195934.881486) can0 501#0812066224190BCE
(1716195934.921784) can0 50A#637E7EFF00000000
(1716195934.926464) can0 186#1414
(1716195934.941545) can0 50F#0000000000000000
(1716195934.981657) can0 501#081106A724190BD5
(1716195935.021249) can0 182#0B5C6100
(1716195935.021708) can0 50A#637E7EFF00000000
(1716195935.022600) can0 183#0000000056006100
(1716195935.023475) can0 185#1313131314141313
(1716195935.071956) can0 460#00039871FFFFDDF4
(1716195935.072349) can0 462#0013001561001A
(1716195935.073229) can0 463#0000220C
(1716195935.074591) can0 461#0E000000
(1716195935.075764) can0 464#000000000000AE41
(1716195935.076922) can0 466#0042070200000000
(1716195935.077208) can0 468#0303
(1716195935.081558) can0 501#0814067824190BE8
(1716195935.121552) can0 50A#637E7EFF00000000
(1716195935.181735) can0 501#080F064B24190BF0
(1716195935.221425) can0 50A#637E7EFF00000000
(1716195935.241409) can0 50C#461A000000000100
(1716195935.276453) can0 186#1414
(1716195935.281502) can0 501#080F0670241A0BF2
(1716195935.321551) can0 50A#637E7EFF00000000
(1716195935.341467) can0 500#000F000001C40000
(1716195935.371528) can0 460#00039784FFFFDDDB
(1716195935.372582) can0 462#0013001561001A
(1716195935.373687) can0 463#00002225
(1716195935.374562) can0 461#0F000000
(1716195935.375724) can0 464#000000000000AE41
(1716195935.376604) can0 466#0042070200000000
(1716195935.377275) can0 468#0303
(1716195935.378571) can0 46A#019000DC
(1716195935.379351) can0 182#F35B6100
(1716195935.380526) can0 183#0000000057006100
(1716195935.381369) can0 501#0811068E25190BF3
(1716195935.381841) can0 185#1313131314141313
(1716195935.382538) can0 776#006409D8000001E0
(1716195935.421562) can0 50A#637E7EFF00000000
(1716195935.441465) can0 502#0000000000000000
(1716195935.481479) can0 501#08110689251A0C02
(1716195935.521719) can0 50A#637E7EFF00000000
(1716195935.541414) can0 503#01165A0671000F00
(1716195935.581400) can0 501#080D064F251A0BFE
(1716195935.621389) can0 50A#637E7EFF00000000
(1716195935.626609) can0 186#1414
(1716195935.641322) can0 505#0931FC9613156100
(1716195935.671636) can0 460#00039749FFFFDDCE
(1716195935.672545) can0 462#0013001561001A
(1716195935.673414) can0 463#00002232
(1716195935.674419) can0 461#01151313
(1716195935.675599) can0 464#000000000000AE41
(1716195935.677215) can0 466#0042070200000000
(1716195935.677347) can0 468#0303
(1716195935.681498) can0 501#080E066D251A0BF9
(1716195935.721557) can0 50A#637E7EFF00000000
(1716195935.721646) can0 182#ED5B6100
(1716195935.722950) can0 183#0000000057006100
(1716195935.723605) can0 185#1313131314141313
(1716195935.741720) can0 50C#461A000000000100
(1716195935.741797) can0 506#00000200CDEA5F00
(1716195935.781521) can0 501#080F06A0251A0BFB
(1716195935.821556) can0 50A#637E7EFF00000000
(1716195935.841439) can0 50D#0000007E00000000
(1716195935.881478) can0 501#0811066C251A0C04
(1716195935.921555) can0 50A#637E7EFF00000000
(1716195935.941681) can0 50F#0000000000000000
(1716195935.971836) can0 460#0003965DFFFFDDC1
(1716195935.972980) can0 462#0013001561001A
(1716195935.973538) can0 463#0000223F
(1716195935.974783) can0 461#02151313
(1716195935.975763) can0 464#000000000000AE41
(1716195935.977005) can0 466#0042070200000000
(1716195935.977455) can0 468#0303
(1716195935.978734) can0 186#1414
(1716195935.981270) can0 501#080B0658251A0C07
(1716195936.021309) can0 50A#637E7EFF00000000
(1716195936.071870) can0 182#D65B6100
(1716195936.073045) can0 183#0000000057006100
(1716195936.073661) can0 185#1313131314141313
(1716195936.081492) can0 501#080D066D251A0C00
(1716195936.121466) can0 50A#637E7EFF00000000
(1716195936.181727) can0 501#080E06A3251A0C00
(1716195936.221279) can0 50A#637E7EFF00000000
(1716195936.241329) can0 50C#461A000000000100
(1716195936.271801) can0 460#000395E6FFFFDDB5
(1716195936.272729) can0 462#0013001561001A
(1716195936.273586) can0 463#0000224B
(1716195936.274597) can0 461#03151414
(1716195936.275732) can0 464#000000000000AE41
(1716195936.276747) can0 466#0042070200000000
(1716195936.277523) can0 468#0303
(1716195936.281332) can0 501#080E0656251A0C09
(1716195936.321555) can0 50A#637E7EFF00000000
(1716195936.326858) can0 186#1414
(1716195936.341771) can0 500#000F000001C40000
(1716195936.371692) can0 46A#019000DC
(1716195936.372766) can0 776#006409D8000001E0
(1716195936.381588) can0 501#080B0663251A0C0B
(1716195936.421439) can0 50A#637E7EFF00000000
(1716195936.421654) can0 182#CA5B6100
(1716195936.423120) can0 183#0000000057006100
(1716195936.423787) can0 185#1313131414141313
(1716195936.441375) can0 502#0000000000000000
(1716195936.481474) can0 501#080D0682251A0C02
(1716195936.521648) can0 50A#637E7EFF00000000
(1716195936.541392) can0 503#01165A0671000E00
(1716195936.572195) can0 460#00039534FFFFDDAE
(1716195936.572792) can0 462#0013001561001A
(1716195936.573985) can0 463#00002252
(1716195936.574688) can0 461#04151313
(1716195936.576161) can0 464#000000000000AE41
(1716195936.577409) can0 466#0042070200000000
(1716195936.577605) can0 468#0303
(1716195936.581540) can0 501#080E069D251A0C05
(1716195936.621547) can0 50A#637E7EFF00000000
(1716195936.641216) can0 505#092CFC9213156100
(1716195936.676981) can0 186#1414
(1716195936.681219) can0 501#080C0644251B0C08
(1716195936.721714) can0 50A#637E7EFF00000000
(1716195936.741531) can0 50C#461A000000000100
(1716195936.741690) can0 506#00000200CEEA5F00
(1716195936.772098) can0 182#B85B6100
(1716195936.772925) can0 183#0000000057006100
(1716195936.773884) can0 185#1313131414141313
(1716195936.781471) can0 501#080A066A261B0C0C
(1716195936.821451) can0 50A#637E7EFF00000000
(1716195936.841423) can0 50D#0000007E00000000
(1716195936.872655) can0 460#00039534FFFFDDA8
(1716195936.872907) can0 462#0013001561001A
(1716195936.873822) can0 463#00002258
(1716195936.874727) can0 461#05151414
(1716195936.875941) can0 464#000000000000AE41
(1716195936.876968) can0 466#0042070200000000
(1716195936.877925) can0 468#0303
(1716195936.881598) can0 501#080C0695261B0C01
(1716195936.921552) can0 50A#637E7EFF00000000
(1716195936.941239) can0 50F#0000000000000000
(1716195936.981421) can0 501#080D066B261B0C0B
(1716195937.021452) can0 50A#637E7EFF00000000
(1716195937.026814) can0 186#1414
(1716195937.081495) can0 501#08090652261B0C09
(1716195937.121491) can0 50A#637E7EFF00000000
(1716195937.121881) can0 182#AC5B6100
(1716195937.123356) can0 183#0000000057006100
(1716195937.124019) can0 185#1313131414141313
(1716195937.172346) can0 460#000394BEFFFFDDA8
(1716195937.172992) can0 462#0013001561001A
(1716195937.174168) can0 463#00002258
(1716195937.175029) can0 461#06000000
(1716195937.176512) can0 464#000000000000AE41
(1716195937.177040) can0 466#0042070200000000
(1716195937.178236) can0 468#0303
(1716195937.181137) can0 501#080B066E261B0C0B
(1716195937.221503) can0 50A#637E7EFF00000000
(1716195937.241168) can0 50C#461A000000000100
(1716195937.281450) can0 501#080C069D261B0C03
(1716195937.321341) can0 50A#637E7EFF00000000
(1716195937.341192) can0 500#000F000001C40000
(1716195937.371984) can0 46A#019000DC
(1716195937.373094) can0 776#006409D8000001E0
(1716195937.376883) can0 186#1414
(1716195937.381117) can0 501#080B064E261B0C0B
(1716195937.421185) can0 50A#637E7EFF00000000
(1716195937.441174) can0 502#0000000000000000
(1716195937.472390) can0 460#000393FEFFFFDDA2
(1716195937.473117) can0 462#0013001561001A
(1716195937.473976) can0 463#0000225E
(1716195937.475189) can0 461#07000000
(1716195937.476278) can0 464#000000000000AE41
(1716195937.477560) can0 466#0042070200000000
(1716195937.477914) can0 468#0303
(1716195937.479536) can0 182#995B6100
(1716195937.480154) can0 183#0000000057006100
(1716195937.481292) can0 501#08080661261B0C0B
(1716195937.481536) can0 185#1313131414141313
(1716195937.521632) can0 50A#637E7EFF00000000
(1716195937.541153) can0 503#0116590671000F00
(1716195937.581464) can0 501#080B067A261B0C05
(1716195937.621164) can0 50A#637E7EFF00000000
(1716195937.641141) can0 505#0928FC9113156100
(1716195937.681133) can0 501#080B0686261B0C09
(1716195937.721109) can0 50A#637E7EFF00000000
(1716195937.727323) can0 186#1414
(1716195937.741112) can0 50C#461A000000000100
(1716195937.741570) can0 506#00000200CEEA5F00
(1716195937.772277) can0 460#00039393FFFFDDA2
(1716195937.773161) can0 462#0013001561001A
(1716195937.774076) can0 463#0000225E
(1716195937.775061) can0 461#08000000
(1716195937.776246) can0 464#000000000000AE41
(1716195937.777233) can0 466#0042070200000000
(1716195937.778103) can0 468#0303
(1716195937.781152) can0 501#08070654261B0C09
(1716195937.821111) can0 50A#637E7EFF00000000
(1716195937.822524) can0 182#8E5B6100
(1716195937.823318) can0 183#0000000057006100
(1716195937.824561) can0 185#1313131414141313
(1716195937.841124) can0 50D#0000007E00000000
(1716195937.881064) can0 501#0809066B261B0C0C
(1716195937.921083) can0 50A#637E7EFF00000000
(1716195937.941134) can0 50F#0000000000000000
(1716195937.981379) can0 501#080906A8261B0C03
(1716195938.021401) can0 50A#637E7EFF00000000
(1716195938.072941) can0 460#000392C5FFFFDDA2
(1716195938.073278) can0 462#0013001561001A
(1716195938.074495) can0 463#0000225E
(1716195938.075705) can0 461#09000000
(1716195938.076336) can0 464#000000000000AE41
(1716195938.077329) can0 466#0042070200000000
(1716195938.078115) can0 468#0303
(1716195938.079118) can0 186#1414
(1716195938.081020) can0 501#080D064F261C0C11
(1716195938.121090) can0 50A#637E7EFF00000000
(1716195938.172268) can0 182#7A5B6100
(1716195938.173533) can0 183#0000000057006100
(1716195938.174763) can0 185#1313131414141313
(1716195938.181326) can0 501#08110677261B0C23
(1716195938.221073) can0 50A#637E7EFF00000000
(1716195938.241100) can0 50C#461A000000000100
(1716195938.281274) can0 501#08120668261C0C39
(1716195938.321031) can0 50A#637E7EFF00000000
(1716195938.341388) can0 500#000F000001C40000
(1716195938.372873) can0 460#000392C5FFFFDD42
(1716195938.373424) can0 462#0013001561001A
(1716195938.374629) can0 463#000022BE
(1716195938.375744) can0 461#0A000000
(1716195938.376879) can0 464#000000000000AE41
(1716195938.377534) can0 466#0042070200000000
(1716195938.378676) can0 468#0303
(1716195938.379861) can0 46A#019000DC
(1716195938.380553) can0 776#006409D8000001E0
(1716195938.380999) can0 501#0813066C271C0C4C
(1716195938.421152) can0 50A#637E7EFF00000000
(1716195938.427593) can0 186#1414
(1716195938.441340) can0 502#0000000000000000
(1716195938.481104) can0 501#08140674271C0C69
(1716195938.521210) can0 50A#637E7EFF00000000
(1716195938.522560) can0 182#6D5B6100
(1716195938.523724) can0 183#0000000058006100
(1716195938.524641) can0 185#1313131314141313
(1716195938.541005) can0 503#01165A0671000D00
(1716195938.581353) can0 501#0815066F271C0C87
(1716195938.621230) can0 50A#637E7EFF00000000
(1716195938.641009) can0 505#0925FC8713156100
(1716195938.672756) can0 460#00039244FFFFDB6C
(1716195938.673556) can0 462#0013001561001A
(1716195938.674615) can0 463#00002494
(1716195938.675436) can0 461#0B000000
(1716195938.676596) can0 464#000000000000AE41
(1716195938.677601) can0 466#0042070200000000
(1716195938.678472) can0 468#0303
(1716195938.681132) can0 501#08160676271C0C9E
(1716195938.721207) can0 50A#637E7EFF00000000
(1716195938.741217) can0 50C#461A000000000100
(1716195938.741464) can0 506#00000200DBEA5F00
(1716195938.777547) can0 186#1414
(1716195938.781271) can0 501#0817066A271C0CBD
(1716195938.821091) can0 50A#637E7EFF00000000
(1716195938.841300) can0 50D#0000007E00000000
(1716195938.872576) can0 182#595B6100
(1716195938.874087) can0 183#000000005D006100
(1716195938.874814) can0 185#1313131314141313
(1716195938.880925) can0 501#08170669271C0CDC
(1716195938.921192) can0 50A#637E7EFF00000000
(1716195938.941282) can0 50F#0000000000000000
(1716195938.972789) can0 460#00039182FFFFDAC0
(1716195938.974015) can0 462#0013001561001A
(1716195938.974584) can0 463#00002540
(1716195938.975898) can0 461#0C000000
(1716195938.977197) can0 464#000000000000AE41
(1716195938.977816) can0 466#0042070200000000
(1716195938.978546) can0 468#0303
(1716195938.981250) can0 501#0817067E271C0CFF
(1716195939.020982) can0 50A#637E7EFF00000000
(1716195939.081234) can0 501#0817066A271C0D14
(1716195939.121171) can0 50A#637E7EFF00000000
(1716195939.127922) can0 186#1414
(1716195939.181221) can0 501#0817066A271C0D24
(1716195939.221155) can0 50A#637E7EFF00000000
(1716195939.222729) can0 182#4F5B6100
(1716195939.224136) can0 183#000000005F006100
(1716195939.224849) can0 185#1313131314141313
(1716195939.240933) can0 50C#461A000000000100
(1716195939.272901) can0 460#0003911BFFFFDA81
(1716195939.273922) can0 462#0013001561001A
(1716195939.274909) can0 463#0000257F
(1716195939.275731) can0 461#0D000000
(1716195939.276902) can0 464#000000000000AE41
(1716195939.277871) can0 466#0042070200000000
(1716195939.278867) can0 468#0303
(1716195939.280861) can0 501#0818067B271C0D32
(1716195939.321149) can0 50A#637E7EFF00000000
(1716195939.341155) can0 500#000F000001C40000
(1716195939.373054) can0 46A#019000DC
(1716195939.374030) can0 776#006409D8000001E0
(1716195939.381148) can0 501#08180663271C0D3A
(1716195939.421134) can0 50A#637E7EFF00000000
(1716195939.441091) can0 502#0000000000000000
(1716195939.477875) can0 186#1414
(1716195939.481155) can0 501#0818067A271C0D41
(1716195939.521180) can0 50A#637E7EFF00000000
(1716195939.541178) can0 503#0116580671000D00
(1716195939.573044) can0 460#0003900DFFFFDA61
(1716195939.574188) can0 462#0013001561001A
(1716195939.574940) can0 463#0000259F
(1716195939.576199) can0 461#0E000000
(1716195939.577003) can0 464#000000000000AE41
(1716195939.578003) can0 466#0042070200000000
(1716195939.578789) can0 468#0303
(1716195939.579868) can0 182#345B6100
(1716195939.580824) can0 501#08180665271D0D49
(1716195939.581293) can0 183#0000000060006100
(1716195939.581967) can0 185#1313131314141313
(1716195939.621096) can0 50A#637E7EFF00000000
(1716195939.641143) can0 505#091EFC3D13156100
(1716195939.681152) can0 501#08170677271D0D4E
(1716195939.721086) can0 50A#637E7EFF00000000
(1716195939.740869) can0 50C#461A000000000100
(1716195939.741324) can0 506#00000200E0EA5F00
(1716195939.781074) can0 501#08170670271D0D53
(1716195939.820844) can0 50A#637E7EFF00000000
(1716195939.828206) can0 186#1414
(1716195939.841087) can0 50D#0000007E00000000
(1716195939.873315) can0 460#00038FC9FFFFDA47
(1716195939.874196) can0 462#0013001561001A
(1716195939.875155) can0 463#000025B9
(1716195939.876177) can0 461#0F000000
(1716195939.877129) can0 464#000000000000AE41
(1716195939.878125) can0 466#0042070200000000
(1716195939.878962) can0 468#0303
(1716195939.880804) can0 501#0817066C271D0D57
(1716195939.921145) can0 50A#637E7EFF00000000
(1716195939.923238) can0 182#2D5B6100
(1716195939.924491) can0 183#0000000060006100
(1716195939.925135) can0 185#1313131314141313
(1716195939.940823) can0 50F#0000000000000000
(1716195939.981111) can0 501#08170675271D0D5A
(1716195940.021132) can0 50A#637E7EFF00000000
(1716195940.081114) can0 501#0816066E271D0D5C
(1716195940.121044) can0 50A#637E7EFF00000000
(1716195940.173543) can0 460#00038EDEFFFFDA41
(1716195940.174205) can0 462#0013001561001A
(1716195940.175370) can0 463#000025BF
(1716195940.176060) can0 461#01151313
(1716195940.177558) can0 464#000000000000AE41
(1716195940.178725) can0 466#0042070200000000
(1716195940.178989) can0 468#0303
(1716195940.180318) can0 186#1414
(1716195940.180750) can0 501#08180675281D0D5F
(1716195940.221038) can0 50A#637E7EFF00000000
(1716195940.241044) can0 50C#461A000000000100
(1716195940.273417) can0 182#105B6100
(1716195940.274279) can0 183#0000000060006100
(1716195940.275344) can0 185#1313131314141313
(1716195940.280771) can0 501#081D064E281D0D68
(1716195940.321096) can0 50A#637E7EFF00000000
(1716195940.340803) can0 500#000F000001C40000
(1716195940.373378) can0 46A#019000DC
(1716195940.374283) can0 776#006409D8000001E0
(1716195940.381068) can0 501#0822067A281D0D7D
(1716195940.421077) can0 50A#637E7EFF00000000
(1716195940.440807) can0 502#0000000000000000
(1716195940.473488) can0 460#00038EA3FFFFDA6E
(1716195940.474301) can0 462#0013001561001A
(1716195940.475389) can0 463#00002592
(1716195940.476419) can0 461#02151313
(1716195940.477428) can0 464#000000000000AE41
(1716195940.478343) can0 466#0042070200000000
(1716195940.479134) can0 468#0303
(1716195940.480726) can0 501#0823066D281D0D91
(1716195940.520989) can0 50A#637E7EFF00000000
(1716195940.528470) can0 186#1414
(1716195940.540779) can0 503#0116590671000C00
(1716195940.581049) can0 501#0825066A281D0DA9
(1716195940.620971) can0 50A#637E7EFF00000000
(1716195940.623557) can0 182#095B6100
(1716195940.624441) can0 183#0000000060006100
(1716195940.625544) can0 185#1313131314141313
(1716195940.640731) can0 505#091BFC3F13156100
(1716195940.681594) can0 501#0827066B281D0DC5
(1716195940.720964) can0 50A#637E7EFF00000000
(1716195940.740959) can0 50C#461A000000000100
(1716195940.741183) can0 506#00000200E0EA5F00
(1716195940.773522) can0 460#00038E61FFFFD805
(1716195940.774462) can0 462#0013001561001A
(1716195940.775355) can0 463#000027FB
(1716195940.776346) can0 461#03151414
(1716195940.778012) can0 464#000000000000AE41
(1716195940.778512) can0 466#0042070200000000
(1716195940.779283) can0 468#0303
(1716195940.781282) can0 501#08270677281D0DE2
(1716195940.821028) can0 50A#637E7EFF00000000
(1716195940.840776) can0 50D#0000007E00000000
(1716195940.878663) can0 186#1415
(1716195940.880993) can0 501#0826066B281D0E02
(1716195940.921019) can0 50A#637E7EFF00000000
(1716195940.941035) can0 50F#0000000000000000
(1716195940.973469) can0 182#F25A6100
(1716195940.974631) can0 183#0000000066006100
(1716195940.975549) can0 185#1313131314141313
(1716195940.980705) can0 501#082A0684281D0E23
(1716195941.020931) can0 50A#637E7EFF00000000
(1716195941.073643) can0 460#00038D7CFFFFD681
(1716195941.074835) can0 462#0013001561001A
(1716195941.075711) can0 463#0000297F
(1716195941.076519) can0 461#04151313
(1716195941.078032) can0 464#000000000000AE41
(1716195941.079081) can0 466#0042070200000000
(1716195941.079426) can0 468#0303
(1716195941.080646) can0 501#082B067A281E0E44
(1716195941.120920) can0 50A#637E7EFF00000000
(1716195941.180902) can0 501#082A066C281D0E66
(1716195941.220900) can0 50A#637E7EFF00000000
(1716195941.228792) can0 186#1415
(1716195941.240672) can0 50C#461A000000000100
(1716195941.280666) can0 501#08300664281E0E8D
(1716195941.320882) can0 50A#637E7EFF00000000
(1716195941.323858) can0 182#E45A6100
(1716195941.324827) can0 183#000000006A006100
(1716195941.325699) can0 185#1313131314141313
(1716195941.340856) can0 500#000F000001C40000
(1716195941.373805) can0 460#00038CF0FFFFD5BC
(1716195941.374747) can0 462#0013001561001A
(1716195941.375903) can0 463#00002A44
(1716195941.376807) can0 461#05151415
(1716195941.378061) can0 464#000000000000AE41
(1716195941.378817) can0 466#0042070200000000
(1716195941.379812) can0 468#0303
(1716195941.380887) can0 501#0832066F281D0EB0
(1716195941.380941) can0 46A#019000DC
(1716195941.382155) can0 776#006409D8000001E0
(1716195941.420957) can0 50A#637E7EFF00000000
(1716195941.440671) can0 502#0000000000000000
(1716195941.480929) can0 501#08340664281D0ED4
(1716195941.520946) can0 50A#637E7EFF00000000
(1716195941.540784) can0 503#0116550671000C00
(1716195941.578713) can0 186#1415
(1716195941.580924) can0 501#08380692281E0EFC
(1716195941.620858) can0 50A#637E7EFF00000000
(1716195941.640789) can0 505#0916FBC613156100
(1716195941.674213) can0 460#00038BFFFFFFD20F
(1716195941.674900) can0 462#0013001561001A
(1716195941.675778) can0 463#00002E3D
(1716195941.676984) can0 461#06000000
(1716195941.678185) can0 464#000000000000AE41
(1716195941.678899) can0 466#0042070200000000
(1716195941.679697) can0 468#0303
(1716195941.680582) can0 501#0838068C281E0F22
(1716195941.680906) can0 182#CC5A6100
(1716195941.682076) can0 183#0000000076006100
(1716195941.683078) can0 185#1313131314141313
(1716195941.720845) can0 50A#637E7EFF00000000
(1716195941.740959) can0 50C#461A000000000100
(1716195941.741059) can0 506#0000020111EA5F00
(1716195941.780910) can0 501#0839068F281E0F46
(1716195941.820939) can0 50A#637E7EFF00000000
(1716195941.841020) can0 50D#0000007E00000000
(1716195941.880882) can0 501#083B0689281E0F6C
(1716195941.920889) can0 50A#637E7EFF00000000
(1716195941.929150) can0 186#1415
(1716195941.940907) can0 50F#0000000000000000
(1716195941.974380) can0 460#00038B6EFFFFCFED
(1716195941.975578) can0 462#0013001561001A
(1716195941.975896) can0 463#00003013
(1716195941.976904) can0 461#07000000
(1716195941.978392) can0 464#000000000000AE41
(1716195941.979058) can0 466#0042070200000000
(1716195941.979836) can0 468#0303
(1716195941.980522) can0 501#083D0680291E0F91
(1716195942.020578) can0 50A#637E7EFF00000000
(1716195942.024175) can0 182#BE5A6100
(1716195942.025175) can0 183#000000007B006100
(1716195942.026396) can0 185#1313131314141313
(1716195942.080874) can0 501#083D0683291E0FB8
(1716195942.120800) can0 50A#637E7EFF00000000
(1716195942.180530) can0 501#083C067B291E0FDC
(1716195942.220822) can0 50A#637E7EFF00000000
(1716195942.240551) can0 50C#461A000000000100
(1716195942.274209) can0 460#00038A8DFFFFCFB3
(1716195942.275724) can0 462#0013001560001A
(1716195942.276056) can0 463#0000304D
(1716195942.277248) can0 461#08000000
(1716195942.278396) can0 464#000000000000AE41
(1716195942.279231) can0 466#0042070200000000
(1716195942.279980) can0 468#0303
(1716195942.280495) can0 501#0846066D291E1002
(1716195942.280980) can0 186#1415
(1716195942.320734) can0 50A#637E7EFF00000000
(1716195942.340582) can0 500#000F000001C40000
(1716195942.374145) can0 46A#019000DC
(1716195942.375099) can0 182#A75A6000
(1716195942.376268) can0 183#000000007B006000
(1716195942.377412) can0 185#1313131314141313
(1716195942.378316) can0 776#006409D8000001E0
(1716195942.380724) can0 501#08490678291F1028
(1716195942.420840) can0 50A#637E7EFF00000000
(1716195942.440773) can0 502#0000000000000000
(1716195942.480806) can0 501#08490675291E1051
(1716195942.520820) can0 50A#637E7EFF00000000
(1716195942.540813) can0 503#0116570671000A00
(1716195942.574663) can0 460#00038A3EFFFFCC73
(1716195942.575338) can0 462#0013001560001A
(1716195942.576497) can0 463#0000338D
(1716195942.577189) can0 461#09000000
(1716195942.578360) can0 464#000000000000AE41
(1716195942.579368) can0 466#0042070200000000
(1716195942.580122) can0 468#0303
(1716195942.580590) can0 501#084E0660291F1074
(1716195942.620775) can0 50A#637E7EFF00000000
(1716195942.629465) can0 186#1415
(1716195942.640783) can0 505#090FFAD913156000
(1716195942.680769) can0 501#084F0673291F109B
(1716195942.720719) can0 50A#637E7EFF00000000
(1716195942.724515) can0 182#985A6000
(1716195942.725424) can0 183#0000000083006000
(1716195942.726628) can0 185#1313131314141313
(1716195942.740529) can0 50C#461A000000000100
(1716195942.740934) can0 506#0000020131EA5F00
(1716195942.780786) can0 501#084C06A0291F10BD
(1716195942.820700) can0 50A#637E7EFF00000000
(1716195942.840713) can0 50D#0000007E00000000
(1716195942.874734) can0 460#000389F4FFFFCB5B
(1716195942.875470) can0 462#0013001560001A
(1716195942.876523) can0 463#000034A5
(1716195942.877318) can0 461#0A000000
(1716195942.878676) can0 464#000000000000AE41
(1716195942.879670) can0 466#0042070200000000
(1716195942.880551) can0 501#08500662291E10D9
(1716195942.880668) can0 468#0303
(1716195942.920776) can0 50A#637E7EFF00000000
(1716195942.940709) can0 50F#0000000000000000
(1716195942.979725) can0 186#1415
(1716195942.980553) can0 501#08520658291E10F4
(1716195943.020763) can0 50A#637E7EFF00000000
(1716195943.074753) can0 182#905A6000
(1716195943.075840) can0 183#0000000086006000
(1716195943.076528) can0 185#1313131314141313
(1716195943.080532) can0 501#08500660291E1114
(1716195943.120676) can0 50A#637E7EFF00000000
(1716195943.174901) can0 460#000388F4FFFFCADC
(1716195943.175551) can0 462#0013001560001A
(1716195943.176735) can0 463#00003524
(1716195943.177483) can0 461#0B000000
(1716195943.178878) can0 464#000000000000AE41
(1716195943.179664) can0 466#0042070200000000
(1716195943.180491) can0 501#08530659291E112E
(1716195943.180636) can0 468#0303
(1716195943.220661) can0 50A#637E7EFF00000000
(1716195943.240715) can0 50C#461A000000000100
(1716195943.280751) can0 501#08510667291E113B
(1716195943.320734) can0 50A#637E7EFF00000000
(1716195943.329400) can0 186#1415
(1716195943.340660) can0 500#000F000001C40000
(1716195943.374789) can0 46A#019000DC
(1716195943.375786) can0 776#006409D8000001E0
(1716195943.380715) can0 501#084E0683291F1145
(1716195943.420715) can0 50A#637E7EFF00000000
(1716195943.424833) can0 182#6F5A6000
(1716195943.426113) can0 183#0000000088006000
(1716195943.426628) can0 185#1313131314141313
(1716195943.440726) can0 502#0000000000000000
(1716195943.475011) can0 460#00038856FFFFCA8F
(1716195943.475633) can0 462#0013001560001A
(1716195943.476819) can0 463#00003571
(1716195943.477537) can0 461#0C000000
(1716195943.478955) can0 464#000000000000AE41
(1716195943.479692) can0 466#0042070200000000
(1716195943.480378) can0 501#084B06A6291F1150
(1716195943.480604) can0 468#0303
(1716195943.520505) can0 50A#637E7EFF00000000
(1716195943.540728) can0 503#0116590671000A00
(1716195943.580662) can0 501#0851066F29201155
(1716195943.620905) can0 50A#637E7EFF00000000
(1716195943.640411) can0 505#090BFAA813156000
(1716195943.679785) can0 186#1415
(1716195943.680388) can0 501#0850068829201160
(1716195943.720715) can0 50A#637E7EFF00000000
(1716195943.740638) can0 50C#461A000000000100
(1716195943.740798) can0 506#000002013CEA5F00
(1716195943.775087) can0 460#00038802FFFFCA63
(1716195943.775775) can0 462#0013001560001A
(1716195943.776827) can0 463#0000359D
(1716195943.777840) can0 461#0D000000
(1716195943.778795) can0 464#000000000000AE41
(1716195943.780294) can0 466#0042070200000000
(1716195943.780411) can0 501#0853067A2920116E
(1716195943.780570) can0 468#0303
(1716195943.782005) can0 182#665A6000
(1716195943.783196) can0 183#0000000089006000
(1716195943.783767) can0 185#1313131314141313
(1716195943.820708) can0 50A#637E7EFF00000000
(1716195943.840630) can0 50D#0000007E00000000
(1716195943.880788) can0 501#085406572920117E
(1716195943.920395) can0 50A#637E7EFF00000000
(1716195943.940693) can0 50F#0000000000000000
(1716195943.980608) can0 501#084D0665291F118B
(1716195944.020553) can0 50A#637E7EFF00000000
(1716195944.029690) can0 186#1415
(1716195944.075233) can0 460#00038713FFFFCA63
(1716195944.075883) can0 462#0013001560001A
(1716195944.077046) can0 463#0000359D
(1716195944.077977) can0 461#0E000000
(1716195944.078965) can0 464#000000000000AE41
(1716195944.080348) can0 466#0042070200000000
(1716195944.080406) can0 501#0850065A291F1188
(1716195944.080683) can0 468#0303
(1716195944.120622) can0 50A#637E7EFF00000000
(1716195944.125122) can0 182#475A6000
(1716195944.126025) can0 183#0000000089006000
(1716195944.126977) can0 185#1313131314141313
(1716195944.180600) can0 501#084D067C2A201191
(1716195944.220533) can0 50A#637E7EFF00000000
(1716195944.240290) can0 50C#461A000000000100
(1716195944.280510) can0 501#085806802A2011B0
(1716195944.320674) can0 50A#637E7EFF00000000
(1716195944.340537) can0 500#000F000001C40000
(1716195944.375294) can0 460#000386C7FFFFCA5D
(1716195944.376001) can0 462#0013001560001A
(1716195944.377139) can0 463#000035A3
(1716195944.378235) can0 461#0F000000
(1716195944.379377) can0 464#000000000000AE41
(1716195944.380019) can0 466#0042070200000000
(1716195944.380566) can0 501#08570666292011C6
(1716195944.380803) can0 468#0303
(1716195944.382195) can0 46A#019000DC
(1716195944.383312) can0 186#1415
(1716195944.384429) can0 776#006409D8000001E0
(1716195944.420588) can0 50A#637E7EFF00000000
(1716195944.440529) can0 502#0000000000000000
(1716195944.475003) can0 182#3E5A6000
(1716195944.476111) can0 183#0000000089006000
(1716195944.477060) can0 185#1313131314141313
(1716195944.480230) can0 501#085A06732A1F11DE
(1716195944.520581) can0 50A#637E7EFF00000000
(1716195944.540482) can0 503#0116580671000900
(1716195944.580516) can0 501#085806772A2011FA
(1716195944.620567) can0 50A#637E7EFF00000000
(1716195944.640550) can0 505#0907FAA313156000
(1716195944.675487) can0 460#000385CDFFFFC853
(1716195944.676356) can0 462#0013001560001A
(1716195944.677011) can0 463#000037AD
(1716195944.677998) can0 461#01151313
(1716195944.679182) can0 464#000000000000AE41
(1716195944.680149) can0 466#0042070200000000
(1716195944.680827) can0 501#085906622A21120F
(1716195944.680928) can0 468#0303
(1716195944.720432) can0 50A#637E7EFF00000000
(1716195944.730029) can0 186#1415
(1716195944.740285) can0 50C#461A000000000100
(1716195944.740713) can0 506#0000020148EA5F00
(1716195944.780515) can0 501#085A066C2A201224
(1716195944.820739) can0 50A#637E7EFF00000000
(1716195944.825364) can0 182#1D5A6000
(1716195944.826560) can0 183#000000008E006000
(1716195944.827249) can0 185#1313131314141313
(1716195944.840507) can0 50D#0000007E00000000
(1716195944.880223) can0 501#085A067E2A211240
(1716195944.920542) can0 50A#637E7EFF00000000
(1716195944.940304) can0 50F#0000000000000000
(1716195944.975567) can0 460#00038524FFFFC6C9
(1716195944.976337) can0 462#0013001560001A
(1716195944.977154) can0 463#00003937
(1716195944.978339) can0 461#02151313
(1716195944.979529) can0 464#000000000000AE41
(1716195944.980143) can0 501#085B06752A20125D
(1716195944.980627) can0 466#0042070200000000
(1716195944.981099) can0 468#0303
(1716195945.020241) can0 50A#637E7EFF00000000
(1716195945.080449) can0 501#085B06872A211284
(1716195945.080473) can0 186#1415
(1716195945.120195) can0 50A#637E7EFF00000000
(1716195945.175619) can0 182#135A6000
(1716195945.176881) can0 183#0000000092006000
(1716195945.177380) can0 185#1313131314141313
(1716195945.180443) can0 501#085C067B2A2112A5
(1716195945.220446) can0 50A#637E7EFF00000000
(1716195945.240406) can0 50C#461A000000000100
(1716195945.275718) can0 460#00038414FFFFC68A
(1716195945.276440) can0 462#0013001560001A
(1716195945.277303) can0 463#00003976
(1716195945.278305) can0 461#03151414
(1716195945.279480) can0 464#000000000000AE41
(1716195945.280286) can0 501#085906962A2112B3
(1716195945.280598) can0 466#0042070200000000
(1716195945.281251) can0 468#0303
(1716195945.320474) can0 50A#637E7EFF00000000
(1716195945.340434) can0 500#000F000001C40000
(1716195945.375718) can0 46A#019000DC
(1716195945.376652) can0 776#006409D8000001E0
(1716195945.380496) can0 501#085B066E2A2112C4
(1716195945.420462) can0 50A#637E7EFF00000000
(1716195945.430572) can0 186#1415
(1716195945.440400) can0 502#0000000000000000
(1716195945.480434) can0 501#085906712A2112CE
(1716195945.520443) can0 50A#637E7EFF00000000
(1716195945.525783) can0 182#F9596000
(1716195945.526692) can0 183#0000000093006000
(1716195945.527662) can0 185#1313131314141313
(1716195945.540437) can0 503#0116580671000A00
(1716195945.575625) can0 460#00038365FFFFC624
(1716195945.576892) can0 462#0013001560001A
(1716195945.577464) can0 463#000039DC
(1716195945.578467) can0 461#04151313
(1716195945.579634) can0 464#000000000000AE41
(1716195945.580113) can0 501#085A06852A2212D8
(1716195945.580604) can0 466#0042070200000000
(1716195945.581408) can0 468#0303
(1716195945.620184) can0 50A#637E7EFF00000000
(1716195945.640438) can0 505#08FEFA3713156000
(1716195945.680345) can0 501#085A06912A2112DE
(1716195945.720113) can0 50A#637E7EFF00000000
(1716195945.740125) can0 50C#461A000000000100
(1716195945.740567) can0 506#0000020154EA5F00
(1716195945.780274) can0 501#085A06842A2112E6
(1716195945.780471) can0 186#1415
(1716195945.820411) can0 50A#637E7EFF00000000
(1716195945.840368) can0 50D#0000007E00000000
(1716195945.876055) can0 460#0003830FFFFFC604
(1716195945.876727) can0 462#0013001560001A
(1716195945.877613) can0 463#000039FC
(1716195945.878810) can0 461#05151415
(1716195945.879838) can0 464#000000000000AE41
(1716195945.880220) can0 501#085A067B2A2212E6
(1716195945.881036) can0 466#0042070200000000
(1716195945.881535) can0 468#0303
(1716195945.882917) can0 182#E7596000
(1716195945.884081) can0 183#0000000094006000
(1716195945.885237) can0 185#1313131314141313
(1716195945.920397) can0 50A#637E7EFF00000000
(1716195945.940346) can0 50F#0000000000000000
(1716195945.980319) can0 501#085A0677292212E8
(1716195946.020382) can0 50A#637E7EFF00000000
(1716195946.080421) can0 501#0859066F2A2212EB
(1716195946.120072) can0 50A#637E7EFF00000000
(1716195946.130908) can0 186#1415
(1716195946.176260) can0 460#00038207FFFFC617
(1716195946.176875) can0 462#0013001560001A
(1716195946.178053) can0 463#000039E9
(1716195946.178789) can0 461#06000000
(1716195946.180247) can0 464#000000000000AE41
(1716195946.180371) can0 501#085A06722A2212EE
(1716195946.181425) can0 466#0042070200000000
(1716195946.181687) can0 468#0303
(1716195946.220373) can0 50A#637E7EFF00000000
(1716195946.226267) can0 182#CD596000
(1716195946.227453) can0 183#0000000094006000
(1716195946.227907) can0 185#1313131314141313
(1716195946.240449) can0 50C#461A000000000100
(1716195946.280267) can0 501#085906932A2212EE
(1716195946.320366) can0 50A#637E7EFF00000000
(1716195946.340291) can0 500#000F000001C40000
(1716195946.376119) can0 46A#019000DC
(1716195946.377266) can0 776#006409D8000001E0
(1716195946.380034) can0 501#085A066D2A2212EF
(1716195946.420157) can0 50A#637E7EFF00000000
(1716195946.440368) can0 502#0000000000000000
(1716195946.476383) can0 460#000381B0FFFFC5BE
(1716195946.477034) can0 462#0013001560001A
(1716195946.478199) can0 463#00003A42
(1716195946.478895) can0 461#07000000
(1716195946.479959) can0 501#08580669292112F3
(1716195946.480465) can0 464#000000000000AE41
(1716195946.481053) can0 466#0042070200000000
(1716195946.481982) can0 468#0303
(1716195946.482895) can0 186#1415
(1716195946.520037) can0 50A#637E7EFF00000000
(1716195946.540332) can0 503#0116580671000900
(1716195946.576275) can0 182#BC596000
(1716195946.577119) can0 183#0000000095006000
(1716195946.578401) can0 185#1313131314141313
(1716195946.580300) can0 501#0859066C2A2212F1
(1716195946.620323) can0 50A#637E7EFF00000000
(1716195946.639994) can0 505#08FAFA2D13156000
(1716195946.679985) can0 501#085906802A2212F3
(1716195946.720291) can0 50A#637E7EFF00000000
(1716195946.740265) can0 50C#461A000000000100
(1716195946.740443) can0 506#0000020156EA5F00
(1716195946.776232) can0 460#000380ABFFFFC5D8
(1716195946.777179) can0 462#0013001560001A
(1716195946.778237) can0 463#00003A28
(1716195946.779131) can0 461#08000000
(1716195946.780444) can0 501#08580683292212F2
(1716195946.780466) can0 464#000000000000AE41
(1716195946.781227) can0 466#0042070200000000
(1716195946.782174) can0 468#0303
(1716195946.820291) can0 50A#637E7EFF00000000
(1716195946.831242) can0 186#1415
(1716195946.840244) can0 50D#0000007E00000000
(1716195946.880204) can0 501#08580684292212F4
(1716195946.920289) can0 50A#637E7EFF00000000
(1716195946.926437) can0 182#A2596000
(1716195946.927616) can0 183#0000000094006000
(1716195946.928789) can0 185#1313131314141313
(1716195946.940294) can0 50F#0000000000000000
(1716195946.979969) can0 501#08590668292212F4
(1716195947.019997) can0 50A#637E7EFF00000000
(1716195947.076665) can0 460#00038003FFFFC5CB
(1716195947.077292) can0 462#0013001560001A
(1716195947.078460) can0 463#00003A35
(1716195947.079189) can0 461#09000000
(1716195947.080221) can0 501#0858067D292212F5
(1716195947.080384) can0 464#000000000000AE41
(1716195947.081633) can0 466#0042070200000000
(1716195947.082263) can0 468#0303
(1716195947.120166) can0 50A#637E7EFF00000000
(1716195947.180240) can0 501#08570687292312F5
(1716195947.181474) can0 186#1415
(1716195947.220154) can0 50A#637E7EFF00000000
(1716195947.239948) can0 50C#461A000000000100
(1716195947.276413) can0 182#90596000
(1716195947.277691) can0 183#0000000095006000
(1716195947.278494) can0 185#1313131314141313
(1716195947.280120) can0 501#08590682292212F2
(1716195947.320225) can0 50A#637E7EFF00000000
(1716195947.339936) can0 500#000F000001C40000
(1716195947.376672) can0 460#00037FA1FFFFC61D
(1716195947.377398) can0 462#0013001560001A
(1716195947.378814) can0 463#000039E3
(1716195947.379286) can0 461#0A000000
(1716195947.379990) can0 501#0858065D292312F3
(1716195947.380619) can0 464#000000000000AE41
(1716195947.381524) can0 466#0042070200000000
(1716195947.382355) can0 468#0303
(1716195947.383563) can0 46A#019000DC
(1716195947.384432) can0 776#006409D8000001E0
(1716195947.420212) can0 50A#637E7EFF00000000
(1716195947.440800) can0 502#0000000000000000
(1716195947.480137) can0 501#08570680292312F3
(1716195947.520229) can0 50A#637E7EFF00000000
(1716195947.531298) can0 186#1414
(1716195947.540205) can0 503#01165A0671000900
(1716195947.580158) can0 501#085906712A2312F5
(1716195947.620148) can0 50A#637E7EFF00000000
(1716195947.626692) can0 182#77596000
(1716195947.627928) can0 183#0000000094006000
(1716195947.628489) can0 185#1313131314141313
(1716195947.639870) can0 505#08F4FA3713156000
(1716195947.676784) can0 460#00037EADFFFFC5DE
(1716195947.677621) can0 462#0013001560001A
(1716195947.678556) can0 463#00003A22
(1716195947.679625) can0 461#0B000000
(1716195947.679857) can0 501#08580674292312F3
(1716195947.680774) can0 464#000000000000AE41
(1716195947.681613) can0 466#0042070200000000
(1716195947.682429) can0 468#0303
(1716195947.720170) can0 50A#637E7EFF00000000
(1716195947.740111) can0 50C#461A000000000100
(1716195947.740331) can0 506#0000020154EA5F00
(1716195947.780098) can0 501#085706682A2312F3
(1716195947.820184) can0 50A#637E7EFF00000000
(1716195947.839876) can0 50D#0000007E00000000
(1716195947.880152) can0 501#0858066A2A2312F5
(1716195947.881615) can0 186#1414
(1716195947.920175) can0 50A#637E7EFF00000000
(1716195947.940172) can0 50F#0000000000000000
(1716195947.976919) can0 460#00037E01FFFFC5DE
(1716195947.977773) can0 462#0013001560001A
(1716195947.978498) can0 463#00003A22
(1716195947.979516) can0 461#0C000000
(1716195947.979977) can0 501#0858067B2A2312F2
(1716195947.980885) can0 464#000000000000AE41
(1716195947.981857) can0 466#0042070200000000
(1716195947.982699) can0 468#0303
(1716195947.983586) can0 182#66596000
(1716195947.984852) can0 183#0000000094006000
(1716195947.985629) can0 185#1313131314141313
(1716195948.020064) can0 50A#637E7EFF00000000
(1716195948.080145) can0 501#0856067E292312F1
(1716195948.120027) can0 50A#637E7EFF00000000
(1716195948.180107) can0 501#085706762A2312F0
(1716195948.219947) can0 50A#637E7EFF00000000
(1716195948.231867) can0 186#1414
(1716195948.239828) can0 50C#461A000000000100
(1716195948.277041) can0 460#00037CDEFFFFC5BE
(1716195948.277914) can0 462#0013001560001A
(1716195948.278825) can0 463#00003A42
(1716195948.279887) can0 461#0D000000
(1716195948.280104) can0 501#085706752A2312F3
(1716195948.281023) can0 464#000000000000AE41
(1716195948.282005) can0 466#0042070200000000
(1716195948.282552) can0 468#0303
(1716195948.320078) can0 50A#637E7EFF00000000
(1716195948.326993) can0 182#49596000
(1716195948.328208) can0 183#0000000095006000
(1716195948.328764) can0 185#1313131314141313
(1716195948.339855) can0 500#000F000001C40000
(1716195948.377399) can0 46A#019000DC
(1716195948.377830) can0 776#006409D8000001E0
(1716195948.380004) can0 501#085606882A2412F2
(1716195948.420168) can0 50A#637E7EFF00000000
(1716195948.439825) can0 502#0000000000000000
(1716195948.480093) can0 501#0856067C2A2312F2
(1716195948.520086) can0 50A#637E7EFF00000000
(1716195948.540064) can0 503#01165A0671000A00
(1716195948.577218) can0 460#00037C86FFFFC5D8
(1716195948.577871) can0 462#0013001560001A
(1716195948.578767) can0 463#00003A28
(1716195948.579710) can0 501#085706662A2312F1
(1716195948.580050) can0 461#0E000000
(1716195948.581128) can0 464#000000000000AE41
(1716195948.582155) can0 466#0042070200000000
(1716195948.582689) can0 468#0303
(1716195948.584025) can0 186#1414
(1716195948.619946) can0 50A#637E7EFF00000000
(1716195948.639811) can0 505#08ECFA3013156000
(1716195948.677135) can0 182#40596000
(1716195948.678327) can0 183#0000000094006000
(1716195948.678913) can0 185#1313131314141313
(1716195948.680009) can0 501#0856067E2A2412F3
(1716195948.719778) can0 50A#637E7EFF00000000
(1716195948.739765) can0 50C#461A000000000100
(1716195948.740236) can0 506#0000020153EA5F00
(1716195948.779969) can0 501#0856069E2A2412F3
(1716195948.819756) can0 50A#637E7EFF00000000
(1716195948.839753) can0 50D#0000007E00000000
(1716195948.877307) can0 460#00037B7BFFFFC5C4
(1716195948.877982) can0 462#0013001560001A
(1716195948.879146) can0 463#00003A3C
(1716195948.879737) can0 501#085606712A2412F2
(1716195948.880035) can0 461#0F000000
(1716195948.881404) can0 464#000000000000AE41
(1716195948.882059) can0 466#0042070200000000
(1716195948.883009) can0 468#0303
(1716195948.919748) can0 50A#637E7EFF00000000
(1716195948.931867) can0 186#1414
(1716195948.939965) can0 50F#0000000000000000
(1716195948.980020) can0 501#085606632A2312F5
(1716195949.020049) can0 50A#637E7EFF00000000
(1716195949.027246) can0 182#1F596000
(1716195949.028462) can0 183#0000000095006000
(1716195949.029053) can0 185#1313131414141313
(1716195949.080008) can0 501#085706672A2412F4
(1716195949.119724) can0 50A#637E7EFF00000000
(1716195949.177450) can0 460#00037AE8FFFFC5E4
(1716195949.178654) can0 462#0013001560001A
(1716195949.179022) can0 463#00003A1C
(1716195949.180011) can0 501#085706702A2412F5
(1716195949.180028) can0 461#01151313
(1716195949.181449) can0 464#000000000000AE41
(1716195949.182686) can0 466#0042070200000000
(1716195949.182903) can0 468#0303
(1716195949.219715) can0 50A#637E7EFF00000000
(1716195949.239715) can0 50C#461A000000000100
(1716195949.279902) can0 501#085506822A2412F4
(1716195949.282003) can0 186#1414
(1716195949.319689) can0 50A#637E7EFF00000000
(1716195949.339852) can0 500#000F000001C40000
(1716195949.377112) can0 46A#019000DC
(1716195949.378265) can0 182#17596000
(1716195949.379397) can0 183#0000000094006000
(1716195949.379660) can0 501#085506862A2412F5
(1716195949.380377) can0 185#1313131414141313
(1716195949.381197) can0 776#006409D8000001E0
(1716195949.419841) can0 50A#637E7EFF00000000
(1716195949.439899) can0 502#0000000000000000
(1716195949.477276) can0 460#00037A90FFFFC5B1
(1716195949.478200) can0 462#0013001560001A
(1716195949.479095) can0 463#00003A4F
(1716195949.479619) can0 501#085706762A2412F3
(1716195949.480092) can0 461#02151314
(1716195949.481268) can0 464#000000000000AE41
(1716195949.482240) can0 466#0042070200000000
(1716195949.483045) can0 468#0303
(1716195949.519945) can0 50A#637E7EFF00000000
(1716195949.539973) can0 503#0116590671000A00
(1716195949.579933) can0 501#085506762A2512F6
(1716195949.619863) can0 50A#637E7EFF00000000
(1716195949.632411) can0 186#1415
(1716195949.639632) can0 505#08E7FA2C13156000
(1716195949.679867) can0 501#085706852A2512F3
(1716195949.719874) can0 50A#637E7EFF00000000
(1716195949.727503) can0 182#F3586000
(1716195949.728617) can0 183#0000000095006000
(1716195949.729282) can0 185#1313131414141313
(1716195949.739859) can0 50C#461A000000000100
(1716195949.740121) can0 506#0000020154005000
(1716195949.778095) can0 460#00037981FFFFC5E4
(1716195949.778285) can0 462#0013001560001A
(1716195949.779199) can0 463#00003A1C
(1716195949.779857) can0 501#085606752A2412F0
(1716195949.780180) can0 461#03151414
(1716195949.781495) can0 464#000000000000AE41
(1716195949.782440) can0 466#0042070200000000
(1716195949.783325) can0 468#0303
(1716195949.819892) can0 50A#637E7EFF00000000
(1716195949.839885) can0 50D#0000007E00000000
(1716195949.879871) can0 501#0855065C2A2512F1
(1716195949.920100) can0 50A#637E7EFF00000000
(1716195949.939930) can0 50F#0000000000000000
(1716195949.979898) can0 501#085506742A2512F2
(1716195949.982529) can0 186#1415
(1716195950.019886) can0 50A#637E7EFF00000000
(1716195950.077782) can0 460#00037929FFFFC5C4
(1716195950.078425) can0 462#0013001560001A
(1716195950.079602) can0 463#00003A3C
(1716195950.079734) can0 501#085606802A2512F4
(1716195950.080377) can0 461#04151313
(1716195950.081774) can0 464#000000000000AE41
(1716195950.082938) can0 466#0042070200000000
(1716195950.083227) can0 468#0303
(1716195950.084618) can0 182#EA586000
(1716195950.085970) can0 183#0000000095006000
(1716195950.086417) can0 185#1313131414141313
(1716195950.119852) can0 50A#637E7EFF00000000
(1716195950.179879) can0 501#085506812A2512F2
(1716195950.219690) can0 50A#637E7EFF00000000
(1716195950.239589) can0 50C#461A000000000100
(1716195950.279787) can0 501#085506682A2512F3
(1716195950.320037) can0 50A#637E7EFF00000000
(1716195950.332354) can0 186#1415
(1716195950.339817) can0 500#000F000001C40000
(1716195950.377679) can0 460#000377A9FFFFC5FE
(1716195950.378652) can0 462#0013001560001A
(1716195950.379894) can0 501#0855065C2A2512F5
(1716195950.379910) can0 463#00003A02
(1716195950.380399) can0 461#05151415
(1716195950.381570) can0 464#000000000000AE41
(1716195950.382833) can0 466#0042070200000000
(1716195950.383359) can0 468#0303
(1716195950.384417) can0 46A#019000DC
(1716195950.385763) can0 776#006409D8000001E0
(1716195950.419871) can0 50A#637E7EFF00000000
(1716195950.427451) can0 182#C4586000
(1716195950.428597) can0 183#0000000094006000
(1716195950.429727) can0 185#1313131414141313
(1716195950.439942) can0 502#0000000000000000
(1716195950.479539) can0 501#0855068E2A2512F4
(1716195950.519610) can0 50A#637E7EFF00000000
(1716195950.539853) can0 503#0116590671000900
(1716195950.579845) can0 501#0854067E2A2512F3
(1716195950.619781) can0 50A#637E7EFF00000000
(1716195950.639532) can0 505#08E0FA3313156000
(1716195950.677866) can0 460#0003774EFFFFC5C4
(1716195950.678770) can0 462#0013001560001A
(1716195950.680031) can0 501#0855066A2A2512F5
(1716195950.680047) can0 463#00003A3C
(1716195950.680817) can0 461#06000000
(1716195950.682031) can0 464#000000000000AE41
(1716195950.682916) can0 466#0042070200000000
(1716195950.683447) can0 468#0303
(1716195950.684455) can0 186#1415
(1716195950.719766) can0 50A#637E7EFF00000000
(1716195950.739753) can0 50C#461A000000000100
(1716195950.739976) can0 506#0000020152005000
(1716195950.777665) can0 182#BB586000
(1716195950.778712) can0 183#0000000095006000
(1716195950.779459) can0 501#0854066C2A2512F6
(1716195950.779929) can0 185#1313131414141313
(1716195950.819732) can0 50A#637E7EFF00000000
(1716195950.839545) can0 50D#0000007E00000000
(1716195950.879796) can0 501#085406702A2512F6
(1716195950.919530) can0 50A#637E7EFF00000000
(1716195950.939749) can0 50F#0000000000000000
(1716195950.977836) can0 460#000376FBFFFFC5BE
(1716195950.979050) can0 462#0013001560001A
(1716195950.979458) can0 501#085406842A2612F5
(1716195950.979796) can0 463#00003A42
(1716195950.980649) can0 461#07000000
(1716195950.982002) can0 464#000000000000AE41
(1716195950.982778) can0 466#0042070200000000
(1716195950.983724) can0 468#0303
(1716195951.019771) can0 50A#637E7EFF00000000
(1716195951.032924) can0 186#1415
(1716195951.079912) can0 501#0855066A2A2512F3
(1716195951.119706) can0 50A#637E7EFF00000000
(1716195951.128035) can0 182#95586000
(1716195951.128932) can0 183#0000000095006000
(1716195951.129934) can0 185#1313131314141313
(1716195951.179767) can0 501#085306832A2612F2
(1716195951.219655) can0 50A#637E7EFF00000000
(1716195951.239486) can0 50C#461A000000000100
(1716195951.277930) can0 460#00037578FFFFC5A5
(1716195951.279106) can0 462#0013001560001A
(1716195951.279413) can0 501#085506802A2612F1
(1716195951.280196) can0 463#00003A5B
(1716195951.280770) can0 461#08000000
(1716195951.282116) can0 464#000000000000AE41
(1716195951.283177) can0 466#0042070200000000
(1716195951.283695) can0 468#0303
(1716195951.319698) can0 50A#637E7EFF00000000
(1716195951.339755) can0 500#000F000001C40000
(1716195951.378246) can0 46A#019000DC
(1716195951.379005) can0 776#006409D8000001E0
(1716195951.379389) can0 501#085506692A2612EF
(1716195951.383033) can0 186#1415
(1716195951.419759) can0 50A#637E7EFF00000000
(1716195951.439472) can0 502#0000000000000000
(1716195951.478223) can0 182#8C586000
(1716195951.479376) can0 183#0000000095006000
(1716195951.479467) can0 501#0858065F2A2612FE
(1716195951.480537) can0 185#1313131314141313
(1716195951.519742) can0 50A#637E7EFF00000000
(1716195951.539509) can0 503#01165A0671000900
(1716195951.578349) can0 460#0003751FFFFFC604
(1716195951.579217) can0 462#0013001560001A
(1716195951.579440) can0 501#0857068C2A261310
(1716195951.579976) can0 463#000039FC
(1716195951.580874) can0 461#09000000
(1716195951.582362) can0 464#000000000000AE41
(1716195951.583546) can0 466#0042070200000000
(1716195951.583805) can0 468#0303
(1716195951.619637) can0 50A#637E7EFF00000000
(1716195951.639505) can0 505#08D9FA3413156000
(1716195951.679471) can0 501#0857067E2A261323
(1716195951.719802) can0 50A#637E7EFF00000000
(1716195951.733050) can0 186#1415
(1716195951.739650) can0 50C#461A000000000100
(1716195951.739876) can0 506#0000020150005000
(1716195951.779693) can0 501#085806672A26133E
(1716195951.819701) can0 50A#637E7EFF00000000
(1716195951.828124) can0 182#65586000
(1716195951.829171) can0 183#0000000094006000
(1716195951.830477) can0 185#1313131314141313
(1716195951.839618) can0 50D#0000007E00000000
(1716195951.878461) can0 460#000373A4FFFFC3C8
(1716195951.879115) can0 462#0013001560001A
(1716195951.879681) can0 501#085806572A261357
(1716195951.879999) can0 463#00003C38
(1716195951.880993) can0 461#0A000000
(1716195951.882474) can0 464#000000000000AE41
(1716195951.883125) can0 466#0042070200000000
(1716195951.884206) can0 468#0303
(1716195951.919372) can0 50A#637E7EFF00000000
(1716195951.939723) can0 50F#0000000000000000
(1716195951.979660) can0 501#0854064F2A261370
(1716195952.019637) can0 50A#637E7EFF00000000
(1716195952.079655) can0 501#085106302A261392
(1716195952.083323) can0 186#1415
(1716195952.119607) can0 50A#637E7EFF00000000
(1716195952.178571) can0 460#000373A4FFFFC421
(1716195952.179243) can0 462#0013001560001A
(1716195952.179689) can0 501#0852064B2A2713B1
(1716195952.180123) can0 463#00003BDF
(1716195952.181118) can0 461#0B000000
(1716195952.182282) can0 464#000000000000AE41
(1716195952.183282) can0 466#0042070200000000
(1716195952.184058) can0 468#0303
(1716195952.185134) can0 182#5D586000
(1716195952.186640) can0 183#0000000099006000
(1716195952.187235) can0 185#1313131314141313
(1716195952.219590) can0 50A#637E7EFF00000000
(1716195952.239793) can0 50C#461A000000000100
(1716195952.279332) can0 501#085306442A2713CD
(1716195952.319585) can0 50A#637E7EFF00000000
(1716195952.339349) can0 500#000F000001C40000
(1716195952.378254) can0 46A#019000DC
(1716195952.379667) can0 501#085306462A2713EA
(1716195952.379751) can0 776#006409D8000001E0
(1716195952.419636) can0 50A#637E7EFF00000000
(1716195952.433594) can0 186#1415
(1716195952.439564) can0 502#0000000000000000
(1716195952.478720) can0 460#00037244FFFFC6E3
(1716195952.479308) can0 501#085206722A2713F7
(1716195952.479772) can0 462#0013001560001A
(1716195952.480247) can0 463#0000391D
(1716195952.481243) can0 461#0C000000
(1716195952.482723) can0 464#000000000000AE41
(1716195952.483393) can0 466#0042070200000000
(1716195952.484187) can0 468#0303
(1716195952.519603) can0 50A#637E7EFF00000000
(1716195952.528593) can0 182#3A586000
(1716195952.529459) can0 183#0000000092006000
(1716195952.530386) can0 185#1313131314141313
(1716195952.539466) can0 503#01165A0671000800
(1716195952.579572) can0 501#085105E72A271402
(1716195952.619541) can0 50A#637E7EFF00000000
(1716195952.639269) can0 505#08D2FA4A13156000
(1716195952.679343) can0 501#0852063229271409
(1716195952.719512) can0 50A#637E7EFF00000000
(1716195952.739594) can0 50C#461A000000000100
(1716195952.739788) can0 506#000002014A005000
(1716195952.778713) can0 460#00037180FFFFC75B
(1716195952.779242) can0 501#085405F729271412
(1716195952.779708) can0 462#0013001560001A
(1716195952.780451) can0 463#000038A5
(1716195952.781374) can0 461#0D000000
(1716195952.782838) can0 464#000000000000AE41
(1716195952.783979) can0 466#0042070200000000
(1716195952.784295) can0 468#0303
(1716195952.785282) can0 186#1415
(1716195952.819571) can0 50A#637E7EFF00000000
(1716195952.839515) can0 50D#0000007E00000000
(1716195952.878441) can0 182#26586000
(1716195952.879211) can0 501#085205C22927141B
(1716195952.879703) can0 183#0000000091006000
(1716195952.880585) can0 185#1313131314141313
(1716195952.919558) can0 50A#637E7EFF00000000
(1716195952.939511) can0 50F#0000000000000000
(1716195952.979543) can0 501#085505E329271423
(1716195953.019569) can0 50A#637E7EFF00000000
(1716195953.078988) can0 460#00037125FFFFC827
(1716195953.079172) can0 501#085205B929271425
(1716195953.079661) can0 462#0013001560001A
(1716195953.080799) can0 463#000037D9
(1716195953.081502) can0 461#0E000000
(1716195953.082967) can0 464#000000000000AE41
(1716195953.084099) can0 466#0042070200000000
(1716195953.084421) can0 468#0303
(1716195953.119479) can0 50A#637E7EFF00000000
(1716195953.133580) can0 186#1415
(1716195953.179524) can0 501#085305D629271423
(1716195953.219472) can0 50A#637E7EFF00000000
(1716195953.228893) can0 182#0B586000
(1716195953.230015) can0 183#000000008E006000
(1716195953.230758) can0 185#1313131314141313
(1716195953.239231) can0 50C#461A000000000100
(1716195953.279225) can0 501#0854061329281428
(1716195953.319398) can0 50A#637E7EFF00000000
(1716195953.339589) can0 500#000F000001C40000
(1716195953.379092) can0 460#00036FCAFFFFC880
(1716195953.379188) can0 501#085506122927142A
(1716195953.379786) can0 462#0013001560001A
(1716195953.380914) can0 463#00003780
(1716195953.381854) can0 461#0F000000
(1716195953.383078) can0 464#000000000000AE41
(1716195953.383927) can0 466#0042070200000000
(1716195953.384543) can0 468#0303
(1716195953.385616) can0 46A#019000DC
(1716195953.387191) can0 776#006409D8000001E0
(1716195953.419619) can0 50A#637E7EFF00000000
(1716195953.439281) can0 502#0000000000000000
(1716195953.479180) can0 501#085B059629281438
(1716195953.483844) can0 186#1415
(1716195953.519518) can0 50A#637E7EFF00000000
(1716195953.539493) can0 503#0116590671000900
(1716195953.579018) can0 182#FA576000
(1716195953.579120) can0 501#085D052429281447
(1716195953.579927) can0 183#000000008E006000
(1716195953.580858) can0 185#1313131414141313
(1716195953.619433) can0 50A#637E7EFF00000000
(1716195953.639167) can0 505#08CCFA7413156000
(1716195953.678917) can0 460#00036FCAFFFFC945
(1716195953.679346) can0 501#0861052729281460
(1716195953.679840) can0 462#0013001560001A
(1716195953.680746) can0 463#000036BB
(1716195953.681966) can0 461#01151313
(1716195953.683021) can0 464#000000000000AE41
(1716195953.684407) can0 466#0042070200000000
(1716195953.684636) can0 468#0303
(1716195953.719615) can0 50A#637E7EFF00000000
(1716195953.739414) can0 50C#461A000000000100
(1716195953.739606) can0 506#000002013B005000
(1716195953.779360) can0 501#086104B929281470
(1716195953.819455) can0 50A#637E7EFF00000000
(1716195953.834029) can0 186#1415
(1716195953.839393) can0 50D#0000007E00000000
(1716195953.879448) can0 501#086404BD29281484
(1716195953.919459) can0 50A#637E7EFF00000000
(1716195953.929151) can0 182#E1576000
(1716195953.930369) can0 183#000000008C006000
(1716195953.930944) can0 185#1313131414141313
(1716195953.939463) can0 50F#0000000000000000
(1716195953.979310) can0 460#00036ED1FFFFCE49
(1716195953.979413) can0 501#086404AB2928149B
(1716195953.979966) can0 462#0013001560001A
(1716195953.981135) can0 463#00003033
(1716195953.982058) can0 461#02151314
(1716195953.983303) can0 464#000000000000AE41
(1716195953.984142) can0 466#0042070200000000
(1716195953.984940) can0 468#0303
(1716195954.019393) can0 50A#637E7EFF00000000
(1716195954.079407) can0 501#086304D3292814B4
(1716195954.119592) can0 50A#637E7EFF00000000
(1716195954.179419) can0 501#086804AE292814D1
(1716195954.184185) can0 186#1415
(1716195954.219575) can0 50A#637E7EFF00000000
(1716195954.239119) can0 50C#461A000000000100
(1716195954.279129) can0 501#08680473292814ED
(1716195954.279549) can0 460#00036E2AFFFFD131
(1716195954.280065) can0 462#0013001560001A
(1716195954.280950) can0 463#00002ECF
(1716195954.281952) can0 461#03151414
(1716195954.283148) can0 464#000000000000AE41
(1716195954.284261) can0 466#0042070200000000
(1716195954.284931) can0 468#0303
(1716195954.286295) can0 182#D1576000
(1716195954.287314) can0 183#0000000077006000
(1716195954.288089) can0 185#1313131414141313
(1716195954.319315) can0 50A#637E7EFF00000000
(1716195954.339480) can0 500#000F000001C40000
(1716195954.379293) can0 501#086804B528281512
(1716195954.379405) can0 46A#019000DC
(1716195954.380161) can0 776#006409D8000001E0
(1716195954.419291) can0 50A#637E7EFF00000000
(1716195954.439334) can0 502#0000000000000000
(1716195954.479298) can0 501#086F041128291532
(1716195954.519386) can0 50A#637E7EFF00000000
(1716195954.534228) can0 186#1415
(1716195954.539284) can0 503#0116590671000800
(1716195954.579322) can0 501#087403CF28291552
(1716195954.579474) can0 460#00036D3DFFFFD543
(1716195954.580578) can0 462#0013001560001A
(1716195954.581121) can0 463#00002ABD
(1716195954.582115) can0 461#04151313
(1716195954.583280) can0 464#000000000000AE41
(1716195954.584273) can0 466#0042070200000000
(1716195954.585046) can0 468#0303
(1716195954.619257) can0 50A#637E7EFF00000000
(1716195954.629168) can0 182#B9576000
(1716195954.630652) can0 183#000000006D006000
(1716195954.631287) can0 185#1313131414141313
(1716195954.639078) can0 505#08C5FBBA13156000
(1716195954.679392) can0 501#087503A92829156B
(1716195954.719299) can0 50A#637E7EFF00000000
(1716195954.739075) can0 50C#461A000000000100
(1716195954.739520) can0 506#00000200F5005000
(1716195954.779209) can0 501#0878039C2829158B
(1716195954.819275) can0 50A#637E7EFF00000000
(1716195954.839282) can0 50D#0000007E00000000
(1716195954.879189) can0 501#0879038B282915AD
(1716195954.879454) can0 460#00036C9CFFFFD963
(1716195954.880699) can0 462#0013001560001A
(1716195954.881255) can0 463#0000269D
(1716195954.882561) can0 461#05151415
(1716195954.883750) can0 464#000000000000AE41
(1716195954.884416) can0 466#0042070200000000
(1716195954.885213) can0 468#0303
(1716195954.886503) can0 186#1415
(1716195954.919330) can0 50A#637E7EFF00000000
(1716195954.939338) can0 50F#0000000000000000
(1716195954.979118) can0 501#087E0366282915C8
(1716195954.979291) can0 182#A9576000
(1716195954.980782) can0 183#0000000062006000
(1716195954.981663) can0 185#1313131414141313
(1716195955.019308) can0 50A#637E7EFF00000000
(1716195955.079295) can0 501#08800355282915E6
(1716195955.119263) can0 50A#637E7EFF00000000
(1716195955.179283) can0 501#0881031E28291605
(1716195955.179498) can0 460#00036C4BFFFFDC71
(1716195955.180789) can0 462#0013001560001A
(1716195955.181392) can0 463#0000238F
(1716195955.182698) can0 461#06000000
(1716195955.183542) can0 464#000000000000AE41
(1716195955.184531) can0 466#0042070200000000
(1716195955.185299) can0 468#0303
(1716195955.219721) can0 50A#637E7EFF00000000
(1716195955.234659) can0 186#1415
(1716195955.238998) can0 50C#461A000000000100
(1716195955.278988) can0 501#088303152829161B
(1716195955.319279) can0 50A#637E7EFF00000000
(1716195955.329772) can0 182#94576000
(1716195955.330986) can0 183#000000005B006000
(1716195955.331642) can0 185#1313131414141313
(1716195955.339229) can0 500#000F000001C40000
(1716195955.378943) can0 501#088802E227291632
(1716195955.379535) can0 46A#019000DC
(1716195955.380677) can0 776#006409D8000001E0
(1716195955.419275) can0 50A#637E7EFF00000000
(1716195955.439345) can0 502#0000000000000000
(1716195955.478967) can0 501#088702A42729163C
(1716195955.479824) can0 460#00036B88FFFFDF85
(1716195955.480722) can0 462#0013001560001A
(1716195955.482008) can0 463#0000207B
(1716195955.482503) can0 461#07000000
(1716195955.483736) can0 464#000000000000AE41
(1716195955.484661) can0 466#0042070200000000
(1716195955.485430) can0 468#0303
(1716195955.519264) can0 50A#637E7EFF00000000
(1716195955.539178) can0 503#0116580671000900
(1716195955.579232) can0 501#088B02902729164A
(1716195955.584731) can0 186#1415
(1716195955.619374) can0 50A#637E7EFF00000000
(1716195955.639267) can0 505#08C1FCC113156000
(1716195955.679000) can0 501#088B026C27291656
(1716195955.679658) can0 182#89576000
(1716195955.681132) can0 183#0000000053006000
(1716195955.681713) can0 185#1313131314141313
(1716195955.719633) can0 50A#637E7EFF00000000
(1716195955.739158) can0 50C#461A000000000100
(1716195955.739413) can0 506#00000200BA005000
(1716195955.778923) can0 501#088B025727291659
(1716195955.779792) can0 460#00036B5BFFFFE4B5
(1716195955.780946) can0 462#0013001560001A
(1716195955.781772) can0 463#00001B4B
(1716195955.782652) can0 461#08000000
(1716195955.784048) can0 464#000000000000AE41
(1716195955.784799) can0 466#0042070200000000
(1716195955.786009) can0 468#0303
(1716195955.819228) can0 50A#637E7EFF00000000
(1716195955.839198) can0 50D#0000007E00000000
(1716195955.878912) can0 501#088F023A2729165D
(1716195955.919217) can0 50A#637E7EFF00000000
(1716195955.934656) can0 186#1415
(1716195955.939378) can0 50F#0000000000000000
(1716195955.978992) can0 501#0891022E27291662
(1716195956.018923) can0 50A#637E7EFF00000000
(1716195956.029781) can0 182#7C576000
(1716195956.031218) can0 183#0000000045006000
(1716195956.031875) can0 185#1313131314141313
(1716195956.079181) can0 501#089002062729165E
(1716195956.079937) can0 460#00036ADCFFFFE8A2
(1716195956.081302) can0 462#0013001560001A
(1716195956.082041) can0 463#0000175E
(1716195956.083132) can0 461#09000000
(1716195956.084394) can0 464#000000000000AE41
(1716195956.084888) can0 466#0042070200000000
(1716195956.086042) can0 468#0303
(1716195956.119098) can0 50A#637E7EFF00000000
(1716195956.179173) can0 501#0893020227291657
(1716195956.218880) can0 50A#637E7EFF00000000
(1716195956.238874) can0 50C#461A000000000100
(1716195956.279083) can0 501#089301D72729165C
(1716195956.285226) can0 186#1415
(1716195956.319181) can0 50A#637E7EFF00000000
(1716195956.339121) can0 500#000F000001C40000
(1716195956.379043) can0 501#089601C72729165E
(1716195956.380010) can0 460#00036A5DFFFFEB57
(1716195956.381296) can0 462#0013001560001A
(1716195956.381934) can0 463#000014A9
(1716195956.383234) can0 461#0A000000
(1716195956.384577) can0 464#000000000000AE41
(1716195956.385024) can0 466#0042070200000000
(1716195956.386165) can0 468#0303
(1716195956.387171) can0 46A#019000DC
(1716195956.388256) can0 182#6F576000
(1716195956.389031) can0 183#0000000034006000
(1716195956.390320) can0 185#1313131314141313
(1716195956.391462) can0 776#006409D8000001E0
(1716195956.419171) can0 50A#637E7EFF00000000
(1716195956.439116) can0 502#0000000000000000
(1716195956.479059) can0 501#089701A327291666
(1716195956.518921) can0 50A#637E7EFF00000000
(1716195956.539149) can0 503#01165A0671000900
(1716195956.579143) can0 501#0897017F262A1666
(1716195956.618832) can0 50A#637E7EFF00000000
(1716195956.634912) can0 186#1415
(1716195956.638802) can0 505#08BEFDF013156000
(1716195956.679037) can0 501#089B01B3262A1664
(1716195956.680134) can0 460#00036A5DFFFFEEB1
(1716195956.681086) can0 462#0013001560001A
(1716195956.682182) can0 463#0000114F
(1716195956.683258) can0 461#0B000000
(1716195956.684199) can0 464#000000000000AE41
(1716195956.685130) can0 466#0042070200000000
(1716195956.686369) can0 468#0303
(1716195956.719124) can0 50A#637E7EFF00000000
(1716195956.730079) can0 182#69576000
(1716195956.731609) can0 183#000000002C006000
(1716195956.732120) can0 185#1313131314141313
(1716195956.739063) can0 50C#461A000000000100
(1716195956.739275) can0 506#0000020063005000
(1716195956.778977) can0 501#0898016226291666
(1716195956.819123) can0 50A#637E7EFF00000000
(1716195956.839199) can0 50D#0000007E00000000
(1716195956.879014) can0 501#089C0173262A1666
(1716195956.919097) can0 50A#637E7EFF00000000
(1716195956.939098) can0 50F#0000000000000000
(1716195956.979080) can0 501#089B0154262A1667
(1716195956.980466) can0 460#000369B2FFFFF199
(1716195956.981228) can0 462#0013001560001A
(1716195956.982084) can0 463#00000E67
(1716195956.983102) can0 461#0C000000
(1716195956.984264) can0 464#000000000000AE41
(1716195956.985217) can0 466#0042070200000000
(1716195956.986634) can0 468#0303
(1716195956.987022) can0 186#1415
(1716195957.018759) can0 50A#637E7EFF00000000
(1716195957.079071) can0 501#089B0135262A1671
(1716195957.080387) can0 182#5E576000
(1716195957.081269) can0 183#0000000024006000
(1716195957.082584) can0 185#1313131314141313
(1716195957.118786) can0 50A#637E7EFF00000000
(1716195957.179067) can0 501#089F0155262A1676
(1716195957.218762) can0 50A#637E7EFF00000000
(1716195957.238765) can0 50C#461A000000000100
(1716195957.278956) can0 501#089E0121262A1678
(1716195957.280528) can0 460#000369B2FFFFF389
(1716195957.281295) can0 462#0013001560001A
(1716195957.282385) can0 463#00000C77
(1716195957.283422) can0 461#0D000000
(1716195957.284534) can0 464#000000000000AE41
(1716195957.285323) can0 466#0042070200000000
(1716195957.286494) can0 468#0303
(1716195957.319065) can0 50A#637E7EFF00000000
(1716195957.335144) can0 186#1415
(1716195957.338762) can0 500#000F000001C40000
(1716195957.378925) can0 501#08A0011D262A1677
(1716195957.380457) can0 46A#019000DC
(1716195957.381373) can0 776#006409D8000001E0
(1716195957.419037) can0 50A#637E7EFF00000000
(1716195957.430503) can0 182#57576000
(1716195957.431663) can0 183#000000001F006000
(1716195957.432390) can0 185#1313131314141313
(1716195957.438945) can0 502#0000000000000000
(1716195957.478900) can0 501#08A00126262A1674
(1716195957.519041) can0 50A#637E7EFF00000000
(1716195957.539031) can0 503#0116590671000A00
(1716195957.579022) can0 501#08A20100262A1671
(1716195957.580761) can0 460#0003695BFFFFF552
(1716195957.581421) can0 462#0013001560001A
(1716195957.582314) can0 463#00000AAE
(1716195957.583285) can0 461#0E000000
(1716195957.584655) can0 464#000000000000AE41
(1716195957.585430) can0 466#0042070200000000
(1716195957.586219) can0 468#0303
(1716195957.618732) can0 50A#637E7EFF00000000
(1716195957.639141) can0 505#08BBFEEF13156000
(1716195957.679046) can0 501#08A500FE262A1675
(1716195957.685588) can0 186#1415
(1716195957.718742) can0 50A#637E7EFF00000000
(1716195957.738713) can0 50C#461A000000000100
(1716195957.739136) can0 506#000002003D005000
(1716195957.778910) can0 501#08A300D9252A1678
(1716195957.780611) can0 182#4B576000
(1716195957.781534) can0 183#000000001B006000
(1716195957.782715) can0 185#1313131314141313
(1716195957.819006) can0 50A#637E7EFF00000000
(1716195957.839162) can0 50D#0000007E00000000
(1716195957.878896) can0 501#08A300D2252A167B
(1716195957.880722) can0 460#000368F5FFFFF6D0
(1716195957.881491) can0 462#0013001560001A
(1716195957.882379) can0 463#00000930
(1716195957.883869) can0 461#0F000000
(1716195957.884562) can0 464#000000000000AE41
(1716195957.885649) can0 466#0042070200000000
(1716195957.886828) can0 468#0303
(1716195957.918996) can0 50A#637E7EFF00000000
(1716195957.939194) can0 50F#0000000000000000
(1716195957.978895) can0 501#08A700EA252A1678
(1716195958.018986) can0 50A#637E7EFF00000000
(1716195958.035701) can0 186#1415
(1716195958.078952) can0 501#08A600C1252A1679
(1716195958.118853) can0 50A#637E7EFF00000000
(1716195958.130696) can0 182#4B576000
(1716195958.131808) can0 183#0000000017006000
(1716195958.132588) can0 185#1313131314141313
(1716195958.178942) can0 501#08A500A3252A1680
(1716195958.180941) can0 460#000368F5FFFFF79B
(1716195958.182075) can0 462#0013001560001A
(1716195958.182491) can0 463#00000865
(1716195958.183811) can0 461#01151313
(1716195958.184970) can0 464#000000000000AE41
(1716195958.186107) can0 466#0042070200000000
(1716195958.186431) can0 468#0303
(1716195958.219031) can0 50A#5F7E7EFF00000000
(1716195958.238660) can0 50C#461A000000000100
(1716195958.278870) can0 501#08A50067252A1673
(1716195958.318951) can0 50A#517E7EFF00000000
(1716195958.339149) can0 500#000F000001C40000
(1716195958.378852) can0 501#08950037252A1656
(1716195958.380747) can0 46A#019000DC
(1716195958.381955) can0 776#006409D8000001E0
(1716195958.385495) can0 186#1415
(1716195958.418950) can0 50A#367E7EFF00000000
(1716195958.438740) can0 502#0000000000000000
