(1716196015.598819) can0 501#07EF06981A220B25
(1716196015.638980) can0 50A#627E7EFF00000000
(1716196015.658907) can0 50F#0000000000000000
(1716196015.698810) can0 501#07ED068C1B220AAE
(1716196015.738964) can0 50A#627E7EFF00000000
(1716196015.798937) can0 501#07EB06901B220A1E
(1716196015.806349) can0 460#00038506FFFFE7A4
(1716196015.807015) can0 462#0013001560001A
(1716196015.808184) can0 463#0000185C
(1716196015.808871) can0 461#0D000000
(1716196015.810041) can0 464#000000000000AE41
(1716196015.811558) can0 466#0042070200000000
(1716196015.811807) can0 468#0303
(1716196015.812791) can0 186#1415
(1716196015.838977) can0 50A#637E7EFF00000000
(1716196015.898929) can0 501#07E906891B220974
(1716196015.906264) can0 182#1A5A6000
(1716196015.907503) can0 183#000000003E006000
(1716196015.908061) can0 185#1313131414141313
(1716196015.938913) can0 50A#637E7EFF00000000
(1716196015.958638) can0 50C#461A000000000100
(1716196015.998810) can0 501#07E6067F1B2208B6
(1716196016.038802) can0 50A#637E7EFF00000000
(1716196016.058876) can0 500#000F000001C40000
(1716196016.098626) can0 501#07E6067F1C220818
(1716196016.106499) can0 460#000384E6FFFFEB11
(1716196016.107167) can0 462#0013001560001A
(1716196016.108326) can0 463#000014EF
(1716196016.109030) can0 461#0E000000
(1716196016.110511) can0 464#000000000000AE41
(1716196016.111638) can0 466#0042070200000000
(1716196016.111979) can0 468#0303
(1716196016.138927) can0 50A#637E7EFF00000000
(1716196016.158643) can0 502#c000000000000000
(1716196016.161119) can0 186#1415
(1716196016.198616) can0 501#07E606811C220782
(1716196016.238924) can0 50A#637E7EFF00000000
(1716196016.256357) can0 182#135A6000
(1716196016.257304) can0 183#0000000035006000
(1716196016.258306) can0 185#1313131414141313
(1716196016.258684) can0 503#0116590671002200
(1716196016.298595) can0 501#07E606871C2206F4
(1716196016.338916) can0 50A#637E7EFF00000000
(1716196016.358896) can0 505#0902FDE913156000
(1716196016.398883) can0 501#07E6068C1C220675
(1716196016.406635) can0 460#000384B4FFFFEE71
(1716196016.407294) can0 462#0013001560001A
(1716196016.408465) can0 463#0000118F
(1716196016.409198) can0 461#0F000000
(1716196016.410331) can0 464#000000000000AE41
(1716196016.411651) can0 466#0042070200000000
(1716196016.412134) can0 468#0303
(1716196016.413584) can0 46A#019000DC
(1716196016.414445) can0 776#006409D8000001E0
(1716196016.439324) can0 50A#637E7EFF00000000
(1716196016.458589) can0 50C#461A000000000100
(1716196016.459059) can0 506#0000020067EA5F00
(1716196016.498891) can0 501#07E606871D220602
(1716196016.511410) can0 186#1415
(1716196016.538884) can0 50A#637E7EFF00000000
(1716196016.559130) can0 50D#0000007800000000
(1716196016.598579) can0 501#07E506831D22059C
(1716196016.606600) can0 182#125A6000
(1716196016.607855) can0 183#000000002C006000
(1716196016.608399) can0 185#1313131414141313
(1716196016.638873) can0 50A#637E7EFF00000000
(1716196016.658771) can0 50F#0000000000000000
(1716196016.698562) can0 501#07E806791D22053F
(1716196016.706781) can0 460#000384B4FFFFF0DA
(1716196016.707924) can0 462#0013001560001A
(1716196016.708313) can0 463#00000F26
(1716196016.709302) can0 461#01151313
(1716196016.710495) can0 464#000000000000AE41
(1716196016.711667) can0 466#0042070200000000
(1716196016.712265) can0 468#0303
(1716196016.738866) can0 50A#637E7EFF00000000
(1716196016.798573) can0 501#07E8067A1D2204ED
(1716196016.838731) can0 50A#637E7EFF00000000
(1716196016.861477) can0 186#1415
(1716196016.898762) can0 501#07E5067F1E2204A2
(1716196016.938859) can0 50A#637E7EFF00000000
(1716196016.956481) can0 182#0D5A6000
(1716196016.957805) can0 183#0000000026006000
(1716196016.958608) can0 50C#461A000000000100
(1716196016.959008) can0 185#1313131414141313
(1716196016.998917) can0 501#07E6067A1E220460
(1716196017.006645) can0 460#00038483FFFFF21E
(1716196017.007888) can0 462#0013001560001A
(1716196017.009032) can0 463#00000DE2
(1716196017.009439) can0 461#02151314
(1716196017.010948) can0 464#000000000000AE41
(1716196017.012105) can0 466#0042070200000000
(1716196017.012389) can0 468#0303
(1716196017.038848) can0 50A#637E7EFF00000000
(1716196017.058780) can0 500#000F000001C40000
(1716196017.098698) can0 501#07E7067A1E220425
(1716196017.138853) can0 50A#637E7EFF00000000
(1716196017.158845) can0 502#c000000000000000
(1716196017.198818) can0 501#07E6067A1E2203F0
(1716196017.211825) can0 186#1415
(1716196017.238512) can0 50A#637E7EFF00000000
(1716196017.258518) can0 503#0116570671003000
(1716196017.298727) can0 501#07E706721E2203C2
(1716196017.307094) can0 460#00038478FFFFF34F
(1716196017.307721) can0 462#0013001560001A
(1716196017.308942) can0 463#00000CB1
(1716196017.309635) can0 461#03151414
(1716196017.311087) can0 464#000000000000AE41
(1716196017.312231) can0 466#0042070200000000
(1716196017.312543) can0 468#0303
(1716196017.314046) can0 182#0C5A6000
(1716196017.315201) can0 183#0000000020006000
(1716196017.315811) can0 185#1313131414141313
(1716196017.338815) can0 50A#637E7EFF00000000
(1716196017.358536) can0 505#0901FEBC13156000
(1716196017.398670) can0 501#07E706771F220399
(1716196017.406969) can0 46A#019000DC
(1716196017.408122) can0 776#006409D8000001E0
(1716196017.438796) can0 50A#637E7EFF00000000
(1716196017.458798) can0 50C#461A000000000100
(1716196017.458964) can0 506#000002004AEA5F00
(1716196017.498731) can0 501#07E7067C1F220375
(1716196017.538507) can0 50A#637E7EFF00000000
(1716196017.558816) can0 50D#0000007800000000
(1716196017.561689) can0 186#1415
(1716196017.598781) can0 501#07E706691F220355
(1716196017.607205) can0 460#00038470FFFFF401
(1716196017.607907) can0 462#0013001560001A
(1716196017.608734) can0 463#00000BFF
(1716196017.609724) can0 461#04151313
(1716196017.611267) can0 464#000000000000AE41
(1716196017.612419) can0 466#0042070200000000
(1716196017.612662) can0 468#0303
(1716196017.638485) can0 50A#637E7EFF00000000
(1716196017.657082) can0 182#085A6000
(1716196017.657957) can0 183#000000001E006000
(1716196017.658476) can0 50F#0000000000000000
(1716196017.658932) can0 185#1313131414141313
(1716196017.698707) can0 501#07E7067B1F220339
(1716196017.738782) can0 50A#637E7EFF00000000
(1716196017.798770) can0 501#07E706771F23031F
(1716196017.838456) can0 50A#637E7EFF00000000
(1716196017.898760) can0 501#07E7066F20220309
(1716196017.907323) can0 460#00038448FFFFF4A0
(1716196017.908550) can0 462#0013001560001A
(1716196017.908860) can0 463#00000B60
(1716196017.910125) can0 461#05151415
(1716196017.911174) can0 464#000000000000AE41
(1716196017.912425) can0 466#0042070200000000
(1716196017.912786) can0 468#0303
(1716196017.914206) can0 186#1415
(1716196017.938470) can0 50A#637E7EFF00000000
(1716196017.958469) can0 50C#461A000000000100
(1716196017.998687) can0 501#07E70677202302F4
(1716196018.007264) can0 182#075A6000
(1716196018.008474) can0 183#000000001D006000
(1716196018.009053) can0 185#1313131414141313
(1716196018.038758) can0 50A#637E7EFF00000000
(1716196018.058696) can0 500#000F000001C40000
(1716196018.098755) can0 501#07E70672202302E0
(1716196018.138746) can0 50A#637E7EFF00000000
(1716196018.159185) can0 502#c000000000000000
(1716196018.198662) can0 501#07E70674202302D0
(1716196018.207184) can0 460#00038448FFFFF52C
(1716196018.208121) can0 462#0013001560001A
(1716196018.209000) can0 463#00000AD4
(1716196018.210011) can0 461#06000000
(1716196018.211159) can0 464#000000000000AE41
(1716196018.212350) can0 466#0042070200000000
(1716196018.212937) can0 468#0303
(1716196018.238447) can0 50A#637E7EFF00000000
(1716196018.258732) can0 503#0116590671003800
(1716196018.262278) can0 186#1415
(1716196018.298444) can0 501#07E70673202302C0
(1716196018.338735) can0 50A#637E7EFF00000000
(1716196018.357394) can0 182#065A6000
(1716196018.358562) can0 183#000000001B006000
(1716196018.358666) can0 505#0900FEEB13156000
(1716196018.359695) can0 185#1313131414141313
(1716196018.398719) can0 501#07E80678202302B2
(1716196018.407383) can0 46A#019000DC
(1716196018.408578) can0 776#006409D8000001E0
(1716196018.438413) can0 50A#637E7EFF00000000
(1716196018.458428) can0 50C#461A000000000100
(1716196018.458916) can0 506#000002003FEA5F00
(1716196018.498506) can0 501#07E70689212302A5
(1716196018.507612) can0 460#00038421FFFFF592
(1716196018.508271) can0 462#0013001560001A
(1716196018.509163) can0 463#00000A6E
(1716196018.510460) can0 461#07000000
(1716196018.511613) can0 464#000000000000AE41
(1716196018.512279) can0 466#0042070200000000
(1716196018.513068) can0 468#0303
(1716196018.538711) can0 50A#637E7EFF00000000
(1716196018.558816) can0 50D#0000007800000000
(1716196018.598620) can0 501#07E8067821230298
(1716196018.612456) can0 186#1415
(1716196018.638708) can0 50A#637E7EFF00000000
(1716196018.659079) can0 50F#0000000000000000
(1716196018.698601) can0 501#07E706742123028B
(1716196018.707578) can0 182#035A6000
(1716196018.708412) can0 183#000000001A006000
(1716196018.709350) can0 185#1313131414141313
(1716196018.738684) can0 50A#637E7EFF00000000
(1716196018.798678) can0 501#07E7067521230281
(1716196018.807750) can0 460#00038421FFFFF5D8
(1716196018.808404) can0 462#0013001560001A
(1716196018.809278) can0 463#00000A28
(1716196018.810631) can0 461#08000000
(1716196018.811887) can0 464#000000000000AE41
(1716196018.812431) can0 466#0042070200000000
(1716196018.813229) can0 468#0303
(1716196018.838424) can0 50A#637E7EFF00000000
(1716196018.898550) can0 501#07E7067121230276
(1716196018.938403) can0 50A#637E7EFF00000000
(1716196018.958374) can0 50C#461A000000000100
(1716196018.962374) can0 186#1415
(1716196018.998573) can0 501#07E706742123026D
(1716196019.038660) can0 50A#637E7EFF00000000
(1716196019.057443) can0 182#025A6000
(1716196019.058329) can0 500#000F000001C40000
(1716196019.059121) can0 183#000000001A006000
(1716196019.059534) can0 185#1313131414141313
(1716196019.098576) can0 501#07E7067621230266
(1716196019.107916) can0 460#000383FFFFFFF60B
(1716196019.109129) can0 462#0013001560001A
(1716196019.109447) can0 463#000009F5
(1716196019.110753) can0 461#09000000
(1716196019.111947) can0 464#000000000000AE41
(1716196019.112569) can0 466#0042070200000000
(1716196019.113363) can0 468#0303
(1716196019.138658) can0 50A#637E7EFF00000000
(1716196019.158358) can0 502#c000000000000000
(1716196019.198557) can0 501#07E7066B2223025D
(1716196019.238641) can0 50A#637E7EFF00000000
(1716196019.258652) can0 503#01165A0671003C00
(1716196019.298622) can0 501#07E8067122230256
(1716196019.312776) can0 186#1415
(1716196019.338557) can0 50A#637E7EFF00000000
(1716196019.358358) can0 505#08FFFF0213156000
(1716196019.398838) can0 501#07E7067022230250
(1716196019.408039) can0 460#000383F7FFFFF644
(1716196019.409289) can0 462#0013001560001A
(1716196019.409557) can0 463#000009BC
(1716196019.410892) can0 461#0A000000
(1716196019.412060) can0 464#000000000000AE41
(1716196019.413282) can0 466#0042070200000000
(1716196019.413500) can0 468#0303
(1716196019.414891) can0 46A#019000DC
(1716196019.416055) can0 182#FF596000
(1716196019.417222) can0 183#0000000018006000
(1716196019.417693) can0 185#1313131414141313
(1716196019.419131) can0 776#006409D8000001E0
(1716196019.438629) can0 50A#637E7EFF00000000
(1716196019.458323) can0 50C#461A000000000100
(1716196019.459002) can0 506#0000020039EA5F00
(1716196019.498541) can0 501#07E8066C2223024F
(1716196019.538607) can0 50A#637E7EFF00000000
(1716196019.558320) can0 50D#0000007800000000
(1716196019.598549) can0 501#07E806732223024F
(1716196019.638613) can0 50A#637E7EFF00000000
(1716196019.658606) can0 50F#0000000000000000
(1716196019.662948) can0 186#1415
(1716196019.698593) can0 501#07E7067222230254
(1716196019.708211) can0 460#000383EEFFFFF5EB
(1716196019.708866) can0 462#0013001560001A
(1716196019.709726) can0 463#00000A15
(1716196019.710712) can0 461#0B000000
(1716196019.712199) can0 464#000000000000AE41
(1716196019.713378) can0 466#0042070200000000
(1716196019.713657) can0 468#0303
(1716196019.738484) can0 50A#637E7EFF00000000
(1716196019.757811) can0 182#FE596000
(1716196019.758916) can0 183#0000000019006000
(1716196019.759880) can0 185#1313131414141313
(1716196019.798418) can0 501#07E7067322230259
(1716196019.838584) can0 50A#637E7EFF00000000
(1716196019.898581) can0 501#07E7067022230260
(1716196019.938465) can0 50A#637E7EFF00000000
(1716196019.958292) can0 50C#461A000000000100
(1716196019.998295) can0 501#07E7065E2323026B
(1716196020.008058) can0 460#000383D0FFFFF57F
(1716196020.008975) can0 462#0013001560001A
(1716196020.009997) can0 463#00000A81
(1716196020.010947) can0 461#0C000000
(1716196020.012234) can0 464#000000000000AE41
(1716196020.013051) can0 466#0042070200000000
(1716196020.013928) can0 468#0303
(1716196020.015153) can0 186#1415
(1716196020.038449) can0 50A#637E7EFF00000000
(1716196020.058274) can0 500#000F000001C40000
(1716196020.098529) can0 501#07E6065C2323027E
(1716196020.108250) can0 182#FB596000
(1716196020.109128) can0 183#000000001A006000
(1716196020.110366) can0 185#1313131414141313
(1716196020.138755) can0 50A#637E7EFF00000000
(1716196020.158496) can0 502#c000000000000000
(1716196020.198535) can0 501#07E7065F2324029A
(1716196020.238564) can0 50A#637E7EFF00000000
(1716196020.258547) can0 503#0116590671002700
(1716196020.298529) can0 501#07E80655232402C4
(1716196020.308501) can0 460#000383D0FFFFF48D
(1716196020.309135) can0 462#0013001560001A
(1716196020.310315) can0 463#00000B73
(1716196020.311071) can0 461#0D000000
(1716196020.312515) can0 464#000000000000AE41
(1716196020.313205) can0 466#0042070200000000
(1716196020.314273) can0 468#0303
(1716196020.338470) can0 50A#637E7EFF00000000
(1716196020.358226) can0 505#08FFFEDB13156000
(1716196020.362986) can0 186#1415
(1716196020.398463) can0 501#07E7066B232402F6
(1716196020.408414) can0 46A#019000DC
(1716196020.409247) can0 776#006409D8000001E0
(1716196020.438255) can0 50A#637E7EFF00000000
(1716196020.458254) can0 50C#461A000000000100
(1716196020.458577) can0 182#F9596000
(1716196020.459037) can0 506#0000020043EA5F00
(1716196020.459520) can0 183#000000001D006000
(1716196020.460570) can0 185#1313131414141313
(1716196020.498597) can0 501#07E506632324032B
(1716196020.538235) can0 50A#637E7EFF00000000
(1716196020.558481) can0 50D#0000007800000000
(1716196020.598534) can0 501#07E5066323240367
(1716196020.608350) can0 460#000383AAFFFFF186
(1716196020.609255) can0 462#0013001560001A
(1716196020.610162) can0 463#00000E7A
(1716196020.611376) can0 461#0E000000
(1716196020.612428) can0 464#000000000000AE41
(1716196020.613314) can0 466#0042070200000000
(1716196020.614105) can0 468#0303
(1716196020.638252) can0 50A#637E7EFF00000000
(1716196020.658546) can0 50F#0000000000000000
(1716196020.698510) can0 501#07E60667232403A5
(1716196020.713213) can0 186#1415
(1716196020.738442) can0 50A#637E7EFF00000000
(1716196020.798197) can0 501#07E6066C232403EA
(1716196020.808609) can0 182#F6596000
(1716196020.809477) can0 183#0000000025006000
(1716196020.810387) can0 185#1313131414141313
(1716196020.838237) can0 50A#637E7EFF00000000
(1716196020.898513) can0 501#07E6066124240434
(1716196020.908803) can0 460#0003839FFFFFEFC2
(1716196020.909439) can0 462#0013001560001A
(1716196020.910631) can0 463#0000103E
(1716196020.911337) can0 461#0F000000
(1716196020.912799) can0 464#000000000000AE41
(1716196020.913533) can0 466#0042070200000000
(1716196020.914754) can0 468#0303
(1716196020.938228) can0 50A#637E7EFF00000000
(1716196020.958242) can0 50C#461A000000000100
(1716196020.998467) can0 501#07E606702424047B
(1716196021.038209) can0 50A#637E7EFF00000000
(1716196021.058230) can0 500#000F000001C40000
(1716196021.063345) can0 186#1415
(1716196021.098421) can0 501#07E10675242404C2
(1716196021.138264) can0 50A#637E7EFF00000000
(1716196021.158588) can0 502#c000000000000000
(1716196021.158607) can0 182#F3596000
(1716196021.159604) can0 183#0000000029006000
(1716196021.160557) can0 185#1313131414141313
(1716196021.198483) can0 501#07E1067224240505
(1716196021.208668) can0 460#00038383FFFFEDF2
(1716196021.209580) can0 462#0013001560001A
(1716196021.210469) can0 463#000012CC
(1716196021.211443) can0 461#01151313
(1716196021.213620) can0 464#000000000000AE41
(1716196021.213644) can0 466#0042070200000000
(1716196021.214679) can0 468#0303
(1716196021.238426) can0 50A#637E7EFF00000000
(1716196021.258507) can0 503#0116580671001C00
(1716196021.298461) can0 501#07E706742424053C
(1716196021.338458) can0 50A#637E7EFF00000000
(1716196021.358471) can0 505#08FEFE3213156000
(1716196021.398448) can0 501#07E6066B24240570
(1716196021.408922) can0 46A#019000DC
(1716196021.409743) can0 776#006409D8000001E0
(1716196021.413572) can0 186#1415
(1716196021.438363) can0 50A#637E7EFF00000000
(1716196021.458195) can0 50C#461A000000000100
(1716196021.458622) can0 506#000002006AEA5F00
(1716196021.498481) can0 501#07E70670242405A0
(1716196021.509151) can0 460#00038358FFFFEC48
(1716196021.509831) can0 462#0013001560001A
(1716196021.511178) can0 463#000013B8
(1716196021.511611) can0 461#02151314
(1716196021.513140) can0 464#000000000000AE41
(1716196021.514318) can0 466#0042070200000000
(1716196021.514546) can0 468#0303
(1716196021.515957) can0 182#EF596000
(1716196021.517140) can0 183#0000000032006000
(1716196021.517759) can0 185#1313131414141313
(1716196021.538367) can0 50A#637E7EFF00000000
(1716196021.558298) can0 50D#0000007800000000
(1716196021.598552) can0 501#07E60666242405CA
(1716196021.638533) can0 50A#637E7EFF00000000
(1716196021.658227) can0 50F#0000000000000000
(1716196021.698407) can0 501#07E6066D242405F0
(1716196021.738321) can0 50A#637E7EFF00000000
(1716196021.764024) can0 186#1415
(1716196021.798079) can0 501#07E6067424240613
(1716196021.808993) can0 460#00038337FFFFEB57
(1716196021.809925) can0 462#0013001560001A
(1716196021.810821) can0 463#000014A9
(1716196021.812021) can0 461#03151414
(1716196021.813005) can0 464#000000000000AE41
(1716196021.814392) can0 466#0042070200000000
(1716196021.814735) can0 468#0303
(1716196021.838342) can0 50A#637E7EFF00000000
(1716196021.859158) can0 182#EB596000
(1716196021.859980) can0 183#0000000034006000
(1716196021.860949) can0 185#1313131414141313
(1716196021.898403) can0 501#07E7066824240633
(1716196021.938294) can0 50A#637E7EFF00000000
(1716196021.958109) can0 50C#461A000000000100
(1716196021.998357) can0 501#07E6067925240651
(1716196022.038220) can0 50A#637E7EFF00000000
(1716196022.058517) can0 500#000F000001C40000
(1716196022.098355) can0 501#07E706682524066C
(1716196022.109433) can0 460#00038306FFFFEAAB
(1716196022.110070) can0 462#0013001560001A
(1716196022.111237) can0 463#00001555
(1716196022.111961) can0 461#04151313
(1716196022.113125) can0 464#000000000000AE41
(1716196022.114103) can0 466#0042070200000000
(1716196022.114875) can0 468#0303
(1716196022.116091) can0 186#1415
(1716196022.138339) can0 50A#637E7EFF00000000
(1716196022.158180) can0 502#c000000000000000
(1716196022.198349) can0 501#07E7067825250683
(1716196022.209039) can0 182#E7596000
(1716196022.210168) can0 183#0000000036006000
(1716196022.211126) can0 185#1313131414141313
(1716196022.238085) can0 50A#637E7EFF00000000
(1716196022.258400) can0 503#0116570671001900
(1716196022.298068) can0 501#07E7066F2525069A
(1716196022.338384) can0 50A#637E7EFF00000000
(1716196022.358360) can0 505#08FDFDDE13156000
(1716196022.398349) can0 501#07E70673252506AD
(1716196022.409345) can0 460#00038306FFFFEA45
(1716196022.410328) can0 462#0013001560001A
(1716196022.411139) can0 463#000015BB
(1716196022.412386) can0 461#05151415
(1716196022.413294) can0 464#000000000000AE41
(1716196022.414664) can0 466#0042070200000000
(1716196022.415039) can0 468#0303
(1716196022.416113) can0 46A#019000DC
(1716196022.417254) can0 776#006409D8000001E0
(1716196022.438287) can0 50A#637E7EFF00000000
(1716196022.458097) can0 50C#461A000000000100
(1716196022.458539) can0 506#000002007FEA5F00
(1716196022.464474) can0 186#1415
(1716196022.498558) can0 501#07E70673252506BF
(1716196022.538058) can0 50A#637E7EFF00000000
(1716196022.558080) can0 50D#0000007800000000
(1716196022.559191) can0 182#E3596000
(1716196022.560350) can0 183#0000000037006000
(1716196022.561298) can0 185#1313131414141313
(1716196022.598195) can0 501#07E7066E252506D0
(1716196022.638264) can0 50A#637E7EFF00000000
(1716196022.658105) can0 50F#0000000000000000
(1716196022.698342) can0 501#07E7065C252506E4
(1716196022.709464) can0 460#000382C1FFFFE9E0
(1716196022.710375) can0 462#0013001560001A
(1716196022.711264) can0 463#00001620
(1716196022.712275) can0 461#06000000
(1716196022.713415) can0 464#000000000000AE41
(1716196022.714609) can0 466#0042070200000000
(1716196022.715661) can0 468#0303
(1716196022.738345) can0 50A#637E7EFF00000000
(1716196022.798200) can0 501#07EE063325250718
(1716196022.814569) can0 186#1415
(1716196022.838249) can0 50A#637E7EFF00000000
(1716196022.898038) can0 501#07F1066E25250756
(1716196022.909379) can0 182#DE596000
(1716196022.910596) can0 183#0000000038006000
(1716196022.911809) can0 185#1313131414141313
(1716196022.938309) can0 50A#637E7EFF00000000
(1716196022.958017) can0 50C#461A000000000100
(1716196022.998600) can0 501#07F206662525079C
(1716196023.009735) can0 460#000382AEFFFFE87C
(1716196023.011079) can0 462#0013001560001A
(1716196023.011412) can0 463#00001784
(1716196023.012706) can0 461#07000000
(1716196023.013699) can0 464#000000000000AE41
(1716196023.014977) can0 466#0042070200000000
(1716196023.015340) can0 468#0303
(1716196023.038245) can0 50A#637E7EFF00000000
(1716196023.058246) can0 500#000F000001C40000
(1716196023.098312) can0 501#07F4067D262507E9
(1716196023.138311) can0 50A#637E7EFF00000000
(1716196023.158013) can0 502#c000000000000000
(1716196023.164743) can0 186#1415
(1716196023.198290) can0 501#07FD063E26250848
(1716196023.238210) can0 50A#637E7EFF00000000
(1716196023.257974) can0 503#0116590671001000
(1716196023.259978) can0 182#D6596000
(1716196023.261127) can0 183#000000003C006000
(1716196023.261785) can0 185#1313131414141313
(1716196023.297963) can0 501#0802063C262508BB
(1716196023.310043) can0 460#00038264FFFFE332
(1716196023.311188) can0 462#0013001560001A
(1716196023.311564) can0 463#00001CCE
(1716196023.312915) can0 461#08000000
(1716196023.314120) can0 464#000000000000AE41
(1716196023.315287) can0 466#0042070200000000
(1716196023.315513) can0 468#0303
(1716196023.338208) can0 50A#637E7EFF00000000
(1716196023.357959) can0 505#08FBFD1F13156000
(1716196023.397952) can0 501#0807066126250938
(1716196023.409667) can0 46A#019000DC
(1716196023.410776) can0 776#006409D8000001E0
(1716196023.438200) can0 50A#637E7EFF00000000
(1716196023.458198) can0 50C#461A000000000100
(1716196023.458474) can0 506#00000200A9EA5F00
(1716196023.498262) can0 501#080A0652262509BE
(1716196023.514651) can0 186#1415
(1716196023.538266) can0 50A#637E7EFF00000000
(1716196023.558026) can0 50D#0000007800000000
(1716196023.598280) can0 501#080B065826250A40
(1716196023.609915) can0 460#00038237FFFFDEFF
(1716196023.610844) can0 462#0013001560001A
(1716196023.611761) can0 463#00002101
(1716196023.612766) can0 461#09000000
(1716196023.614024) can0 464#000000000000AE41
(1716196023.615068) can0 466#0042070200000000
(1716196023.615684) can0 468#0303
(1716196023.616769) can0 182#D2596000
(1716196023.618156) can0 183#0000000054006000
(1716196023.619039) can0 185#1313131414141313
(1716196023.637944) can0 50A#637E7EFF00000000
(1716196023.658190) can0 50F#0000000000000000
(1716196023.698258) can0 501#080F067426250AC6
(1716196023.738262) can0 50A#637E7EFF00000000
(1716196023.797954) can0 501#0810067426260B29
(1716196023.838174) can0 50A#637E7EFF00000000
(1716196023.864838) can0 186#1415
(1716196023.897914) can0 501#0811067226260B85
(1716196023.910058) can0 460#00038237FFFFDD2F
(1716196023.911298) can0 462#0013001560001A
(1716196023.911888) can0 463#000022D1
(1716196023.913188) can0 461#0A000000
(1716196023.914357) can0 464#000000000000AE41
(1716196023.915519) can0 466#0042070200000000
(1716196023.915792) can0 468#0303
(1716196023.938150) can0 50A#637E7EFF00000000
(1716196023.958119) can0 50C#461A000000000100
(1716196023.960161) can0 182#C9596000
(1716196023.961045) can0 183#0000000059006000
(1716196023.962279) can0 185#1313131414141313
(1716196023.997915) can0 501#0812067826260BDC
(1716196024.038261) can0 50A#637E7EFF00000000
(1716196024.058174) can0 500#000F000001C40000
(1716196024.098242) can0 501#0813067B26260C2B
(1716196024.138282) can0 50A#637E7EFF00000000
(1716196024.158305) can0 502#c000000000000000
(1716196024.198224) can0 501#0814067826260C6B
(1716196024.210487) can0 460#0003819DFFFFDBD8
(1716196024.211097) can0 462#0013001560001A
(1716196024.212292) can0 463#0000244E
(1716196024.213031) can0 461#0B000000
(1716196024.214493) can0 464#000000000000AE41
(1716196024.215128) can0 466#0042070200000000
(1716196024.216303) can0 468#0303
(1716196024.217009) can0 186#1415
(1716196024.238124) can0 50A#637E7EFF00000000
(1716196024.257914) can0 503#01165A0671000D00
(1716196024.297866) can0 501#0815066A26260C97
(1716196024.310067) can0 182#C2596000
(1716196024.311203) can0 183#000000005C006000
(1716196024.312158) can0 185#1313131414141314
(1716196024.338139) can0 50A#637E7EFF00000000
(1716196024.358067) can0 505#08F9FC6313156000
(1716196024.398094) can0 501#0815066926260CB7
(1716196024.410360) can0 46A#019000DC
(1716196024.411595) can0 776#006409D8000001E0
(1716196024.438304) can0 50A#637E7EFF00000000
(1716196024.458179) can0 50C#461A000000000100
(1716196024.458362) can0 506#00000200D4EA5F00
(1716196024.498176) can0 501#0814067826260CCF
(1716196024.510433) can0 460#0003819DFFFFDB0D
(1716196024.511213) can0 462#0013001560001A
(1716196024.512679) can0 463#000024F3
(1716196024.513124) can0 461#0C000000
(1716196024.514246) can0 464#000000000000AE41
(1716196024.515416) can0 466#0042070200000000
(1716196024.516496) can0 468#0303
(1716196024.537881) can0 50A#637E7EFF00000000
(1716196024.557939) can0 50D#0000007800000000
(1716196024.565382) can0 186#1415
(1716196024.598215) can0 501#0817067627260CE9
(1716196024.638100) can0 50A#637E7EFF00000000
(1716196024.657876) can0 50F#0000000000000000
(1716196024.660603) can0 182#B8596000
(1716196024.661336) can0 183#000000005E006000
(1716196024.662806) can0 185#1313131414141314
(1716196024.697870) can0 501#0817066927260CFD
(1716196024.738105) can0 50A#637E7EFF00000000
(1716196024.797850) can0 501#0816066D27260D10
(1716196024.810452) can0 460#000380F7FFFFDABA
(1716196024.811498) can0 462#0013001560001A
(1716196024.812325) can0 463#00002546
(1716196024.813327) can0 461#0D000000
(1716196024.814679) can0 464#000000000000AE41
(1716196024.815479) can0 466#0042070200000000
(1716196024.816468) can0 468#0303
(1716196024.838101) can0 50A#637E7EFF00000000
(1716196024.898137) can0 501#0817067A27260D1D
(1716196024.915539) can0 186#1415
(1716196024.938027) can0 50A#637E7EFF00000000
(1716196024.957861) can0 50C#461A000000000100
(1716196024.997822) can0 501#0817066927260D29
(1716196025.010531) can0 182#B2596000
(1716196025.011502) can0 183#000000005F006000
(1716196025.012758) can0 185#1313131414141314
(1716196025.038094) can0 50A#637E7EFF00000000
(1716196025.057940) can0 500#000F000001C40000
(1716196025.098048) can0 501#0816067327260D33
(1716196025.110638) can0 460#000380F7FFFFDA8D
(1716196025.111846) can0 462#0013001560001A
(1716196025.112354) can0 463#00002573
(1716196025.113368) can0 461#0E000000
(1716196025.114530) can0 464#000000000000AE41
(1716196025.115494) can0 466#0042070200000000
(1716196025.116300) can0 468#0303
(1716196025.138113) can0 50A#637E7EFF00000000
(1716196025.158078) can0 502#c000000000000000
(1716196025.197884) can0 501#0817067627260D3B
(1716196025.238126) can0 50A#637E7EFF00000000
(1716196025.257988) can0 503#0116580671000D00
(1716196025.265583) can0 186#1415
(1716196025.297826) can0 501#0816066527270D40
(1716196025.338078) can0 50A#637E7EFF00000000
(1716196025.358111) can0 505#08F8FC4213156000
(1716196025.360792) can0 182#A5596000
(1716196025.361709) can0 183#000000005F006000
(1716196025.362695) can0 185#1313131414141314
(1716196025.398294) can0 501#0817067D27270D42
(1716196025.410950) can0 460#00038077FFFFDA74
(1716196025.411619) can0 462#0013001560001A
(1716196025.412515) can0 463#0000258C
(1716196025.413512) can0 461#0F000000
(1716196025.415031) can0 464#000000000000AE41
(1716196025.415744) can0 466#0042070200000000
(1716196025.416418) can0 468#0303
(1716196025.417470) can0 46A#019000DC
(1716196025.418632) can0 776#006409D8000001E0
(1716196025.437895) can0 50A#637E7EFF00000000
(1716196025.457805) can0 50C#461A000000000100
(1716196025.458251) can0 506#00000200DCEA5F00
(1716196025.497807) can0 501#0816067A27260D47
(1716196025.538027) can0 50A#637E7EFF00000000
(1716196025.557820) can0 50D#0000007800000000
(1716196025.597845) can0 501#0816066F27270D4A
(1716196025.615509) can0 186#1415
(1716196025.638100) can0 50A#637E7EFF00000000
(1716196025.657956) can0 50F#0000000000000000
(1716196025.697772) can0 501#0816068527270D4D
(1716196025.711024) can0 460#00038057FFFFDA5B
(1716196025.711813) can0 462#0013001560001A
(1716196025.712616) can0 463#000025A5
(1716196025.713738) can0 461#01151313
(1716196025.714969) can0 464#000000000000AE41
(1716196025.715761) can0 466#0042070200000000
(1716196025.716546) can0 468#0303
(1716196025.717728) can0 182#A2596000
(1716196025.718886) can0 183#0000000060006000
(1716196025.719819) can0 185#1313131414141314
(1716196025.737787) can0 50A#637E7EFF00000000
(1716196025.797783) can0 501#0816066927270D50
(1716196025.837814) can0 50A#637E7EFF00000000
(1716196025.897857) can0 501#0817067927270D54
(1716196025.938040) can0 50A#637E7EFF00000000
(1716196025.957773) can0 50C#461A000000000100
(1716196025.965730) can0 186#1415
(1716196025.997857) can0 501#0815066D28270D56
(1716196026.011106) can0 460#00038057FFFFDA54
(1716196026.011867) can0 462#0013001560001A
(1716196026.012739) can0 463#000025AC
(1716196026.014183) can0 461#02151314
(1716196026.015375) can0 464#000000000000AE41
(1716196026.015968) can0 466#0042070200000000
(1716196026.016691) can0 468#0303
(1716196026.038079) can0 50A#637E7EFF00000000
(1716196026.058030) can0 500#000F000001C40000
(1716196026.061021) can0 182#A2596000
(1716196026.061911) can0 183#0000000060006000
(1716196026.063090) can0 185#1313131414141314
(1716196026.097897) can0 501#0817067628270D58
(1716196026.137788) can0 50A#637E7EFF00000000
(1716196026.157826) can0 502#c000000000000000
(1716196026.198226) can0 501#0816067228270D5A
(1716196026.237768) can0 50A#637E7EFF00000000
(1716196026.257799) can0 503#0116590671000D00
(1716196026.297898) can0 501#0815067E28270D5C
(1716196026.311275) can0 460#00037FA6FFFFDA3B
(1716196026.312125) can0 462#0013001560001A
(1716196026.312862) can0 463#000025C5
(1716196026.314051) can0 461#03151414
(1716196026.315292) can0 464#000000000000AE41
(1716196026.316147) can0 466#0042070200000000
(1716196026.316813) can0 468#0303
(1716196026.318291) can0 186#1415
(1716196026.337900) can0 50A#637E7EFF00000000
(1716196026.357797) can0 505#08F4FC3A13156000
(1716196026.398092) can0 501#0816066E28270D60
(1716196026.411233) can0 46A#019000DC
(1716196026.411915) can0 182#90596000
(1716196026.413085) can0 183#0000000060006000
(1716196026.414455) can0 185#1313131414141314
(1716196026.415079) can0 776#006409D8000001E0
(1716196026.437781) can0 50A#637E7EFF00000000
(1716196026.457738) can0 50C#461A000000000100
(1716196026.458172) can0 506#00000200DDEA5F00
(1716196026.498170) can0 501#0816066F28270D5F
(1716196026.537746) can0 50A#637E7EFF00000000
(1716196026.557705) can0 50D#0000007800000000
(1716196026.597716) can0 501#0816067328270D63
(1716196026.611467) can0 460#00037FA6FFFFDA3B
(1716196026.612130) can0 462#0013001560001A
(1716196026.612983) can0 463#000025C5
(1716196026.613993) can0 461#04151314
(1716196026.615178) can0 464#000000000000AE41
(1716196026.616157) can0 466#0042070200000000
(1716196026.616924) can0 468#0303
(1716196026.637757) can0 50A#637E7EFF00000000
(1716196026.657804) can0 50F#0000000000000000
(1716196026.666277) can0 186#1415
(1716196026.697882) can0 501#0814067628270D63
(1716196026.737710) can0 50A#637E7EFF00000000
(1716196026.761434) can0 182#90596000
(1716196026.762326) can0 183#0000000060006000
(1716196026.763234) can0 185#1313131414141314
(1716196026.797740) can0 501#0816067328280D66
(1716196026.837898) can0 50A#637E7EFF00000000
(1716196026.897724) can0 501#0815066B28270D66
(1716196026.911606) can0 460#00037F3DFFFFDA3B
(1716196026.912256) can0 462#0013001560001A
(1716196026.913251) can0 463#000025C5
(1716196026.914136) can0 461#05151415
(1716196026.915626) can0 464#000000000000AE41
(1716196026.916499) can0 466#0042070200000000
(1716196026.917306) can0 468#0303
(1716196026.937819) can0 50A#637E7EFF00000000
(1716196026.957705) can0 50C#461A000000000100
(1716196026.997717) can0 501#0816067228270D66
(1716196027.016144) can0 186#1415
(1716196027.037731) can0 50A#637E7EFF00000000
(1716196027.058004) can0 500#000F000001C40000
(1716196027.097699) can0 501#0815066A28280D67
(1716196027.111583) can0 182#7F596000
(1716196027.112432) can0 183#0000000060006000
(1716196027.113352) can0 185#1313131414141314
(1716196027.137764) can0 50A#637E7EFF00000000
(1716196027.157932) can0 502#c000000000000000
(1716196027.197707) can0 501#0815068428280D68
(1716196027.211857) can0 460#00037EFAFFFFDA34
(1716196027.212389) can0 462#0013001560001A
(1716196027.213245) can0 463#000025CC
(1716196027.214297) can0 461#06000000
(1716196027.215698) can0 464#000000000000AE41
(1716196027.216444) can0 466#0042070200000000
(1716196027.217214) can0 468#0303
(1716196027.237682) can0 50A#637E7EFF00000000
(1716196027.257757) can0 503#0116580671000D00
(1716196027.297724) can0 501#0814066A28280D66
(1716196027.337673) can0 50A#637E7EFF00000000
(1716196027.357642) can0 505#08F3FC3913156000
(1716196027.366307) can0 186#1415
(1716196027.397615) can0 501#0815067728280D67
(1716196027.411625) can0 46A#019000DC
(1716196027.412741) can0 776#006409D8000001E0
(1716196027.437684) can0 50A#637E7EFF00000000
(1716196027.457943) can0 50C#461A000000000100
(1716196027.458053) can0 506#00000200DDEA5F00
(1716196027.461490) can0 182#7F596000
(1716196027.462766) can0 183#0000000060006000
(1716196027.463641) can0 185#1313131414141314
(1716196027.497647) can0 501#0815066928280D6A
(1716196027.511851) can0 460#00037E8FFFFFDA28
(1716196027.512578) can0 462#0013001560001A
(1716196027.513428) can0 463#000025D8
(1716196027.514442) can0 461#07000000
(1716196027.515705) can0 464#000000000000AE41
(1716196027.516564) can0 466#0042070200000000
(1716196027.517352) can0 468#0303
(1716196027.537696) can0 50A#637E7EFF00000000
(1716196027.557754) can0 50D#0000007800000000
(1716196027.597621) can0 501#0815067C28280D68
(1716196027.637640) can0 50A#637E7EFF00000000
(1716196027.657683) can0 50F#0000000000000000
(1716196027.697611) can0 501#0814067A29280D69
(1716196027.716789) can0 186#1415
(1716196027.737630) can0 50A#637E7EFF00000000
(1716196027.797576) can0 501#0813068529280D68
(1716196027.812004) can0 460#00037E48FFFFDA21
(1716196027.812906) can0 462#0013001560001A
(1716196027.813657) can0 463#000025DF
(1716196027.814641) can0 461#08000000
(1716196027.816031) can0 464#000000000000AE41
(1716196027.816758) can0 466#0042070200000000
(1716196027.817506) can0 468#0303
(1716196027.818854) can0 182#6D596000
(1716196027.819727) can0 183#0000000060006000
(1716196027.821108) can0 185#1313131414141314
(1716196027.837579) can0 50A#637E7EFF00000000
(1716196027.897587) can0 501#0815067429280D68
(1716196027.937580) can0 50A#637E7EFF00000000
(1716196027.957582) can0 50C#461A000000000100
(1716196027.997602) can0 501#0814067729280D67
(1716196028.037592) can0 50A#637E7EFF00000000
(1716196028.057606) can0 500#000F000001C40000
(1716196028.066962) can0 186#1415
(1716196028.097604) can0 501#0815067529280D67
(1716196028.112153) can0 460#00037E48FFFFDA2E
(1716196028.112795) can0 462#0013001560001A
(1716196028.113679) can0 463#000025D2
(1716196028.114945) can0 461#09000000
(1716196028.116044) can0 464#000000000000AE41
(1716196028.117040) can0 466#0042070200000000
(1716196028.117638) can0 468#0303
(1716196028.137588) can0 50A#637E7EFF00000000
(1716196028.157615) can0 502#c000000000000000
(1716196028.161800) can0 182#6D596000
(1716196028.163090) can0 183#0000000060006000
(1716196028.164145) can0 185#1313131414141314
(1716196028.197583) can0 501#0814067029280D64
(1716196028.237574) can0 50A#637E7EFF00000000
(1716196028.257876) can0 503#01165A0671000E00
(1716196028.297535) can0 501#0813067B29290D67
(1716196028.337545) can0 50A#637E7EFF00000000
(1716196028.357543) can0 505#08F1FC3813156000
(1716196028.397570) can0 501#0813067029290D67
(1716196028.412294) can0 460#00037D94FFFFDA28
(1716196028.412939) can0 462#0013001560001A
(1716196028.414127) can0 463#000025D8
(1716196028.415333) can0 461#0A000000
(1716196028.415964) can0 464#000000000000AE41
(1716196028.416948) can0 466#0042070200000000
(1716196028.417757) can0 468#0303
(1716196028.418813) can0 46A#019000DC
(1716196028.419741) can0 186#1415
(1716196028.420948) can0 776#006409D8000001E0
(1716196028.437556) can0 50A#637E7EFF00000000
(1716196028.457580) can0 50C#461A000000000100
(1716196028.458007) can0 506#00000200DDEA5F00
(1716196028.497545) can0 501#0815067129290D67
(1716196028.511888) can0 182#5B596000
(1716196028.513018) can0 183#0000000060006000
(1716196028.513979) can0 185#1313131414141314
(1716196028.537562) can0 50A#637E7EFF00000000
(1716196028.557579) can0 50D#0000007800000000
(1716196028.597539) can0 501#0813066629290D68
(1716196028.637788) can0 50A#637E7EFF00000000
(1716196028.657840) can0 50F#0000000000000000
(1716196028.697910) can0 501#0815067029290D68
(1716196028.712391) can0 460#00037D94FFFFDA21
(1716196028.713043) can0 462#0013001560001A
(1716196028.714249) can0 463#000025DF
(1716196028.715071) can0 461#0B000000
(1716196028.716551) can0 464#000000000000AE41
(1716196028.717080) can0 466#0042070200000000
(1716196028.718170) can0 468#0303
(1716196028.737515) can0 50A#637E7EFF00000000
(1716196028.767153) can0 186#1415
(1716196028.797518) can0 501#0813066929290D67
(1716196028.837535) can0 50A#637E7EFF00000000
(1716196028.862285) can0 182#5B596000
(1716196028.863242) can0 183#0000000060006000
(1716196028.864414) can0 185#1313131414141314
(1716196028.897505) can0 501#0813068129290D67
(1716196028.937553) can0 50A#637E7EFF00000000
(1716196028.957535) can0 50C#461A000000000100
(1716196028.997578) can0 501#0812066829290D6A
(1716196029.012453) can0 460#00037D25FFFFDA21
(1716196029.013308) can0 462#0013001560001A
(1716196029.014267) can0 463#000025DF
(1716196029.015324) can0 461#0C000000
(1716196029.016282) can0 464#000000000000AE41
(1716196029.017432) can0 466#0042070200000000
(1716196029.018186) can0 468#0303
(1716196029.037495) can0 50A#637E7EFF00000000
(1716196029.057528) can0 500#000F000001C40000
(1716196029.097542) can0 501#0813067A29290D6B
(1716196029.117094) can0 186#1415
(1716196029.137497) can0 50A#637E7EFF00000000
(1716196029.157542) can0 502#c000000000000000
(1716196029.197775) can0 501#0813066929290D6C
(1716196029.212497) can0 182#49596000
(1716196029.213303) can0 183#0000000060006000
(1716196029.214603) can0 185#1313131414141314
(1716196029.237465) can0 50A#637E7EFF00000000
(1716196029.257452) can0 503#0116580671000D00
(1716196029.297471) can0 501#0813067629290D69
(1716196029.312677) can0 460#00037CDEFFFFDA1B
(1716196029.313320) can0 462#0013001560001A
(1716196029.314495) can0 463#000025E5
(1716196029.315299) can0 461#0D000000
(1716196029.316696) can0 464#000000000000AE41
(1716196029.317413) can0 466#0042070200000000
(1716196029.318132) can0 468#0303
(1716196029.337543) can0 50A#637E7EFF00000000
(1716196029.357465) can0 505#08EDFC3613156000
(1716196029.397463) can0 501#0813066A29290D6A
(1716196029.412300) can0 46A#019000DC
(1716196029.413397) can0 776#006409D8000001E0
(1716196029.437533) can0 50A#637E7EFF00000000
(1716196029.457650) can0 50C#461A000000000100
(1716196029.457910) can0 506#00000200DDEA5F00
(1716196029.467260) can0 186#1415
(1716196029.497449) can0 501#081206802A290D69
(1716196029.537442) can0 50A#637E7EFF00000000
(1716196029.557539) can0 50D#0000007800000000
(1716196029.562668) can0 182#49596000
(1716196029.563888) can0 183#0000000061006000
(1716196029.564464) can0 185#1313131414141314
(1716196029.597409) can0 501#081206792A290D6A
(1716196029.612760) can0 460#00037CDEFFFFDA21
(1716196029.613742) can0 462#0013001560001A
(1716196029.614575) can0 463#000025DF
(1716196029.615621) can0 461#0E000000
(1716196029.616740) can0 464#000000000000AE41
(1716196029.617509) can0 466#0042070200000000
(1716196029.618627) can0 468#0303
(1716196029.637459) can0 50A#637E7EFF00000000
(1716196029.657461) can0 50F#0000000000000000
(1716196029.697739) can0 501#081206762A290D6A
(1716196029.737464) can0 50A#637E7EFF00000000
(1716196029.797433) can0 501#081306702A290D6C
(1716196029.817422) can0 186#1415
(1716196029.837458) can0 50A#637E7EFF00000000
(1716196029.897544) can0 501#081206722A2A0D6A
(1716196029.912986) can0 460#00037C24FFFFDA15
(1716196029.913732) can0 462#0013001560001A
(1716196029.914674) can0 463#000025EB
(1716196029.915902) can0 461#0F000000
(1716196029.917043) can0 464#000000000000AE41
(1716196029.918185) can0 466#0042070200000000
(1716196029.918443) can0 468#0303
(1716196029.919836) can0 182#36596000
(1716196029.920990) can0 183#0000000061006000
(1716196029.922117) can0 185#1313131414141314
(1716196029.937491) can0 50A#637E7EFF00000000
(1716196029.957448) can0 50C#461A000000000100
(1716196029.997561) can0 501#081306702A2A0D69
(1716196030.037554) can0 50A#637E7EFF00000000
(1716196030.057830) can0 500#000F000001C40000
(1716196030.097476) can0 501#081106712A2A0D67
(1716196030.137548) can0 50A#637E7EFF00000000
(1716196030.157393) can0 502#c000000000000000
(1716196030.167815) can0 186#1415
(1716196030.197481) can0 501#0812067C2A2A0D68
(1716196030.213061) can0 460#00037C24FFFFDA21
(1716196030.213789) can0 462#0013001560001A
(1716196030.214718) can0 463#000025DF
(1716196030.215846) can0 461#01151313
(1716196030.217060) can0 464#000000000000AE41
(1716196030.217867) can0 466#0042070200000000
(1716196030.218993) can0 468#0303
(1716196030.237664) can0 50A#637E7EFF00000000
(1716196030.257555) can0 503#0116590671000D00
(1716196030.263011) can0 182#36596000
(1716196030.264206) can0 183#0000000060006000
(1716196030.264801) can0 185#1313131414141314
(1716196030.297481) can0 501#081206652A2A0D69
(1716196030.337561) can0 50A#637E7EFF00000000
(1716196030.357678) can0 505#08EBFC3713156000
(1716196030.397534) can0 501#081306762A2A0D69
(1716196030.413047) can0 46A#019000DC
(1716196030.414206) can0 776#006409D8000001E0
(1716196030.437822) can0 50A#637E7EFF00000000
(1716196030.457373) can0 50C#461A000000000100
(1716196030.457823) can0 506#00000200DDEA5F00
(1716196030.497475) can0 501#081206612A2A0D69
(1716196030.513254) can0 460#00037B69FFFFDA21
(1716196030.513959) can0 462#0013001560001A
(1716196030.515103) can0 463#000025DF
(1716196030.515769) can0 461#02151314
(1716196030.517269) can0 464#000000000000AE41
(1716196030.517923) can0 466#0042070200000000
(1716196030.518725) can0 468#0303
(1716196030.519700) can0 186#1415
(1716196030.537548) can0 50A#637E7EFF00000000
(1716196030.557393) can0 50D#0000007800000000
(1716196030.597477) can0 501#081306772A2A0D69
(1716196030.612872) can0 182#24596000
(1716196030.614218) can0 183#0000000060006000
(1716196030.615114) can0 185#1313131414141314
(1716196030.637747) can0 50A#637E7EFF00000000
(1716196030.657389) can0 50F#0000000000000000
(1716196030.697553) can0 501#081106742A2A0D69
(1716196030.737661) can0 50A#637E7EFF00000000
(1716196030.797466) can0 501#0811067C2A2A0D68
(1716196030.813551) can0 460#00037B69FFFFDA1B
(1716196030.814045) can0 462#0013001560001A
(1716196030.815222) can0 463#000025E5
(1716196030.816058) can0 461#03151414
(1716196030.817463) can0 464#000000000000AE41
(1716196030.818137) can0 466#0042070200000000
(1716196030.819350) can0 468#0303
(1716196030.837415) can0 50A#637E7EFF00000000
(1716196030.868165) can0 186#1415
(1716196030.897569) can0 501#081106672A2A0D69
(1716196030.937543) can0 50A#637E7EFF00000000
(1716196030.957339) can0 50C#461A000000000100
(1716196030.963276) can0 182#24596000
(1716196030.964327) can0 183#0000000061006000
(1716196030.965630) can0 185#1313131414141314
(1716196030.997524) can0 501#0812067E2A2A0D69
(1716196031.037317) can0 50A#637E7EFF00000000
(1716196031.057346) can0 500#000F000001C40000
(1716196031.097476) can0 501#0812066C2A2A0D6B
(1716196031.113827) can0 460#00037AF5FFFFDA21
(1716196031.114200) can0 462#0013001560001A
(1716196031.115262) can0 463#000025DF
(1716196031.116057) can0 461#04151314
(1716196031.117243) can0 464#000000000000AE41
(1716196031.118244) can0 466#0042070200000000
(1716196031.119350) can0 468#0303
(1716196031.137618) can0 50A#637E7EFF00000000
(1716196031.157552) can0 502#c000000000000000
(1716196031.197477) can0 501#081106792A2A0D68
(1716196031.218314) can0 186#1415
(1716196031.237295) can0 50A#637E7EFF00000000
(1716196031.257332) can0 503#0116590671000D00
(1716196031.297472) can0 501#0810067A2A2A0D6A
(1716196031.313498) can0 182#11596000
(1716196031.314722) can0 183#0000000060006000
(1716196031.315295) can0 185#1313131414141314
(1716196031.337317) can0 50A#637E7EFF00000000
(1716196031.357274) can0 505#08E8FC3713156000
(1716196031.397477) can0 501#0810067A2A2A0D68
(1716196031.413600) can0 460#00037AACFFFFDA21
(1716196031.414337) can0 462#0013001560001A
(1716196031.415501) can0 463#000025DF
(1716196031.416187) can0 461#05151415
(1716196031.417530) can0 464#000000000000AE41
(1716196031.418354) can0 466#0042070200000000
(1716196031.419133) can0 468#0303
(1716196031.420205) can0 46A#019000DC
(1716196031.421587) can0 776#006409D8000001E0
(1716196031.437275) can0 50A#637E7EFF00000000
(1716196031.457314) can0 50C#461A000000000100
(1716196031.457755) can0 506#00000200DCEA5F00
(1716196031.497477) can0 501#081206692A2B0D69
(1716196031.537279) can0 50A#637E7EFF00000000
(1716196031.557293) can0 50D#0000007800000000
(1716196031.568447) can0 186#1415
(1716196031.597553) can0 501#0811066E2B2B0D69
(1716196031.637551) can0 50A#637E7EFF00000000
(1716196031.657590) can0 50F#0000000000000000
(1716196031.663617) can0 182#11596000
(1716196031.664832) can0 183#0000000060006000
(1716196031.665446) can0 185#1313131414141314
(1716196031.697549) can0 501#081206722B2B0D6A
(1716196031.713529) can0 460#00037AACFFFFDA15
(1716196031.714510) can0 462#0013001560001A
(1716196031.715394) can0 463#000025EB
(1716196031.716712) can0 461#06000000
(1716196031.717644) can0 464#000000000000AE41
(1716196031.718661) can0 466#0042070200000000
(1716196031.719265) can0 468#0303
(1716196031.737475) can0 50A#637E7EFF00000000
(1716196031.797407) can0 501#0811066F2B2B0D69
(1716196031.837257) can0 50A#637E7EFF00000000
(1716196031.897538) can0 501#0811067C2B2B0D6A
(1716196031.918687) can0 186#1415
(1716196031.937253) can0 50A#637E7EFF00000000
(1716196031.957256) can0 50C#461A000000000100
(1716196031.997456) can0 501#0810066F2B2B0D68
(1716196032.013648) can0 460#000379F0FFFFDA1B
(1716196032.014877) can0 462#0013001560001A
(1716196032.015640) can0 463#000025E5
(1716196032.016810) can0 461#07000000
(1716196032.017608) can0 464#000000000000AE41
(1716196032.018589) can0 466#0042070200000000
(1716196032.019382) can0 468#0303
(1716196032.020481) can0 182#FE586000
(1716196032.021619) can0 183#0000000061006000
(1716196032.022590) can0 185#1313131414141314
(1716196032.037255) can0 50A#637E7EFF00000000
(1716196032.057273) can0 500#000F000001C40000
(1716196032.097433) can0 501#081206752B2B0D67
(1716196032.137323) can0 50A#637E7EFF00000000
(1716196032.157582) can0 502#c000000000000000
(1716196032.197512) can0 501#081106682B2B0D69
(1716196032.237506) can0 50A#637E7EFF00000000
(1716196032.257520) can0 503#0116580671000D00
(1716196032.268822) can0 186#1415
(1716196032.297221) can0 501#081206782B2B0D69
(1716196032.313857) can0 460#000379F0FFFFDA1B
(1716196032.314749) can0 462#0013001560001A
(1716196032.315849) can0 463#000025E5
(1716196032.316617) can0 461#08000000
(1716196032.317960) can0 464#000000000000AE41
(1716196032.319047) can0 466#0042070200000000
(1716196032.319550) can0 468#0303
(1716196032.337438) can0 50A#637E7EFF00000000
(1716196032.357487) can0 505#08E6FC3613156000
(1716196032.364467) can0 182#FE586000
(1716196032.364785) can0 183#0000000061006000
(1716196032.365942) can0 185#1313131414141314
(1716196032.397187) can0 501#0810066E2B2B0D6C
(1716196032.413724) can0 46A#019000DC
(1716196032.415099) can0 776#006409D8000001E0
(1716196032.437431) can0 50A#637E7EFF00000000
(1716196032.457437) can0 50C#461A000000000100
(1716196032.457696) can0 506#00000200DCEA5F00
(1716196032.497417) can0 501#081006882B2C0D6B
(1716196032.537411) can0 50A#637E7EFF00000000
(1716196032.557436) can0 50D#0000007800000000
(1716196032.597476) can0 501#0810066B2B2B0D6A
(1716196032.614103) can0 460#0003797CFFFFDA15
(1716196032.614900) can0 462#0013001560001A
(1716196032.616182) can0 463#000025EB
(1716196032.616756) can0 461#09000000
(1716196032.618136) can0 464#000000000000AE41
(1716196032.618985) can0 466#0042070200000000
(1716196032.619697) can0 468#0303
(1716196032.620673) can0 186#1415
(1716196032.637499) can0 50A#637E7EFF00000000
(1716196032.657499) can0 50F#0000000000000000
(1716196032.697470) can0 501#0810067C2B2C0D6A
(1716196032.714090) can0 182#EB586000
(1716196032.715224) can0 183#0000000061006000
(1716196032.716000) can0 185#1313131414141314
(1716196032.737179) can0 50A#637E7EFF00000000
(1716196032.797343) can0 501#081106652B2B0D69
(1716196032.837712) can0 50A#637E7EFF00000000
(1716196032.897470) can0 501#0810067D2B2C0D66
(1716196032.914372) can0 460#00037930FFFFDA15
(1716196032.915521) can0 462#001300155F001A
(1716196032.915899) can0 463#000025EB
(1716196032.917224) can0 461#0A000000
(1716196032.918389) can0 464#000000000000AE41
(1716196032.919532) can0 466#0042070200000000
(1716196032.919833) can0 468#0303
(1716196032.937329) can0 50A#637E7EFF00000000
(1716196032.957173) can0 50C#461A000000000100
(1716196032.969117) can0 186#1415
(1716196032.997197) can0 501#081006752B2C0D68
(1716196033.037374) can0 50A#637E7EFF00000000
(1716196033.057392) can0 500#000F000001C40000
(1716196033.064244) can0 182#EB585F00
(1716196033.065124) can0 183#0000000061005F00
(1716196033.066357) can0 185#1313131414141314
(1716196033.097376) can0 501#080F067C2B2C0D68
(1716196033.137472) can0 50A#637E7EFF00000000
(1716196033.157331) can0 502#c000000000000000
(1716196033.197435) can0 501#081006742B2C0D68
(1716196033.214478) can0 460#00037930FFFFDA1B
(1716196033.215191) can0 462#001300155F001A
(1716196033.216234) can0 463#000025E5
(1716196033.217091) can0 461#0B000000
(1716196033.218431) can0 464#000000000000AE41
(1716196033.219493) can0 466#0042070200000000
(1716196033.220003) can0 468#0303
(1716196033.237114) can0 50A#637E7EFF00000000
(1716196033.257477) can0 503#01165B0671000D00
(1716196033.297412) can0 501#081006722B2C0D66
(1716196033.319304) can0 186#1415
(1716196033.337132) can0 50A#637E7EFF00000000
(1716196033.357600) can0 505#08E4FC3613155F00
(1716196033.397420) can0 501#081106752B2C0D64
(1716196033.414293) can0 46A#019000DC
(1716196033.415518) can0 182#D7585F00
(1716196033.416691) can0 183#0000000061005F00
(1716196033.417292) can0 185#1313131414141314
(1716196033.418612) can0 776#006409D8000001E0
(1716196033.437345) can0 50A#637E7EFF00000000
(1716196033.457130) can0 50C#461A000000000100
(1716196033.457702) can0 506#00000200DCEA5F00
(1716196033.497322) can0 501#0810066A2B2C0D64
(1716196033.514680) can0 460#0003786BFFFFDA0E
(1716196033.515330) can0 462#001300155F001A
(1716196033.516503) can0 463#000025F2
(1716196033.517214) can0 461#0C000000
(1716196033.518379) can0 464#000000000000AE41
(1716196033.519353) can0 466#0042070200000000
(1716196033.520131) can0 468#0303
(1716196033.537333) can0 50A#637E7EFF00000000
(1716196033.557364) can0 50D#0000007800000000
(1716196033.597117) can0 501#0810067A2B2C0D65
(1716196033.637410) can0 50A#637E7EFF00000000
(1716196033.657119) can0 50F#0000000000000000
(1716196033.669549) can0 186#1415
(1716196033.697375) can0 501#080F06752B2C0D65
(1716196033.737408) can0 50A#637E7EFF00000000
(1716196033.764443) can0 182#D7585F00
(1716196033.765486) can0 183#0000000061005F00
(1716196033.766483) can0 185#1313131414141314
(1716196033.797101) can0 501#0811066B2B2C0D6A
(1716196033.814699) can0 460#0003786BFFFFDA15
(1716196033.815684) can0 462#001300155F001A
(1716196033.816362) can0 463#000025EB
(1716196033.817342) can0 461#0D000000
(1716196033.818772) can0 464#000000000000AE41
(1716196033.819670) can0 466#0042070200000000
(1716196033.820290) can0 468#0303
(1716196033.837305) can0 50A#637E7EFF00000000
(1716196033.897380) can0 501#081D064E2B2C0D83
(1716196033.937300) can0 50A#637E7EFF00000000
(1716196033.957096) can0 50C#461A000000000100
(1716196033.997057) can0 501#082206832C2C0D9B
(1716196034.019419) can0 186#1415
(1716196034.037297) can0 50A#637E7EFF00000000
(1716196034.057250) can0 500#000F000001C40000
(1716196034.097083) can0 501#082306712C2C0DBC
(1716196034.114680) can0 460#0003779CFFFFD7AC
(1716196034.115602) can0 462#001300155F001A
(1716196034.116481) can0 463#00002854
(1716196034.117918) can0 461#0E000000
(1716196034.118864) can0 464#000000000000AE41
(1716196034.119785) can0 466#0042070200000000
(1716196034.120486) can0 468#0303
(1716196034.121612) can0 182#C2585F00
(1716196034.123120) can0 183#0000000067005F00
(1716196034.123633) can0 185#1313131414141314
(1716196034.137364) can0 50A#637E7EFF00000000
(1716196034.157090) can0 502#c000000000000000
(1716196034.197040) can0 501#0826067D2C2C0DE2
(1716196034.237149) can0 50A#637E7EFF00000000
(1716196034.257102) can0 503#0116590671000C00
(1716196034.297346) can0 501#0826068E2C2C0E0D
(1716196034.337290) can0 50A#637E7EFF00000000
(1716196034.357022) can0 505#08E0FBF813155F00
(1716196034.369632) can0 186#1415
(1716196034.397026) can0 501#082806972C2C0E38
(1716196034.415112) can0 460#0003779CFFFFD49E
(1716196034.415781) can0 462#001300155F001A
(1716196034.416927) can0 463#00002B62
(1716196034.417647) can0 461#0F000000
(1716196034.418801) can0 464#000000000000AE41
(1716196034.419895) can0 466#0042070200000000
(1716196034.420669) can0 468#0303
(1716196034.421951) can0 46A#019000DC
(1716196034.423015) can0 776#006409D8000001E0
(1716196034.437262) can0 50A#637E7EFF00000000
(1716196034.457071) can0 50C#461A000000000100
(1716196034.457513) can0 506#00000200FCEA5F00
(1716196034.464958) can0 182#C2585F00
(1716196034.465980) can0 183#000000006F005F00
(1716196034.467114) can0 185#1313131414141314
(1716196034.497348) can0 501#0829066C2C2C0E65
(1716196034.537051) can0 50A#637E7EFF00000000
(1716196034.557262) can0 50D#0000007800000000
(1716196034.597020) can0 501#083006742C2D0E9F
(1716196034.637044) can0 50A#637E7EFF00000000
(1716196034.657333) can0 50F#0000000000000000
(1716196034.697331) can0 501#083E06882C2D0EF0
(1716196034.715266) can0 460#00037745FFFFD3B9
(1716196034.716469) can0 462#001300155F001A
(1716196034.716785) can0 463#00002C47
(1716196034.718067) can0 461#01151313
(1716196034.719306) can0 464#000000000000AE41
(1716196034.720012) can0 466#0042070200000000
(1716196034.721008) can0 468#0303
(1716196034.722037) can0 186#1415
(1716196034.737234) can0 50A#637E7EFF00000000
(1716196034.797288) can0 501#083A067D2C2D0F38
(1716196034.814924) can0 182#AC585F00
(1716196034.816334) can0 183#0000000071005F00
(1716196034.817011) can0 185#1313131414141314
(1716196034.837406) can0 50A#637E7EFF00000000
(1716196034.897276) can0 501#084306702C2D0F7C
(1716196034.937226) can0 50A#637E7EFF00000000
(1716196034.956985) can0 50C#461A000000000100
(1716196034.996982) can0 501#084406842C2D0FBE
(1716196035.015473) can0 460#000376C1FFFFCEEE
(1716196035.016206) can0 462#001300155F001A
(1716196035.016965) can0 463#00003112
(1716196035.017955) can0 461#02151314
(1716196035.019176) can0 464#000000000000AE41
(1716196035.020560) can0 466#0042070200000000
(1716196035.020914) can0 468#0303
(1716196035.037009) can0 50A#637E7EFF00000000
(1716196035.057237) can0 500#000F000001C40000
(1716196035.070294) can0 186#1415
(1716196035.097294) can0 501#084506672C2D0FFD
(1716196035.137279) can0 50A#637E7EFF00000000
(1716196035.157328) can0 502#c000000000000000
(1716196035.165402) can0 182#AC585F00
(1716196035.166649) can0 183#000000007D005F00
(1716196035.167207) can0 185#1313131414141314
(1716196035.197258) can0 501#084706832C2D1036
(1716196035.237285) can0 50A#637E7EFF00000000
(1716196035.257274) can0 503#0116590671000A00
(1716196035.297245) can0 501#084906602C2D1071
(1716196035.315642) can0 460#000376C1FFFFCC1A
(1716196035.316266) can0 462#001300155F001A
(1716196035.317501) can0 463#000033E6
(1716196035.318227) can0 461#03151414
(1716196035.319633) can0 464#000000000000AE41
(1716196035.320803) can0 466#0042070200000000
(1716196035.321073) can0 468#0303
(1716196035.337301) can0 50A#637E7EFF00000000
(1716196035.356943) can0 505#08DEFAD013155F00
(1716196035.397013) can0 501#0849067F2C2D10A9
(1716196035.415551) can0 46A#019000DC
(1716196035.416450) can0 776#006409D8000001E0
(1716196035.420133) can0 186#1415
(1716196035.437193) can0 50A#637E7EFF00000000
(1716196035.456989) can0 50C#461A000000000100
(1716196035.457446) can0 506#000002012DEA5F00
(1716196035.497152) can0 501#084706732C2C10DC
(1716196035.515307) can0 182#94585F00
(1716196035.516795) can0 183#0000000084005F00
(1716196035.517941) can0 185#1313131414141314
(1716196035.537261) can0 50A#637E7EFF00000000
(1716196035.556962) can0 50D#0000007800000000
(1716196035.597211) can0 501#084A065C2C2E110B
(1716196035.616130) can0 460#000375D1FFFFCB6E
(1716196035.616449) can0 462#001300155F001A
(1716196035.617306) can0 463#00003492
(1716196035.618515) can0 461#04151314
(1716196035.619674) can0 464#000000000000AE41
(1716196035.620679) can0 466#0042070200000000
(1716196035.621253) can0 468#0303
(1716196035.637252) can0 50A#637E7EFF00000000
(1716196035.657195) can0 50F#0000000000000000
(1716196035.697264) can0 501#084E066F2C2E1128
(1716196035.737215) can0 50A#637E7EFF00000000
(1716196035.770767) can0 186#1415
(1716196035.796909) can0 501#084A06882C2D113F
(1716196035.837169) can0 50A#637E7EFF00000000
(1716196035.865636) can0 182#94585F00
(1716196035.866709) can0 183#0000000086005F00
(1716196035.867801) can0 185#1313131414141314
(1716196035.896910) can0 501#0845069B2C2E1147
(1716196035.915953) can0 460#000375D1FFFFCB08
(1716196035.916635) can0 462#001300155F001A
(1716196035.917762) can0 463#000034F8
(1716196035.918756) can0 461#05151415
(1716196035.919645) can0 464#000000000000AE41
(1716196035.920638) can0 466#0042070200000000
(1716196035.921432) can0 468#0303
(1716196035.937132) can0 50A#637E7EFF00000000
(1716196035.957142) can0 50C#461A000000000100
(1716196035.996909) can0 501#084906692C2D114F
(1716196036.037218) can0 50A#637E7EFF00000000
(1716196036.057125) can0 500#000F000001C40000
(1716196036.097206) can0 501#0848065E2C2D115B
(1716196036.120789) can0 186#1415
(1716196036.137191) can0 50A#637E7EFF00000000
(1716196036.157139) can0 502#c000000000000000
(1716196036.197161) can0 501#084E065E2C2E116B
(1716196036.215804) can0 460#000374CDFFFFCAE2
(1716196036.216805) can0 462#001300155F001A
(1716196036.217875) can0 463#0000351E
(1716196036.218639) can0 461#06000000
(1716196036.220046) can0 464#000000000000AE41
(1716196036.220793) can0 466#0042070200000000
(1716196036.221759) can0 468#0303
(1716196036.222892) can0 182#7A585F00
(1716196036.223876) can0 183#0000000087005F00
(1716196036.224979) can0 185#1313131414141314
(1716196036.236903) can0 50A#637E7EFF00000000
(1716196036.257199) can0 503#0116590671000A00
(1716196036.297175) can0 501#084A06812C2E1173
(1716196036.337107) can0 50A#637E7EFF00000000
(1716196036.356893) can0 505#08D9FAB113155F00
(1716196036.396865) can0 501#084806832C2E1173
(1716196036.416071) can0 46A#019000DC
(1716196036.416894) can0 776#006409D8000001E0
(1716196036.437106) can0 50A#637E7EFF00000000
(1716196036.456901) can0 50C#461A000000000100
(1716196036.457362) can0 506#0000020133EA5F00
(1716196036.471017) can0 186#1415
(1716196036.497246) can0 501#0845069E2C2E1176
(1716196036.516195) can0 460#0003749AFFFFCAFB
(1716196036.517334) can0 462#001300155F001A
(1716196036.517770) can0 463#00003505
(1716196036.518981) can0 461#07000000
(1716196036.520179) can0 464#000000000000AE41
(1716196036.520932) can0 466#0042070200000000
(1716196036.521815) can0 468#0303
(1716196036.537158) can0 50A#637E7EFF00000000
(1716196036.557099) can0 50D#0000007800000000
(1716196036.566289) can0 182#75585F00
(1716196036.567008) can0 183#0000000087005F00
(1716196036.568141) can0 185#1313131414141314
(1716196036.596847) can0 501#084806752C2D116D
(1716196036.636873) can0 50A#637E7EFF00000000
(1716196036.657185) can0 50F#0000000000000000
(1716196036.697132) can0 501#084806602C2E116B
(1716196036.737060) can0 50A#637E7EFF00000000
(1716196036.797127) can0 501#084C065F2C2F1173
(1716196036.816385) can0 460#00037468FFFFCAE2
(1716196036.817104) can0 462#001300155F001A
(1716196036.818075) can0 463#0000351E
(1716196036.819239) can0 461#08000000
(1716196036.820402) can0 464#000000000000AE41
(1716196036.821062) can0 466#0042070200000000
(1716196036.821850) can0 468#0303
(1716196036.823166) can0 186#1415
(1716196036.837081) can0 50A#637E7EFF00000000
(1716196036.897134) can0 501#084906892C2E117D
(1716196036.916323) can0 182#70585F00
(1716196036.917232) can0 183#0000000087005F00
(1716196036.918103) can0 185#1313131414141314
(1716196036.936829) can0 50A#637E7EFF00000000
(1716196036.956854) can0 50C#461A000000000100
(1716196036.997054) can0 501#084906802C2E117D
(1716196037.037032) can0 50A#637E7EFF00000000
(1716196037.056839) can0 500#000F000001C40000
(1716196037.097035) can0 501#084406B32D2E1173
(1716196037.116254) can0 460#000373C9FFFFCADC
(1716196037.117165) can0 462#001300155F001A
(1716196037.118263) can0 463#00003524
(1716196037.119171) can0 461#09000000
(1716196037.120417) can0 464#000000000000AE41
(1716196037.121229) can0 466#0042070200000000
(1716196037.122469) can0 468#0303
(1716196037.137119) can0 50A#637E7EFF00000000
(1716196037.157052) can0 502#c000000000000000
(1716196037.171358) can0 186#1415
(1716196037.196807) can0 501#084806712D2D1169
(1716196037.236836) can0 50A#637E7EFF00000000
(1716196037.257118) can0 503#0116590671000A00
(1716196037.266170) can0 182#5B585F00
(1716196037.267308) can0 183#0000000088005F00
(1716196037.268254) can0 185#1313131414141314
(1716196037.296773) can0 501#084506662D2F1167
(1716196037.337015) can0 50A#637E7EFF00000000
(1716196037.357098) can0 505#08D6FAB013155F00
(1716196037.397084) can0 501#084C06682D2E1171
(1716196037.416732) can0 460#00037394FFFFCAE2
(1716196037.417515) can0 462#001300155F001A
(1716196037.418421) can0 463#0000351E
(1716196037.419529) can0 461#0A000000
(1716196037.420710) can0 464#000000000000AE41
(1716196037.421386) can0 466#0042070200000000
(1716196037.422606) can0 468#0303
(1716196037.423242) can0 46A#019000DC
(1716196037.424389) can0 776#006409D8000001E0
(1716196037.437015) can0 50A#637E7EFF00000000
(1716196037.456775) can0 50C#461A000000000100
(1716196037.457217) can0 506#0000020133006600
(1716196037.496990) can0 501#084606892D2F1174
(1716196037.521575) can0 186#1415
(1716196037.537086) can0 50A#637E7EFF00000000
(1716196037.557038) can0 50D#0000007800000000
(1716196037.596988) can0 501#084406952D2F1175
(1716196037.616420) can0 182#56585F00
(1716196037.617635) can0 183#0000000087005F00
(1716196037.618703) can0 185#1313131414141314
(1716196037.637068) can0 50A#637E7EFF00000000
(1716196037.657002) can0 50F#0000000000000000
(1716196037.696768) can0 501#084606642D2E116A
(1716196037.716706) can0 460#000372C4FFFFCADC
(1716196037.717525) can0 462#001300155F001A
(1716196037.718611) can0 463#00003524
(1716196037.719765) can0 461#0B000000
(1716196037.721017) can0 464#000000000000AE41
(1716196037.721727) can0 466#0042070200000000
(1716196037.722572) can0 468#0303
(1716196037.737081) can0 50A#637E7EFF00000000
(1716196037.796753) can0 501#0847065E2D2F1168
(1716196037.837067) can0 50A#637E7EFF00000000
(1716196037.871723) can0 186#1415
(1716196037.896778) can0 501#084B06602D2F116A
(1716196037.936760) can0 50A#637E7EFF00000000
(1716196037.957074) can0 50C#461A000000000100
(1716196037.966637) can0 182#41585F00
(1716196037.967744) can0 183#0000000088005F00
(1716196037.968714) can0 185#1313131414141314
(1716196037.996905) can0 501#084506872D2F116C
(1716196038.017094) can0 460#00037290FFFFCABC
(1716196038.017745) can0 462#001300155F001A
(1716196038.018907) can0 463#00003544
(1716196038.019622) can0 461#0C000000
(1716196038.020778) can0 464#000000000000AE41
(1716196038.021847) can0 466#0042070200000000
(1716196038.022630) can0 468#0303
(1716196038.036934) can0 50A#637E7EFF00000000
(1716196038.057210) can0 500#000F000001C40000
(1716196038.096716) can0 501#0844068D2D2F1170
(1716196038.137030) can0 50A#637E7EFF00000000
(1716196038.156968) can0 502#c000000000000000
(1716196038.196725) can0 501#084606752D2E116C
(1716196038.221812) can0 186#1415
(1716196038.237044) can0 50A#637E7EFF00000000
(1716196038.256955) can0 503#0116570671000A00
(1716196038.296719) can0 501#084606622D2F116D
(1716196038.317188) can0 460#0003725EFFFFCAE8
(1716196038.318078) can0 462#001300155F001A
(1716196038.318813) can0 463#00003518
(1716196038.320199) can0 461#0D000000
(1716196038.320976) can0 464#000000000000AE41
(1716196038.322274) can0 466#0042070200000000
(1716196038.322728) can0 468#0303
(1716196038.324174) can0 182#3C585F00
(1716196038.324988) can0 183#0000000087005F00
(1716196038.326231) can0 185#1313131414141314
(1716196038.336707) can0 50A#637E7EFF00000000
(1716196038.357021) can0 505#08D2FAB113155F00
(1716196038.396708) can0 501#084A065D2D30116C
(1716196038.417212) can0 46A#019000DC
(1716196038.418106) can0 776#006409D8000001E0
(1716196038.436710) can0 50A#637E7EFF00000000
(1716196038.456712) can0 50C#461A000000000100
(1716196038.457173) can0 506#0000020132006600
(1716196038.496719) can0 501#084306822D2F116B
(1716196038.537012) can0 50A#637E7EFF00000000
(1716196038.556946) can0 50D#0000007800000000
(1716196038.572074) can0 186#1415
(1716196038.596691) can0 501#084306952D2F116A
(1716196038.617146) can0 460#000371BFFFFFCAE8
(1716196038.618068) can0 462#001300155F001A
(1716196038.618972) can0 463#00003518
(1716196038.619989) can0 461#0E000000
(1716196038.621135) can0 464#000000000000AE41
(1716196038.622120) can0 466#0042070200000000
(1716196038.623074) can0 468#0303
(1716196038.637003) can0 50A#637E7EFF00000000
(1716196038.656938) can0 50F#0000000000000000
(1716196038.667343) can0 182#27585F00
(1716196038.668573) can0 183#0000000087005F00
(1716196038.669145) can0 185#1313131414141314
(1716196038.696753) can0 501#0845066B2D2F116D
(1716196038.736997) can0 50A#637E7EFF00000000
(1716196038.796960) can0 501#084506612D30116D
(1716196038.836680) can0 50A#637E7EFF00000000
(1716196038.896954) can0 501#084806632D30116E
(1716196038.917532) can0 460#0003718CFFFFCADC
(1716196038.918767) can0 462#001300155F001A
(1716196038.919144) can0 463#00003524
(1716196038.920166) can0 461#0F000000
(1716196038.921282) can0 464#000000000000AE41
(1716196038.922610) can0 466#0042070200000000
(1716196038.923076) can0 468#0303
(1716196038.924070) can0 186#1415
(1716196038.936799) can0 50A#637E7EFF00000000
(1716196038.956673) can0 50C#461A000000000100
(1716196038.996884) can0 501#0846067D2D30116B
(1716196039.017250) can0 182#1C585F00
(1716196039.018356) can0 183#0000000088005F00
(1716196039.019350) can0 185#1313131414141314
(1716196039.036971) can0 50A#637E7EFF00000000
(1716196039.056912) can0 500#000F000001C40000
(1716196039.096854) can0 501#084206A82D2F1168
(1716196039.136973) can0 50A#637E7EFF00000000
(1716196039.156908) can0 502#c000000000000000
(1716196039.196867) can0 501#084506652D2F116E
(1716196039.217482) can0 460#000370B3FFFFCADC
(1716196039.218410) can0 462#001300155F001A
(1716196039.219351) can0 463#00003524
(1716196039.220268) can0 461#01151313
(1716196039.221842) can0 464#000000000000AE41
(1716196039.222634) can0 466#0042070200000000
(1716196039.223561) can0 468#0303
(1716196039.236955) can0 50A#637E7EFF00000000
(1716196039.256656) can0 503#0116580671000A00
(1716196039.272266) can0 186#1415
(1716196039.296932) can0 501#084606622D30116B
(1716196039.336952) can0 50A#637E7EFF00000000
(1716196039.356928) can0 505#08CEFAB013155F00
(1716196039.367583) can0 182#0C585F00
(1716196039.368541) can0 183#0000000088005F00
(1716196039.369509) can0 185#1313131414141314
(1716196039.396612) can0 501#084606862D30116A
(1716196039.417552) can0 46A#019000DC
(1716196039.418876) can0 776#006409D8000001E0
(1716196039.436635) can0 50A#637E7EFF00000000
(1716196039.456951) can0 50C#461A000000000100
(1716196039.457071) can0 506#0000020132006600
(1716196039.496843) can0 501#0844067B2D30116A
(1716196039.517957) can0 460#0003707FFFFFCAE8
(1716196039.518585) can0 462#001300155F001A
(1716196039.519471) can0 463#00003518
(1716196039.520444) can0 461#02151314
(1716196039.521624) can0 464#000000000000AE41
(1716196039.522597) can0 466#0042070200000000
(1716196039.523382) can0 468#0303
(1716196039.536724) can0 50A#637E7EFF00000000
(1716196039.556808) can0 50D#0000007800000000
(1716196039.596980) can0 501#084106932D2F1167
(1716196039.622716) can0 186#1415
(1716196039.636914) can0 50A#637E7EFF00000000
(1716196039.656881) can0 50F#0000000000000000
(1716196039.696825) can0 501#084406532D2F116B
(1716196039.717618) can0 182#02585F00
(1716196039.718742) can0 183#0000000087005F00
(1716196039.719665) can0 185#1313131414141314
(1716196039.736901) can0 50A#637E7EFF00000000
(1716196039.796903) can0 501#0849065D2D31116D
(1716196039.817786) can0 460#00036FA5FFFFCAF5
(1716196039.819118) can0 462#001300155F001A
(1716196039.819575) can0 463#0000350B
(1716196039.820921) can0 461#03151414
(1716196039.822122) can0 464#000000000000AE41
(1716196039.822745) can0 466#0042070200000000
(1716196039.823522) can0 468#0303
(1716196039.836621) can0 50A#637E7EFF00000000
(1716196039.896880) can0 501#084406942D2F1167
(1716196039.936592) can0 50A#637E7EFF00000000
(1716196039.956607) can0 50C#461A000000000100
(1716196039.972928) can0 186#1415
(1716196039.996805) can0 501#0843068B2D301167
(1716196040.036884) can0 50A#637E7EFF00000000
(1716196040.056838) can0 500#000F000001C40000
(1716196040.068051) can0 182#F6575F00
(1716196040.068880) can0 183#0000000087005F00
(1716196040.069848) can0 185#1313131414141314
(1716196040.096775) can0 501#084306852D2F1166
(1716196040.118036) can0 460#00036F6FFFFFCAE2
(1716196040.118857) can0 462#001300155F001A
(1716196040.119747) can0 463#0000351E
(1716196040.120713) can0 461#04151314
(1716196040.122129) can0 464#000000000000AE41
(1716196040.123206) can0 466#0042070200000000
(1716196040.123855) can0 468#0303
(1716196040.136878) can0 50A#637E7EFF00000000
(1716196040.156974) can0 502#c000000000000000
(1716196040.196788) can0 501#084306652D301169
(1716196040.236861) can0 50A#637E7EFF00000000
(1716196040.256865) can0 503#0116580671000A00
(1716196040.296853) can0 501#084906642D31116F
(1716196040.323100) can0 186#1415
(1716196040.336576) can0 50A#637E7EFF00000000
(1716196040.356515) can0 505#08CBFAB113155F00
(1716196040.396761) can0 501#084206822D311168
(1716196040.418066) can0 460#00036F00FFFFCAFB
(1716196040.418975) can0 462#001300155F001A
(1716196040.419857) can0 463#00003505
(1716196040.420858) can0 461#05151415
(1716196040.422302) can0 464#000000000000AE41
(1716196040.423341) can0 466#0042070200000000
(1716196040.423864) can0 468#0303
(1716196040.425080) can0 46A#019000DC
(1716196040.426095) can0 182#E6575F00
(1716196040.427249) can0 183#0000000087005F00
(1716196040.428323) can0 185#1313131414141314
(1716196040.429046) can0 776#006409D8000001E0
(1716196040.436850) can0 50A#637E7EFF00000000
(1716196040.456566) can0 50C#461A000000000100
(1716196040.457018) can0 506#0000020131006600
(1716196040.496746) can0 501#084206A02D311167
(1716196040.536855) can0 50A#637E7EFF00000000
(1716196040.557270) can0 50D#0000007800000000
(1716196040.596759) can0 501#084306772D30116B
(1716196040.636584) can0 50A#637E7EFF00000000
(1716196040.656871) can0 50F#0000000000000000
(1716196040.672942) can0 186#1415
(1716196040.696540) can0 501#084406652E31116C
(1716196040.718529) can0 460#00036E91FFFFCAD5
(1716196040.719121) can0 462#001300155F001A
(1716196040.720269) can0 463#0000352B
(1716196040.721008) can0 461#06000000
(1716196040.722567) can0 464#000000000000AE41
(1716196040.723157) can0 466#0042070200000000
(1716196040.724259) can0 468#0303
(1716196040.736692) can0 50A#637E7EFF00000000
(1716196040.768224) can0 182#DB575F00
(1716196040.769381) can0 183#0000000088005F00
(1716196040.770151) can0 185#1313131414141314
(1716196040.796725) can0 501#084806662D31116E
(1716196040.836977) can0 50A#637E7EFF00000000
(1716196040.896807) can0 501#084506872D31116A
(1716196040.936744) can0 50A#637E7EFF00000000
(1716196040.956674) can0 50C#461A000000000100
(1716196040.996767) can0 501#084106A82E301169
(1716196041.018362) can0 460#00036E5BFFFFCB02
(1716196041.019228) can0 462#001300155F001A
(1716196041.020154) can0 463#000034FE
(1716196041.021145) can0 461#07000000
(1716196041.022991) can0 464#000000000000AE41
(1716196041.023302) can0 466#0042070200000000
(1716196041.024273) can0 468#0303
(1716196041.025065) can0 186#1415
(1716196041.036808) can0 50A#637E7EFF00000000
(1716196041.056518) can0 500#000F000001C40000
(1716196041.096722) can0 501#084406672E30116F
(1716196041.118625) can0 182#CA575F00
(1716196041.119499) can0 183#0000000087005F00
(1716196041.120519) can0 185#1313131414141314
(1716196041.136539) can0 50A#637E7EFF00000000
(1716196041.156505) can0 502#c000000000000000
(1716196041.196697) can0 501#084606662E32116E
(1716196041.236801) can0 50A#637E7EFF00000000
(1716196041.256789) can0 503#0116590671000A00
(1716196041.296760) can0 501#084406842E31116B
(1716196041.318461) can0 460#00036D82FFFFCAE2
(1716196041.319727) can0 462#001300155F001A
(1716196041.320403) can0 463#0000351E
(1716196041.321290) can0 461#08000000
(1716196041.322765) can0 464#000000000000AE41
(1716196041.323923) can0 466#0042070200000000
(1716196041.324213) can0 468#0303
(1716196041.336712) can0 50A#637E7EFF00000000
(1716196041.356458) can0 505#08C6FAB113155F00
(1716196041.373251) can0 186#1415
(1716196041.397063) can0 501#0842068E2E311168
(1716196041.418392) can0 46A#019000DC
(1716196041.419786) can0 776#006409D8000001E0
(1716196041.436695) can0 50A#637E7EFF00000000
(1716196041.456491) can0 50C#461A000000000100
(1716196041.456929) can0 506#0000020131006600
(1716196041.468392) can0 182#C0575F00
(1716196041.469753) can0 183#0000000087005F00
(1716196041.470700) can0 185#1313131414141314
(1716196041.496671) can0 501#0840068C2E301164
(1716196041.536728) can0 50A#637E7EFF00000000
(1716196041.556470) can0 50D#0000007800000000
(1716196041.596766) can0 501#084306662E31116A
(1716196041.618944) can0 460#00036D4DFFFFCADC
(1716196041.619832) can0 462#001300155F001A
(1716196041.620621) can0 463#00003524
(1716196041.621426) can0 461#09000000
(1716196041.622568) can0 464#000000000000AE41
(1716196041.623563) can0 466#0042070200000000
(1716196041.624562) can0 468#0303
(1716196041.636792) can0 50A#637E7EFF00000000
(1716196041.656475) can0 50F#0000000000000000
(1716196041.696678) can0 501#084806602E32116D
(1716196041.723431) can0 186#1415
(1716196041.736451) can0 50A#637E7EFF00000000
(1716196041.796745) can0 501#084306912E321167
(1716196041.818868) can0 182#B0575F00
(1716196041.819780) can0 183#0000000088005F00
(1716196041.820647) can0 185#1313131414141314
(1716196041.836821) can0 50A#637E7EFF00000000
(1716196041.896725) can0 501#0841069A2E321166
(1716196041.919096) can0 460#00036CE0FFFFCAC9
(1716196041.919691) can0 462#001300155F001A
(1716196041.920890) can0 463#00003537
(1716196041.921637) can0 461#0A000000
(1716196041.922722) can0 464#000000000000AE41
(1716196041.923699) can0 466#0042070200000000
(1716196041.924502) can0 468#0303
(1716196041.936636) can0 50A#637E7EFF00000000
(1716196041.956469) can0 50C#461A000000000100
(1716196041.996629) can0 501#0843066F2E311166
(1716196042.036763) can0 50A#637E7EFF00000000
(1716196042.056425) can0 500#000F000001C40000
(1716196042.073610) can0 186#1415
(1716196042.096620) can0 501#084406652E32116A
(1716196042.136433) can0 50A#637E7EFF00000000
(1716196042.156456) can0 502#c000000000000000
(1716196042.168699) can0 182#A5575F00
(1716196042.170271) can0 183#0000000088005F00
(1716196042.170785) can0 185#1313131414141314
(1716196042.196698) can0 501#084606682E32116F
(1716196042.218818) can0 460#00036C76FFFFCAF5
(1716196042.219985) can0 462#001300155F001A
(1716196042.220718) can0 463#00003524
(1716196042.221841) can0 461#0B000000
(1716196042.223120) can0 464#000000000000AE41
(1716196042.223952) can0 466#0042070200000000
(1716196042.224615) can0 468#0303
(1716196042.236714) can0 50A#637E7EFF00000000
(1716196042.256700) can0 503#0116590671000A00
(1716196042.296690) can0 501#0843067A2E321166
(1716196042.336699) can0 50A#637E7EFF00000000
(1716196042.356690) can0 505#08C3FAB313155F00
(1716196042.396697) can0 501#083F068D2E311165
(1716196042.418840) can0 46A#019000DC
(1716196042.420219) can0 776#006409D8000001E0
(1716196042.423983) can0 186#1415
(1716196042.436417) can0 50A#637E7EFF00000000
(1716196042.456428) can0 50C#461A000000000100
(1716196042.456861) can0 506#0000020130006600
(1716196042.496593) can0 501#0843065B2E32116B
(1716196042.518926) can0 460#00036BD8FFFFCB02
(1716196042.519896) can0 462#001300155F001A
(1716196042.521546) can0 463#000034FE
(1716196042.521792) can0 461#0C000000
(1716196042.522950) can0 464#000000000000AE41
(1716196042.523937) can0 466#0042070200000000
(1716196042.524928) can0 468#0303
(1716196042.525822) can0 182#95575F00
(1716196042.527234) can0 183#0000000087005F00
(1716196042.528537) can0 185#1313131414141314
(1716196042.536403) can0 50A#637E7EFF00000000
(1716196042.556419) can0 50D#0000007800000000
(1716196042.596364) can0 501#084506682E33116D
(1716196042.636362) can0 50A#637E7EFF00000000
(1716196042.656397) can0 50F#0000000000000000
(1716196042.696655) can0 501#0844067F2E32116D
(1716196042.736627) can0 50A#637E7EFF00000000
(1716196042.773842) can0 186#1415
(1716196042.796341) can0 501#0843068A2E321169
(1716196042.819328) can0 460#00036B6AFFFFCADC
(1716196042.820049) can0 462#001300155F001A
(1716196042.821204) can0 463#00003524
(1716196042.822482) can0 461#0D000000
(1716196042.823254) can0 464#000000000000AE41
(1716196042.824440) can0 466#0042070200000000
(1716196042.824860) can0 468#0303
(1716196042.836377) can0 50A#637E7EFF00000000
(1716196042.869193) can0 182#8A575F00
(1716196042.870121) can0 183#0000000088005F00
(1716196042.871418) can0 185#1313131414141314
(1716196042.896570) can0 501#084106892E311165
(1716196042.936365) can0 50A#637E7EFF00000000
(1716196042.956354) can0 50C#461A000000000100
(1716196042.996559) can0 501#0843066B2E32116E
(1716196043.036360) can0 50A#637E7EFF00000000
(1716196043.056570) can0 500#000F000001C40000
(1716196043.096543) can0 501#0847066D2E331171
(1716196043.119425) can0 460#00036A87FFFFCAC9
(1716196043.120146) can0 462#001300155F001A
(1716196043.121046) can0 463#00003537
(1716196043.122464) can0 461#0E000000
(1716196043.123608) can0 464#000000000000AE41
(1716196043.124385) can0 466#0042070200000000
(1716196043.124988) can0 468#0303
(1716196043.126382) can0 186#1415
(1716196043.136537) can0 50A#637E7EFF00000000
(1716196043.156562) can0 502#c000000000000000
(1716196043.196487) can0 501#084106822E321168
(1716196043.219336) can0 182#6E575F00
(1716196043.220292) can0 183#0000000088005F00
(1716196043.221539) can0 185#1313131414141314
(1716196043.236399) can0 50A#637E7EFF00000000
(1716196043.256636) can0 503#0116570671000A00
(1716196043.296344) can0 501#083F06882E321168
(1716196043.336536) can0 50A#637E7EFF00000000
(1716196043.356309) can0 505#08BEFAAE13155F00
(1716196043.396525) can0 501#0843064D2E32116A
(1716196043.419537) can0 460#00036A50FFFFCADC
(1716196043.420569) can0 462#001300155F001A
(1716196043.421180) can0 463#00003524
(1716196043.422383) can0 461#0F000000
(1716196043.423353) can0 464#000000000000AE41
(1716196043.424329) can0 466#0042070200000000
(1716196043.425100) can0 468#0303
(1716196043.426396) can0 46A#019000DC
(1716196043.427535) can0 776#006409D8000001E0
(1716196043.436543) can0 50A#637E7EFF00000000
(1716196043.456549) can0 50C#461A000000000100
(1716196043.456820) can0 506#0000020130006600
(1716196043.474470) can0 186#1415
(1716196043.496668) can0 501#084306602E33116F
(1716196043.536529) can0 50A#637E7EFF00000000
(1716196043.556570) can0 50D#0000007800000000
(1716196043.569608) can0 182#6E575F00
(1716196043.570556) can0 183#0000000088005F00
(1716196043.571435) can0 185#1313131414141314
(1716196043.596587) can0 501#084606842E331172
(1716196043.636589) can0 50A#637E7EFF00000000
(1716196043.656610) can0 50F#0000000000000000
(1716196043.696586) can0 501#084306852E33116B
(1716196043.719802) can0 460#000369E1FFFFCAE2
(1716196043.720425) can0 462#001300155F001A
(1716196043.721344) can0 463#0000351E
(1716196043.722627) can0 461#01151313
(1716196043.723470) can0 464#000000000000AE41
(1716196043.724462) can0 466#0042070200000000
(1716196043.725259) can0 468#0303
(1716196043.736506) can0 50A#637E7EFF00000000
(1716196043.796273) can0 501#083F068A2E321166
(1716196043.824334) can0 186#1415
(1716196043.836503) can0 50A#637E7EFF00000000
(1716196043.896582) can0 501#084306642E32116F
(1716196043.919683) can0 182#52575F00
(1716196043.920914) can0 183#0000000087005F00
(1716196043.921571) can0 185#1313131414141314
(1716196043.936504) can0 50A#637E7EFF00000000
(1716196043.956278) can0 50C#461A000000000100
(1716196043.996675) can0 501#084606572E341170
(1716196044.019649) can0 460#00036937FFFFCAD5
(1716196044.020575) can0 462#001300155F001A
(1716196044.021716) can0 463#0000352B
(1716196044.022522) can0 461#02151314
(1716196044.023831) can0 464#000000000000AE41
(1716196044.024822) can0 466#0042070200000000
(1716196044.025410) can0 468#0303
(1716196044.036502) can0 50A#637E7EFF00000000
(1716196044.056500) can0 500#000F000001C40000
(1716196044.096517) can0 501#0843067A2E33116B
(1716196044.136636) can0 50A#637E7EFF00000000
(1716196044.156447) can0 502#c000000000000000
(1716196044.174564) can0 186#1415
(1716196044.196573) can0 501#083F068A2F33116A
(1716196044.236824) can0 50A#637E7EFF00000000
(1716196044.256556) can0 503#0116580671000A00
(1716196044.269675) can0 182#52575F00
(1716196044.271350) can0 183#0000000088005F00
(1716196044.271755) can0 185#1313131414141314
(1716196044.296262) can0 501#0840066D2E321166
(1716196044.320041) can0 460#00036937FFFFCACF
(1716196044.320745) can0 462#001300155F001A
(1716196044.321634) can0 463#00003531
(1716196044.322626) can0 461#03151414
(1716196044.323832) can0 464#000000000000AE41
(1716196044.324810) can0 466#0042070200000000
(1716196044.325584) can0 468#0303
(1716196044.336497) can0 50A#637E7EFF00000000
(1716196044.356291) can0 505#08BBFAAF13155F00
(1716196044.396417) can0 501#084106602F33116C
(1716196044.419736) can0 46A#019000DC
(1716196044.420834) can0 776#006409D8000001E0
(1716196044.436494) can0 50A#637E7EFF00000000
(1716196044.456491) can0 50C#461A000000000100
(1716196044.456740) can0 506#0000020130006600
(1716196044.496597) can0 501#084706612F341170
(1716196044.524937) can0 186#1415
(1716196044.536477) can0 50A#637E7EFF00000000
(1716196044.556430) can0 50D#0000007800000000
(1716196044.596489) can0 501#084206842F331166
(1716196044.620212) can0 460#00036822FFFFCADC
(1716196044.620912) can0 462#001300155F001A
(1716196044.621869) can0 463#00003524
(1716196044.622806) can0 461#04151314
(1716196044.624145) can0 464#000000000000AE41
(1716196044.624942) can0 466#0042070200000000
(1716196044.625736) can0 468#0303
(1716196044.627132) can0 182#36575F00
(1716196044.628298) can0 183#0000000088005F00
(1716196044.628932) can0 185#1313131414141314
(1716196044.636560) can0 50A#637E7EFF00000000
(1716196044.656281) can0 50F#0000000000000000
(1716196044.696422) can0 501#083F069A2F331163
(1716196044.736558) can0 50A#637E7EFF00000000
(1716196044.796484) can0 501#084306662F331169
(1716196044.836371) can0 50A#637E7EFF00000000
(1716196044.875200) can0 186#1415
(1716196044.896398) can0 501#084306532F34116A
(1716196044.920134) can0 460#00036822FFFFCB08
(1716196044.921278) can0 462#001300155F001A
(1716196044.922047) can0 463#000034F8
(1716196044.923133) can0 461#05151415
(1716196044.924379) can0 464#000000000000AE41
(1716196044.925126) can0 466#0042070200000000
(1716196044.926051) can0 468#0303
(1716196044.936415) can0 50A#637E7EFF00000000
(1716196044.956414) can0 50C#461A000000000100
(1716196044.970262) can0 182#36575F00
(1716196044.971360) can0 183#0000000087005F00
(1716196044.972134) can0 185#1313131414141314
(1716196044.996919) can0 501#084306862F34116C
(1716196045.036419) can0 50A#637E7EFF00000000
(1716196045.056204) can0 500#000F000001C40000
(1716196045.096178) can0 501#0840067F2F341167
(1716196045.136464) can0 50A#637E7EFF00000000
(1716196045.156195) can0 502#c000000000000000
(1716196045.196468) can0 501#083E06852F331161
(1716196045.220504) can0 460#00036790FFFFCB0F
(1716196045.221251) can0 462#001300155F001A
(1716196045.222156) can0 463#000034F1
(1716196045.223117) can0 461#06000000
(1716196045.224876) can0 464#000000000000AE41
(1716196045.225252) can0 466#0042070200000000
(1716196045.226338) can0 468#0303
(1716196045.227541) can0 186#1415
(1716196045.236383) can0 50A#637E7EFF00000000
(1716196045.256184) can0 503#0116590671000A00
(1716196045.296449) can0 501#084106542F33116A
(1716196045.320486) can0 182#28575F00
(1716196045.321327) can0 183#0000000087005F00
(1716196045.322399) can0 185#1313131414141314
(1716196045.336526) can0 50A#637E7EFF00000000
(1716196045.356141) can0 505#08B7FAB513155F00
(1716196045.396430) can0 501#084706522F34116C
(1716196045.420788) can0 46A#019000DC
(1716196045.421367) can0 776#006409D8000001E0
(1716196045.436371) can0 50A#637E7EFF00000000
(1716196045.456364) can0 50C#461A000000000100
(1716196045.456645) can0 506#000002012E006600
(1716196045.496522) can0 501#0841068D2F341168
(1716196045.520633) can0 460#00036790FFFFCAD5
(1716196045.521394) can0 462#001300155F001A
(1716196045.522260) can0 463#0000352B
(1716196045.523273) can0 461#07000000
(1716196045.524603) can0 464#000000000000AE41
(1716196045.525441) can0 466#0042070200000000
(1716196045.526434) can0 468#0303
(1716196045.536431) can0 50A#637E7EFF00000000
(1716196045.556376) can0 50D#0000007800000000
(1716196045.575238) can0 186#1415
(1716196045.596418) can0 501#084006A22F341167
(1716196045.636173) can0 50A#637E7EFF00000000
(1716196045.656459) can0 50F#0000000000000000
(1716196045.670624) can0 182#28575F00
(1716196045.671567) can0 183#0000000088005F00
(1716196045.672658) can0 185#1313131414141314
(1716196045.696119) can0 501#084106662F331165
(1716196045.736395) can0 50A#637E7EFF00000000
(1716196045.796410) can0 501#084006632F35116B
(1716196045.820887) can0 460#00036748FFFFCAD5
(1716196045.821553) can0 462#001300155F001A
(1716196045.822416) can0 463#0000352B
(1716196045.823398) can0 461#08000000
(1716196045.824564) can0 464#000000000000AE41
(1716196045.825697) can0 466#0042070200000000
(1716196045.826547) can0 468#0303
(1716196045.836337) can0 50A#637E7EFF00000000
(1716196045.896390) can0 501#084406682F34116F
(1716196045.925415) can0 186#1415
(1716196045.936324) can0 50A#637E7EFF00000000
(1716196045.956118) can0 50C#461A000000000100
(1716196045.996083) can0 501#084106702F341167
(1716196046.020733) can0 182#15575F00
(1716196046.021918) can0 183#0000000088005F00
(1716196046.022829) can0 185#1313131414141314
(1716196046.036418) can0 50A#637E7EFF00000000
(1716196046.056337) can0 500#000F000001C40000
(1716196046.096384) can0 501#083D069A2F331166
(1716196046.120961) can0 460#000366D6FFFFCAD5
(1716196046.121802) can0 462#001300155F001A
(1716196046.122577) can0 463#0000352B
(1716196046.124147) can0 461#09000000
(1716196046.124732) can0 464#000000000000AE41
(1716196046.125918) can0 466#0042070200000000
(1716196046.126574) can0 468#0303
(1716196046.136395) can0 50A#637E7EFF00000000
(1716196046.156405) can0 502#c000000000000000
(1716196046.196378) can0 501#084106582F34116C
(1716196046.236384) can0 50A#637E7EFF00000000
(1716196046.256383) can0 503#0116590671000A00
(1716196046.275953) can0 186#1415
(1716196046.296055) can0 501#084506502F35116E
(1716196046.336301) can0 50A#637E7EFF00000000
(1716196046.356343) can0 505#08B5FAAF13155F00
(1716196046.370892) can0 182#15575F00
(1716196046.372101) can0 183#0000000088005F00
(1716196046.372840) can0 185#1313131414141314
(1716196046.396042) can0 501#084306872F341171
(1716196046.420857) can0 460#000366D6FFFFCAE8
(1716196046.421803) can0 462#001300155F001A
(1716196046.422860) can0 463#00003518
(1716196046.423957) can0 461#0A000000
(1716196046.424860) can0 464#000000000000AE41
(1716196046.426046) can0 466#0042070200000000
(1716196046.426617) can0 468#0303
(1716196046.427691) can0 46A#019000DC
(1716196046.428842) can0 776#006409D8000001E0
(1716196046.436287) can0 50A#637E7EFF00000000
(1716196046.456293) can0 50C#461A000000000100
(1716196046.456547) can0 506#000002012E006600
(1716196046.496037) can0 501#084006962F35116B
(1716196046.536368) can0 50A#637E7EFF00000000
(1716196046.556297) can0 50D#0000007800000000
(1716196046.596333) can0 501#083F068A2F341166
(1716196046.625752) can0 186#1415
(1716196046.636470) can0 50A#637E7EFF00000000
(1716196046.656052) can0 50F#0000000000000000
(1716196046.696330) can0 501#0840065C2F351170
(1716196046.721222) can0 460#00036607FFFFCAD5
(1716196046.721977) can0 462#001300155F001A
(1716196046.722829) can0 463#0000352B
(1716196046.723848) can0 461#0B000000
(1716196046.725083) can0 464#000000000000AE41
(1716196046.725979) can0 466#0042070200000000
(1716196046.727130) can0 468#0303
(1716196046.728380) can0 182#00575F00
(1716196046.728994) can0 183#0000000088005F00
(1716196046.730263) can0 185#1313131414141314
(1716196046.736174) can0 50A#637E7EFF00000000
(1716196046.796310) can0 501#084706582F351171
(1716196046.836271) can0 50A#637E7EFF00000000
(1716196046.896318) can0 501#084006722F35116B
(1716196046.936253) can0 50A#637E7EFF00000000
(1716196046.956025) can0 50C#461A000000000100
(1716196046.975911) can0 186#1415
(1716196046.996022) can0 501#083E06962F351169
(1716196047.021666) can0 460#00036607FFFFCADC
(1716196047.022082) can0 462#001300155F001A
(1716196047.023155) can0 463#00003524
(1716196047.024185) can0 461#0C000000
(1716196047.025153) can0 464#000000000000AE41
(1716196047.026440) can0 466#0042070200000000
(1716196047.026871) can0 468#0303
(1716196047.036241) can0 50A#637E7EFF00000000
(1716196047.056256) can0 500#000F000001C40000
(1716196047.071325) can0 182#00575F00
(1716196047.072561) can0 183#0000000088005F00
(1716196047.073171) can0 185#1313131414141314
(1716196047.096204) can0 501#0840066C2F341168
(1716196047.136304) can0 50A#637E7EFF00000000
(1716196047.156391) can0 502#c000000000000000
(1716196047.196288) can0 501#0841065E2F35116E
(1716196047.236305) can0 50A#637E7EFF00000000
(1716196047.256224) can0 503#0116590671000A00
(1716196047.296263) can0 501#084506792F351172
(1716196047.321478) can0 460#00036586FFFFCAF5
(1716196047.322517) can0 462#001300155F001A
(1716196047.323299) can0 463#0000350B
(1716196047.324253) can0 461#0D000000
(1716196047.325245) can0 464#000000000000AE41
(1716196047.326264) can0 466#0042070200000000
(1716196047.327325) can0 468#0303
(1716196047.328006) can0 186#1415
(1716196047.335961) can0 50A#637E7EFF00000000
(1716196047.356290) can0 505#08B1FAB313155F00
(1716196047.396253) can0 501#0841067E2F351169
(1716196047.421517) can0 46A#019000DC
(1716196047.422177) can0 182#EA565F00
(1716196047.423302) can0 183#0000000087005F00
(1716196047.424261) can0 185#1313131414141314
(1716196047.425284) can0 776#006409D8000001E0
(1716196047.436201) can0 50A#637E7EFF00000000
(1716196047.455968) can0 50C#461A000000000100
(1716196047.456413) can0 506#000002012D006600
(1716196047.495982) can0 501#083D06A42F341166
(1716196047.536189) can0 50A#637E7EFF00000000
(1716196047.556221) can0 50D#0000007800000000
(1716196047.596173) can0 501#0840065B2F35116D
(1716196047.621442) can0 460#0003652BFFFFCAEF
(1716196047.622445) can0 462#001300155F001A
(1716196047.623742) can0 463#00003511
(1716196047.624224) can0 461#0E000000
(1716196047.625466) can0 464#000000000000AE41
(1716196047.626422) can0 466#0042070200000000
(1716196047.627279) can0 468#0303
(1716196047.636261) can0 50A#637E7EFF00000000
(1716196047.656220) can0 50F#0000000000000000
(1716196047.676199) can0 186#1415
(1716196047.696221) can0 501#0844065C3036116D
(1716196047.735940) can0 50A#637E7EFF00000000
(1716196047.771589) can0 182#EA565F00
(1716196047.772730) can0 183#0000000087005F00
(1716196047.773563) can0 185#1313131414141314
(1716196047.795926) can0 501#084106812F35116C
(1716196047.836186) can0 50A#637E7EFF00000000
(1716196047.896227) can0 501#083E069330361167
(1716196047.921575) can0 460#000364FCFFFFCADC
(1716196047.922812) can0 462#001300155F001A
(1716196047.923378) can0 463#00003524
(1716196047.924400) can0 461#0F000000
(1716196047.925666) can0 464#000000000000AE41
(1716196047.926604) can0 466#0042070200000000
(1716196047.927773) can0 468#0303
(1716196047.936153) can0 50A#637E7EFF00000000
(1716196047.955951) can0 50C#461A000000000100
(1716196047.996156) can0 501#083F067C2F341164
(1716196048.026640) can0 186#1415
(1716196048.036161) can0 50A#637E7EFF00000000
(1716196048.056157) can0 500#000F000001C40000
(1716196048.096116) can0 501#0840066B3036116E
(1716196048.121599) can0 182#D4565F00
(1716196048.122879) can0 183#0000000088005F00
(1716196048.123939) can0 185#1313131414141314
(1716196048.136209) can0 50A#637E7EFF00000000
(1716196048.156171) can0 502#c000000000000000
(1716196048.196212) can0 501#0845066A30351171
(1716196048.222001) can0 460#0003644BFFFFCACF
(1716196048.222697) can0 462#001300155F001A
(1716196048.223909) can0 463#00003531
(1716196048.224546) can0 461#01151313
(1716196048.225929) can0 464#000000000000AE41
(1716196048.226920) can0 466#0042070200000000
(1716196048.227502) can0 468#0303
(1716196048.235923) can0 50A#637E7EFF00000000
(1716196048.256144) can0 503#01165A0671000A00
(1716196048.296112) can0 501#0840068C30351169
(1716196048.336205) can0 50A#637E7EFF00000000
(1716196048.356180) can0 505#08AEFAAF13155F00
(1716196048.376866) can0 186#1415
(1716196048.395884) can0 501#083D069B30351167
(1716196048.421943) can0 46A#019000DC
(1716196048.423390) can0 776#006409D8000001E0
(1716196048.435904) can0 50A#637E7EFF00000000
(1716196048.456176) can0 50C#461A000000000100
(1716196048.456346) can0 506#000002012E006600
(1716196048.472006) can0 182#D4565F00
(1716196048.472912) can0 183#0000000088005F00
(1716196048.474052) can0 185#1313131414141314
(1716196048.496113) can0 501#0841065A30351168
(1716196048.521949) can0 460#0003644BFFFFCAC2
(1716196048.522888) can0 462#001300155F001A
(1716196048.524331) can0 463#0000353E
(1716196048.524726) can0 461#02151314
(1716196048.526008) can0 464#000000000000AE41
(1716196048.527148) can0 466#0042070200000000
(1716196048.527686) can0 468#0303
(1716196048.536110) can0 50A#637E7EFF00000000
(1716196048.556104) can0 50D#0000007800000000
(1716196048.596060) can0 501#0841065C3036116D
(1716196048.636147) can0 50A#637E7EFF00000000
(1716196048.656125) can0 50F#0000000000000000
(1716196048.696047) can0 501#0843068130361171
(1716196048.727084) can0 186#1415
(1716196048.736172) can0 50A#637E7EFF00000000
(1716196048.796145) can0 501#0840067A30361169
(1716196048.822473) can0 460#0003636AFFFFCACF
(1716196048.823058) can0 462#001300155F001A
(1716196048.823948) can0 463#00003531
(1716196048.824905) can0 461#03151414
(1716196048.826334) can0 464#000000000000AE41
(1716196048.827388) can0 466#0042070200000000
(1716196048.827869) can0 468#0303
(1716196048.829231) can0 182#BD565F00
(1716196048.830321) can0 183#0000000088005F00
(1716196048.831649) can0 185#1313131414141314
(1716196048.836603) can0 50A#637E7EFF00000000
(1716196048.895890) can0 501#083B068C30351166
(1716196048.936108) can0 50A#637E7EFF00000000
(1716196048.955871) can0 50C#461A000000000100
(1716196048.996028) can0 501#083F06543036116D
(1716196049.036155) can0 50A#637E7EFF00000000
(1716196049.056096) can0 500#000F000001C40000
(1716196049.077332) can0 186#1415
(1716196049.095842) can0 501#0845065F3036116E
(1716196049.122540) can0 460#0003636AFFFFCAE8
(1716196049.123230) can0 462#001300155F001A
(1716196049.124527) can0 463#00003518
(1716196049.125139) can0 461#04151314
(1716196049.126469) can0 464#000000000000AE41
(1716196049.127501) can0 466#0042070200000000
(1716196049.128045) can0 468#0303
(1716196049.136141) can0 50A#637E7EFF00000000
(1716196049.156100) can0 502#c000000000000000
(1716196049.172212) can0 182#BD565F00
(1716196049.173309) can0 183#0000000087005F00
(1716196049.174255) can0 185#1313131414141314
(1716196049.195841) can0 501#0840068A3037116B
(1716196049.236138) can0 50A#637E7EFF00000000
(1716196049.256131) can0 503#0116570671000A00
(1716196049.296124) can0 501#083F069F30361167
(1716196049.336284) can0 50A#637E7EFF00000000
(1716196049.355829) can0 505#08ACFAB113155F00
(1716196049.396060) can0 501#083F067130351163
(1716196049.422903) can0 460#000362ADFFFFCAD5
(1716196049.423364) can0 462#001300155F001A
(1716196049.424431) can0 463#0000352B
(1716196049.425246) can0 461#05151415
(1716196049.426602) can0 464#000000000000AE41
(1716196049.427660) can0 466#0042070200000000
(1716196049.428186) can0 468#0303
(1716196049.429235) can0 46A#019000DC
(1716196049.430517) can0 186#1415
(1716196049.431648) can0 776#006409D8000001E0
(1716196049.436110) can0 50A#637E7EFF00000000
(1716196049.456063) can0 50C#461A000000000100
(1716196049.456274) can0 506#000002012D006600
(1716196049.495837) can0 501#083F06513037116B
(1716196049.522569) can0 182#A6565F00
(1716196049.523545) can0 183#0000000088005F00
(1716196049.524493) can0 185#1313131414141314
(1716196049.536117) can0 50A#637E7EFF00000000
(1716196049.556061) can0 50D#0000007800000000
(1716196049.595814) can0 501#0843065E3036116B
(1716196049.635833) can0 50A#637E7EFF00000000
(1716196049.656128) can0 50F#0000000000000000
(1716196049.695993) can0 501#083F068430371162
(1716196049.722586) can0 460#00036280FFFFCAAF
(1716196049.723528) can0 462#001300155F001A
(1716196049.724399) can0 463#00003551
(1716196049.725811) can0 461#06000000
(1716196049.726735) can0 464#000000000000AE41
(1716196049.728046) can0 466#0042070200000000
(1716196049.728359) can0 468#0303
(1716196049.735838) can0 50A#637E7EFF00000000
(1716196049.777477) can0 186#1415
(1716196049.796102) can0 501#083C069A30361164
(1716196049.835791) can0 50A#637E7EFF00000000
(1716196049.872838) can0 182#A6565F00
(1716196049.874106) can0 183#0000000088005F00
(1716196049.874625) can0 185#1313131414141314
(1716196049.895966) can0 501#083F065E30361165
(1716196049.936091) can0 50A#637E7EFF00000000
(1716196049.956028) can0 50C#461A000000000100
(1716196049.995992) can0 501#0843066230361168
(1716196050.023210) can0 460#00036280FFFFCADC
(1716196050.023704) can0 462#001300155F001A
(1716196050.024763) can0 463#00003524
(1716196050.025768) can0 461#07000000
(1716196050.026959) can0 464#000000000000AE41
(1716196050.027805) can0 466#0042070200000000
(1716196050.028503) can0 468#0303
(1716196050.035756) can0 50A#637E7EFF00000000
(1716196050.056091) can0 500#000F000001C40000
(1716196050.096041) can0 501#0841068430371162
(1716196050.127678) can0 186#1415
(1716196050.136063) can0 50A#637E7EFF00000000
(1716196050.155762) can0 502#c000000000000000
(1716196050.195965) can0 501#083E069330371157
(1716196050.222910) can0 182#98565F00
(1716196050.224062) can0 183#0000000088005F00
(1716196050.224866) can0 185#1313131414141314
(1716196050.236054) can0 50A#637E7EFF00000000
(1716196050.255987) can0 503#0116590671000A00
(1716196050.295971) can0 501#083D06793036115F
(1716196050.322910) can0 460#0003619BFFFFCAF5
(1716196050.324109) can0 462#001300155F001A
(1716196050.324753) can0 463#0000350B
(1716196050.325933) can0 461#08000000
(1716196050.327151) can0 464#000000000000AE41
(1716196050.328147) can0 466#0042070200000000
(1716196050.328670) can0 468#0303
(1716196050.336031) can0 50A#637E7EFF00000000
(1716196050.355963) can0 505#08A7FAB313155F00
(1716196050.395964) can0 501#084006693037116E
(1716196050.423058) can0 46A#019000DC
(1716196050.424158) can0 776#006409D8000001E0
(1716196050.435731) can0 50A#637E7EFF00000000
(1716196050.455911) can0 50C#461A000000000100
(1716196050.456208) can0 506#000002012C006600
(1716196050.478021) can0 186#1415
(1716196050.496010) can0 501#0844066830371168
(1716196050.536040) can0 50A#637E7EFF00000000
(1716196050.556053) can0 50D#0000007800000000
(1716196050.572963) can0 182#8F565F00
(1716196050.574294) can0 183#0000000087005F00
(1716196050.575634) can0 185#1313131414141314
(1716196050.595728) can0 501#083E067C3037115F
(1716196050.623432) can0 460#0003619BFFFFCADC
