(1716195826.139479) can0 50A#087D7DFF00000000
(1716195826.146647) can0 460#0003A654FFFFFFE7
(1716195826.147402) can0 462#00130014610019
(1716195826.148445) can0 463#00000019
(1716195826.149223) can0 461#0B000000
(1716195826.150611) can0 464#000000000000AE41
(1716195826.151583) can0 466#0042070200000000
(1716195826.152180) can0 468#0303
(1716195826.153224) can0 182#6E5D6100
(1716195826.154410) can0 183#0000000000006100
(1716195826.155403) can0 185#1313131314141313
(1716195826.199777) can0 501#0968000015140000
(1716195826.239491) can0 50A#087D7DFF00000000
(1716195826.259498) can0 50C#281A000000000100
(1716195826.299704) can0 501#0968000015140000
(1716195826.339778) can0 50A#087D7DFF00000000
(1716195826.346630) can0 46A#019000DC
(1716195826.347850) can0 776#006409D8000001E0
(1716195826.360223) can0 500#000F000001C40000
(1716195826.399707) can0 501#0968000015140000
(1716195826.401463) can0 186#1414
(1716195826.439784) can0 50A#087D7DFF00000000
(1716195826.446532) can0 460#0003A652FFFFFFE7
(1716195826.447450) can0 462#0013001461001A
(1716195826.448337) can0 463#00000019
(1716195826.449407) can0 461#0C000000
(1716195826.450615) can0 464#000000000000AE41
(1716195826.451776) can0 466#0042070200000000
(1716195826.452278) can0 468#0303
(1716195826.459629) can0 502#0000000000000000
(1716195826.496626) can0 182#6E5D6100
(1716195826.497529) can0 183#0000000000006100
(1716195826.498832) can0 185#1313131314141313
(1716195826.499586) can0 501#0968000015140000
(1716195826.539781) can0 50A#087D7DFF00000000
(1716195826.559725) can0 503#0000000000000000
(1716195826.599683) can0 501#0968000015140000
(1716195826.639820) can0 50A#087D7DFF00000000
(1716195826.659760) can0 505#0957FFFE13146100
(1716195826.699689) can0 501#0968000015140000
(1716195826.739689) can0 50A#087D7DFF00000000
(1716195826.746868) can0 460#0003A651FFFFFFE7
(1716195826.747581) can0 462#00130014610019
(1716195826.749049) can0 463#00000019
(1716195826.749460) can0 461#0D000000
(1716195826.750806) can0 464#000000000000AE41
(1716195826.751863) can0 466#0042070200000000
(1716195826.752390) can0 468#0303
(1716195826.753380) can0 186#1414
(1716195826.759546) can0 50C#281A000000000100
(1716195826.759922) can0 506#0000020000EA5F00
(1716195826.799854) can0 501#0968000015140000
(1716195826.839763) can0 50A#087D7DFF00000000
(1716195826.846809) can0 182#6E5D6100
(1716195826.848062) can0 183#0000000000006100
(1716195826.848623) can0 185#1313131314141313
(1716195826.860185) can0 50D#0000007C00000000
(1716195826.899693) can0 501#0968000015140000
(1716195826.939765) can0 50A#087D7DFF00000000
(1716195826.959532) can0 50F#0000000000000000
(1716195826.999676) can0 501#0968000015140000
(1716195827.039667) can0 50A#087D7DFF00000000
(1716195827.046908) can0 460#0003A650FFFFFFE7
(1716195827.047850) can0 462#00130014610019
(1716195827.048754) can0 463#00000019
(1716195827.049745) can0 461#0E000000
(1716195827.050920) can0 464#000000000000AE41
(1716195827.051976) can0 466#0042070200000000
(1716195827.052490) can0 468#0303
(1716195827.099770) can0 501#0968000015140000
(1716195827.101560) can0 186#1414
(1716195827.139728) can0 50A#087D7DFF00000000
(1716195827.196978) can0 182#6E5D6100
(1716195827.198105) can0 183#0000000000006100
(1716195827.198763) can0 185#1313131414141313
(1716195827.199445) can0 501#0968000015140000
(1716195827.240024) can0 50A#087D7DFF00000000
(1716195827.259464) can0 50C#281A000000000100
(1716195827.299631) can0 501#0968000015140000
(1716195827.339772) can0 50A#087D7DFF00000000
(1716195827.346963) can0 460#0003A64FFFFFFFE7
(1716195827.348158) can0 462#0013001461001A
(1716195827.348679) can0 463#00000019
(1716195827.349706) can0 461#0F000000
(1716195827.350849) can0 464#000000000000AE41
(1716195827.352035) can0 466#0042070200000000
(1716195827.352657) can0 468#0303
(1716195827.353676) can0 46A#019000DC
(1716195827.355089) can0 776#006409D8000001E0
(1716195827.359428) can0 500#000F000001C40000
(1716195827.399679) can0 501#0968000015140000
(1716195827.439677) can0 50A#087D7DFF00000000
(1716195827.451926) can0 186#1415
(1716195827.459693) can0 502#0000000000000000
(1716195827.499446) can0 501#0968000015140000
(1716195827.539421) can0 50A#087D7DFF00000000
(1716195827.546771) can0 182#6E5D6100
(1716195827.547917) can0 183#0000000000006100
(1716195827.548889) can0 185#1313131414141313
(1716195827.559460) can0 503#0000000000000000
(1716195827.599453) can0 501#0968000015140000
(1716195827.639430) can0 50A#087D7DFF00000000
(1716195827.647064) can0 460#0003A64FFFFFFFE7
(1716195827.647905) can0 462#00130014610019
(1716195827.648810) can0 463#00000019
(1716195827.649800) can0 461#01151313
(1716195827.650974) can0 464#000000000000AE41
(1716195827.651962) can0 466#0042070200000000
(1716195827.652722) can0 468#0303
(1716195827.659395) can0 505#0957FFFE13146100
(1716195827.699675) can0 501#0968000015140000
(1716195827.739910) can0 50A#087D7DFF00000000
(1716195827.759446) can0 50C#281A000000000100
(1716195827.759919) can0 506#0000020000EA5F00
(1716195827.799673) can0 501#0968000015140000
(1716195827.801876) can0 186#1415
(1716195827.839437) can0 50A#087D7DFF00000000
(1716195827.859728) can0 50D#0000007C00000000
(1716195827.896903) can0 182#6E5D6100
(1716195827.898043) can0 183#0000000000006100
(1716195827.899013) can0 185#1313131414141313
(1716195827.899462) can0 501#0968000015140000
(1716195827.939664) can0 50A#087D7DFF00000000
(1716195827.947095) can0 460#0003A64FFFFFFFE7
(1716195827.948025) can0 462#00130014610019
(1716195827.948921) can0 463#00000019
(1716195827.949871) can0 461#02141314
(1716195827.951061) can0 464#000000000000AE41
(1716195827.952073) can0 466#0042070200000000
(1716195827.952826) can0 468#0303
(1716195827.959678) can0 50F#0000000000000000
(1716195827.999674) can0 501#0968000015140000
(1716195828.039504) can0 50A#087D7DFF00000000
(1716195828.099440) can0 501#0968000015140000
(1716195828.139401) can0 50A#087D7DFF00000000
(1716195828.151903) can0 186#1415
(1716195828.199420) can0 501#0968000015140000
(1716195828.239398) can0 50A#087D7DFF00000000
(1716195828.247166) can0 460#0003A64FFFFFFFE7
(1716195828.248117) can0 462#0013001461001A
(1716195828.249023) can0 463#00000019
(1716195828.250006) can0 461#03151414
(1716195828.251151) can0 464#000000000000AE41
(1716195828.252153) can0 466#0042070200000000
(1716195828.252944) can0 468#0303
(1716195828.253998) can0 182#6E5D6100
(1716195828.255187) can0 183#0000000000006100
(1716195828.256146) can0 185#1313131414141313
(1716195828.259413) can0 50C#281A000000000100
(1716195828.299396) can0 501#0968000015140000
(1716195828.339420) can0 50A#087D7DFF00000000
(1716195828.347167) can0 46A#019000DC
(1716195828.348197) can0 776#006409D8000001E0
(1716195828.359418) can0 500#000F000001C40000
(1716195828.399417) can0 501#0968000015140000
(1716195828.439420) can0 50A#087D7DFF00000000
(1716195828.459417) can0 502#0000000000000000
(1716195828.499544) can0 501#0968000015140000
(1716195828.502023) can0 186#1415
(1716195828.539398) can0 50A#087D7DFF00000000
(1716195828.547234) can0 460#0003A64EFFFFFFE7
(1716195828.548205) can0 462#0013001461001A
(1716195828.549094) can0 463#00000019
(1716195828.550124) can0 461#04151313
(1716195828.551267) can0 464#000000000000AE41
(1716195828.552256) can0 466#0042070200000000
(1716195828.553026) can0 468#0303
(1716195828.559543) can0 503#0000000000000000
(1716195828.597113) can0 182#6E5D6100
(1716195828.598271) can0 183#0000000000006100
(1716195828.599245) can0 185#1313131414141313
(1716195828.599727) can0 501#0968000015140000
(1716195828.639872) can0 50A#087D7DFF00000000
(1716195828.659408) can0 505#0957FFFE13146100
(1716195828.699433) can0 501#0968000015140000
(1716195828.739479) can0 50A#087D7DFF00000000
(1716195828.759433) can0 50C#281A000000000100
(1716195828.759901) can0 506#0000020000EA5F00
(1716195828.799419) can0 501#0968000015140000
(1716195828.839437) can0 50A#087D7DFF00000000
(1716195828.847350) can0 460#0003A64EFFFFFFE7
(1716195828.848274) can0 462#00130014610019
(1716195828.849181) can0 463#00000019
(1716195828.850169) can0 461#05151415
(1716195828.851374) can0 464#000000000000AE41
(1716195828.852514) can0 466#0042070200000000
(1716195828.853111) can0 468#0303
(1716195828.854436) can0 186#1415
(1716195828.859669) can0 50D#0000007C00000000
(1716195828.899675) can0 501#0968000015140000
(1716195828.939689) can0 50A#087D7DFF00000000
(1716195828.947396) can0 182#6E5D6100
(1716195828.948591) can0 183#0000000000006100
(1716195828.949310) can0 185#1313131414141313
(1716195828.959439) can0 50F#0000000000000000
(1716195828.999932) can0 501#0968000015140000
(1716195829.039428) can0 50A#087D7DFF00000000
(1716195829.099415) can0 501#0968000015140000
(1716195829.139757) can0 50A#087D7DFF00000000
(1716195829.147411) can0 460#0003A64CFFFFFFE7
(1716195829.148355) can0 462#00130014610019
(1716195829.149246) can0 463#00000019
(1716195829.150262) can0 461#06000000
(1716195829.151398) can0 464#000000000000AE41
(1716195829.152397) can0 466#0042070200000000
(1716195829.153169) can0 468#0303
(1716195829.199409) can0 501#0968000015140000
(1716195829.202188) can0 186#1415
(1716195829.239414) can0 50A#087D7DFF00000000
(1716195829.259367) can0 50C#281A000000000100
(1716195829.297312) can0 182#6D5D6100
(1716195829.298649) can0 183#0000000000006100
(1716195829.299385) can0 501#0968000015140000
(1716195829.299829) can0 185#1313131314141313
(1716195829.339494) can0 50A#087D7DFF00000000
(1716195829.347317) can0 46A#019000DC
(1716195829.348496) can0 776#006409D8000001E0
(1716195829.359409) can0 500#000F000001C40000
(1716195829.399400) can0 501#0968000015140000
(1716195829.439419) can0 50A#087D7DFF00000000
(1716195829.447540) can0 460#0003A64BFFFFFFE7
(1716195829.448439) can0 462#00130014610019
(1716195829.449323) can0 463#00000019
(1716195829.450336) can0 461#07000000
(1716195829.451505) can0 464#000000000000AE41
(1716195829.452492) can0 466#0042070200000000
(1716195829.453283) can0 468#0303
(1716195829.459411) can0 502#0000000000000000
(1716195829.499385) can0 501#0968000015140000
(1716195829.539406) can0 50A#087D7DFF00000000
(1716195829.552293) can0 186#1415
(1716195829.559415) can0 503#0000000000000000
(1716195829.599402) can0 501#0968000015140000
(1716195829.639644) can0 50A#087D7DFF00000000
(1716195829.647622) can0 182#6D5D6100
(1716195829.648952) can0 183#0000000000006100
(1716195829.649827) can0 185#1313131314141313
(1716195829.659407) can0 505#0957FFFE13146100
(1716195829.699780) can0 501#0968000015140000
(1716195829.739391) can0 50A#087D7DFF00000000
(1716195829.747565) can0 460#0003A64BFFFFFFE7
(1716195829.748646) can0 462#00130014610019
(1716195829.749432) can0 463#00000019
(1716195829.750413) can0 461#08000000
(1716195829.751550) can0 464#000000000000AE41
(1716195829.752560) can0 466#0042070200000000
(1716195829.753356) can0 468#0303
(1716195829.759519) can0 50C#281A000000000100
(1716195829.759879) can0 506#0000020000EA5F00
(1716195829.799387) can0 501#0968000015140000
(1716195829.839419) can0 50A#087D7DFF00000000
(1716195829.859423) can0 50D#0000007C00000000
(1716195829.899398) can0 501#0968000015140000
(1716195829.902386) can0 186#1415
(1716195829.939492) can0 50A#087D7DFF00000000
(1716195829.959406) can0 50F#0000000000000000
(1716195829.997478) can0 182#6D5D6100
(1716195829.998639) can0 183#0000000000006100
(1716195829.999490) can0 501#0968000015140000
(1716195829.999840) can0 185#1313131314141313
(1716195830.039406) can0 50A#087D7DFF00000000
(1716195830.047642) can0 460#0003A649FFFFFFE7
(1716195830.048616) can0 462#00130014610019
(1716195830.049500) can0 463#00000019
(1716195830.050502) can0 461#09000000
(1716195830.051667) can0 464#000000000000AE41
(1716195830.052648) can0 466#0042070200000000
(1716195830.053460) can0 468#0303
(1716195830.099387) can0 501#0968000015140000
(1716195830.139395) can0 50A#087D7DFF00000000
(1716195830.199724) can0 501#0968000015140000
(1716195830.239642) can0 50A#087D7DFF00000000
(1716195830.252866) can0 186#1415
(1716195830.259402) can0 50C#281A000000000100
(1716195830.299604) can0 501#0968000015140000
(1716195830.339434) can0 50A#087D7DFF00000000
(1716195830.347761) can0 460#0003A649FFFFFFE0
(1716195830.348692) can0 462#00130014610019
(1716195830.349558) can0 463#00000020
(1716195830.350574) can0 461#0A000000
(1716195830.351746) can0 464#000000000000AE41
(1716195830.352740) can0 466#0042070200000000
(1716195830.353519) can0 468#0303
(1716195830.354584) can0 46A#019000DC
(1716195830.355601) can0 182#6D5D6100
(1716195830.356752) can0 183#0000000000006100
(1716195830.357741) can0 185#1313131314141313
(1716195830.358745) can0 776#006409D8000001E0
(1716195830.359395) can0 500#000F000001C40000
(1716195830.399393) can0 501#0968000015140000
(1716195830.439519) can0 50A#087D7DFF00000000
(1716195830.459418) can0 502#0000000000000000
(1716195830.499406) can0 501#0968000015140000
(1716195830.539400) can0 50A#087D7DFF00000000
(1716195830.559422) can0 503#0000000000000000
(1716195830.599381) can0 501#0967000015140000
(1716195830.602575) can0 186#1415
(1716195830.639392) can0 50A#087D7DFF00000000
(1716195830.647811) can0 460#0003A648FFFFFFE7
(1716195830.648762) can0 462#00130014610019
(1716195830.649678) can0 463#00000019
(1716195830.650682) can0 461#0B000000
(1716195830.651835) can0 464#000000000000AE41
(1716195830.652815) can0 466#0042070200000000
(1716195830.653610) can0 468#0303
(1716195830.659365) can0 505#0957FFFE13146100
(1716195830.697680) can0 182#6D5D6100
(1716195830.698837) can0 183#0000000000006100
(1716195830.699381) can0 501#0968000015140000
(1716195830.699853) can0 185#1313131314141313
(1716195830.739360) can0 50A#087D7DFF00000000
(1716195830.759389) can0 50C#281A000000000100
(1716195830.759856) can0 506#0000020000EA5F00
(1716195830.799372) can0 501#0968000015140000
(1716195830.839366) can0 50A#087D7DFF00000000
(1716195830.859372) can0 50D#0000007C00000000
(1716195830.899371) can0 501#0968000015140000
(1716195830.939385) can0 50A#087D7DFF00000000
(1716195830.947917) can0 460#0003A647FFFFFFE0
(1716195830.948870) can0 462#0013001461001A
(1716195830.949770) can0 463#00000020
(1716195830.950787) can0 461#0C000000
(1716195830.951928) can0 464#000000000000AE41
(1716195830.952911) can0 466#0042070200000000
(1716195830.953705) can0 468#0303
(1716195830.954705) can0 186#1415
(1716195830.959383) can0 50F#0000000000000000
(1716195830.999370) can0 501#0968000015140000
(1716195831.039391) can0 50A#087D7DFF00000000
(1716195831.047984) can0 182#6D5D6100
(1716195831.048956) can0 183#0000000000006100
(1716195831.049919) can0 185#1313131314141313
(1716195831.099695) can0 501#0968000015140000
(1716195831.139419) can0 50A#087D7DFF00000000
(1716195831.199687) can0 501#0968000015140000
(1716195831.239379) can0 50A#087D7DFF00000000
(1716195831.248002) can0 460#0003A646FFFFFFE7
(1716195831.248924) can0 462#0013001461001A
(1716195831.249821) can0 463#00000019
(1716195831.250810) can0 461#0D000000
(1716195831.251974) can0 464#000000000000AE41
(1716195831.252961) can0 466#0042070200000000
(1716195831.253753) can0 468#0303
(1716195831.259341) can0 50C#281A000000000100
(1716195831.299352) can0 501#0968000015140000
(1716195831.302791) can0 186#1415
(1716195831.339376) can0 50A#087D7DFF00000000
(1716195831.347901) can0 46A#019000DC
(1716195831.349028) can0 776#006409D8000001E0
(1716195831.359371) can0 500#000F000001C40000
(1716195831.397923) can0 182#6D5D6100
(1716195831.399042) can0 183#0000000000006100
(1716195831.399540) can0 501#0968000015140000
(1716195831.400023) can0 185#1313131414141313
(1716195831.439563) can0 50A#087D7DFF00000000
(1716195831.459621) can0 502#0000000000000000
(1716195831.499338) can0 501#0968000015140000
(1716195831.539506) can0 50A#087D7DFF00000000
(1716195831.548064) can0 460#0003A643FFFFFFE7
(1716195831.549014) can0 462#00130014610019
(1716195831.549931) can0 463#00000019
(1716195831.550928) can0 461#0E000000
(1716195831.552096) can0 464#000000000000AE41
(1716195831.553085) can0 466#0042070200000000
(1716195831.553871) can0 468#0303
(1716195831.559374) can0 503#0000000000000000
(1716195831.599363) can0 501#0968000015140000
(1716195831.639350) can0 50A#087D7DFF00000000
(1716195831.652875) can0 186#1415
(1716195831.659326) can0 505#0957FFFE13146100
(1716195831.699335) can0 501#0968000015140000
(1716195831.739606) can0 50A#087D7DFF00000000
(1716195831.748309) can0 182#6D5D6100
(1716195831.749153) can0 183#0000000000006100
(1716195831.750088) can0 185#1313131414141313
(1716195831.759615) can0 50C#281A000000000100
(1716195831.759867) can0 506#0000020000EA5F00
(1716195831.799671) can0 501#0968000015140000
(1716195831.839389) can0 50A#087D7DFF00000000
(1716195831.848150) can0 460#0003A643FFFFFFE7
(1716195831.849116) can0 462#00130014610019
(1716195831.850003) can0 463#00000019
(1716195831.851004) can0 461#0F000000
(1716195831.852161) can0 464#000000000000AE41
(1716195831.853147) can0 466#0042070200000000
(1716195831.854146) can0 468#0303
(1716195831.859370) can0 50D#0000007C00000000
(1716195831.899347) can0 501#0968000015140000
(1716195831.939349) can0 50A#087D7DFF00000000
(1716195831.959436) can0 50F#0000000000000000
(1716195831.999319) can0 501#0968000015140000
(1716195832.002975) can0 186#1415
(1716195832.039358) can0 50A#087D7DFF00000000
(1716195832.098084) can0 182#6D5D6100
(1716195832.099226) can0 183#0000000000006100
(1716195832.099704) can0 501#0968000015140000
(1716195832.100191) can0 185#1313131414141313
(1716195832.139561) can0 50A#087D7DFF00000000
(1716195832.148540) can0 460#0003A643FFFFFFE0
(1716195832.149171) can0 462#00130014610019
(1716195832.150240) can0 463#00000020
(1716195832.151032) can0 461#01151313
(1716195832.152466) can0 464#000000000000AE41
(1716195832.153259) can0 466#0042070200000000
(1716195832.153984) can0 468#0303
(1716195832.199540) can0 501#0968000015140000
(1716195832.239536) can0 50A#087D7DFF00000000
(1716195832.259318) can0 50C#281A000000000100
(1716195832.299301) can0 501#0968000015140000
(1716195832.339518) can0 50A#087D7DFF00000000
(1716195832.348479) can0 46A#019000DC
(1716195832.349209) can0 776#006409D8000001E0
(1716195832.352992) can0 186#1415
(1716195832.359529) can0 500#000F000001C40000
(1716195832.399564) can0 501#0968000015140000
(1716195832.439562) can0 50A#087D7DFF00000000
(1716195832.448240) can0 460#0003A642FFFFFFE0
(1716195832.449164) can0 462#00130014610019
(1716195832.450064) can0 463#00000020
(1716195832.451059) can0 461#02141314
(1716195832.452851) can0 464#000000000000AE41
(1716195832.453273) can0 466#0042070200000000
(1716195832.454196) can0 468#0303
(1716195832.455295) can0 182#6D5D6100
(1716195832.456274) can0 183#0000000000006100
(1716195832.457213) can0 185#1313131414141313
(1716195832.459491) can0 502#0000000000000000
(1716195832.499554) can0 501#0968000015140000
(1716195832.539617) can0 50A#087D7DFF00000000
(1716195832.559557) can0 503#0000000000000000
(1716195832.599525) can0 501#0968000015140000
(1716195832.639436) can0 50A#087D7DFF00000000
(1716195832.659203) can0 505#0957FFFD13146100
(1716195832.699211) can0 501#0968000015140000
(1716195832.703356) can0 186#1415
(1716195832.739431) can0 50A#087D7DFF00000000
(1716195832.748569) can0 460#0003A641FFFFFFE0
(1716195832.749195) can0 462#00130014610019
(1716195832.750386) can0 463#00000020
(1716195832.751061) can0 461#03151414
(1716195832.752246) can0 464#000000000000AE41
(1716195832.753245) can0 466#0042070200000000
(1716195832.754004) can0 468#0303
(1716195832.759411) can0 50C#281A000000000100
(1716195832.759716) can0 506#0000020000EA5F00
(1716195832.798346) can0 182#6C5D6100
(1716195832.799202) can0 501#0967000015140000
(1716195832.800184) can0 183#0000000000006100
(1716195832.800234) can0 185#1313131414141313
(1716195832.839464) can0 50A#087D7DFF00000000
(1716195832.859412) can0 50D#0000007C00000000
(1716195832.899456) can0 501#0968000015140000
(1716195832.939444) can0 50A#087D7DFF00000000
(1716195832.959447) can0 50F#0000000000000000
(1716195832.999431) can0 501#0968000015140000
(1716195833.039360) can0 50A#087D7DFF00000000
(1716195833.048305) can0 460#0003A640FFFFFFE7
(1716195833.049213) can0 462#0013001461001A
(1716195833.050439) can0 463#00000019
(1716195833.051110) can0 461#04151313
(1716195833.052599) can0 464#000000000000AE41
(1716195833.053285) can0 466#0042070200000000
(1716195833.054355) can0 468#0303
(1716195833.055066) can0 186#1415
(1716195833.099111) can0 501#0968000015140000
(1716195833.139331) can0 50A#087D7DFF00000000
(1716195833.148453) can0 182#6C5D6100
(1716195833.149360) can0 183#0000000000006100
(1716195833.150244) can0 185#1313131414141313
(1716195833.199382) can0 501#0968000015140000
(1716195833.239067) can0 50A#087D7DFF00000000
(1716195833.259084) can0 50C#281A000000000100
(1716195833.299075) can0 501#0968000015140000
(1716195833.339425) can0 50A#087D7DFF00000000
(1716195833.348527) can0 460#0003A640FFFFFFE7
(1716195833.349243) can0 462#00130014610019
(1716195833.350126) can0 463#00000019
(1716195833.351122) can0 461#05151415
(1716195833.352295) can0 464#000000000000AE41
(1716195833.353248) can0 466#0042070200000000
(1716195833.354040) can0 468#0303
(1716195833.355114) can0 46A#019000DC
(1716195833.356464) can0 776#006409D8000001E0
(1716195833.359287) can0 500#000F000001C40000
(1716195833.399339) can0 501#0968000015140000
(1716195833.403095) can0 186#1415
(1716195833.439318) can0 50A#087D7DFF00000000
(1716195833.459069) can0 502#0000000000000000
(1716195833.498427) can0 182#6C5D6100
(1716195833.498988) can0 501#0968000015140000
(1716195833.499831) can0 183#0000000000006100
(1716195833.500364) can0 185#1313131314141313
(1716195833.539042) can0 50A#087D7DFF00000000
(1716195833.559323) can0 503#0000000000000000
(1716195833.599293) can0 501#0967000015140000
(1716195833.639161) can0 50A#087D7DFF00000000
(1716195833.648580) can0 460#0003A63FFFFFFFE7
(1716195833.649246) can0 462#0013001461001A
(1716195833.650432) can0 463#00000019
(1716195833.651166) can0 461#06000000
(1716195833.652689) can0 464#000000000000AE41
(1716195833.653269) can0 466#0042070200000000
(1716195833.654364) can0 468#0303
(1716195833.658956) can0 505#0957FFFE13146100
(1716195833.698951) can0 501#0967000015140000
(1716195833.739198) can0 50A#087D7DFF00000000
(1716195833.753087) can0 186#1415
(1716195833.758957) can0 50C#281A000000000100
(1716195833.759448) can0 506#0000020000EA5F00
(1716195833.799154) can0 501#0968000015140000
(1716195833.839243) can0 50A#087D7DFF00000000
(1716195833.848175) can0 182#6C5D6100
(1716195833.849807) can0 183#0000000000006100
(1716195833.850275) can0 185#1313131314141313
(1716195833.859175) can0 50D#0000007C00000000
(1716195833.899230) can0 501#0968000015140000
(1716195833.939187) can0 50A#087D7DFF00000000
(1716195833.948626) can0 460#0003A63FFFFFFFE7
(1716195833.949435) can0 462#00130014610019
(1716195833.950228) can0 463#00000019
(1716195833.951463) can0 461#07000000
(1716195833.952633) can0 464#000000000000AE41
(1716195833.953290) can0 466#0042070200000000
(1716195833.954339) can0 468#0303
(1716195833.959230) can0 50F#0000000000000000
(1716195833.999207) can0 501#0968000015140000
(1716195834.039167) can0 50A#087D7DFF00000000
(1716195834.099173) can0 501#0967000015140000
(1716195834.103420) can0 186#1415
(1716195834.139154) can0 50A#087D7DFF00000000
(1716195834.198507) can0 182#6C5D6100
(1716195834.198796) can0 501#0967000015140000
(1716195834.199771) can0 183#0000000000006100
(1716195834.200301) can0 185#1313131314141313
(1716195834.239297) can0 50A#087D7DFF00000000
(1716195834.248477) can0 460#0003A63DFFFFFFE7
(1716195834.249271) can0 462#00130014610019
(1716195834.250538) can0 463#00000019
(1716195834.251193) can0 461#08000000
(1716195834.252356) can0 464#000000000000AE41
(1716195834.253313) can0 466#0042070200000000
(1716195834.254390) can0 468#0303
(1716195834.258970) can0 50C#281A000000000100
(1716195834.298999) can0 501#0967000015140000
(1716195834.339132) can0 50A#087D7DFF00000000
(1716195834.348539) can0 46A#019000DC
(1716195834.349434) can0 776#006409D8000001E0
(1716195834.358862) can0 500#000F000001C40000
(1716195834.398911) can0 501#0968000015140000
(1716195834.439110) can0 50A#087D7DFF00000000
(1716195834.453164) can0 186#1415
(1716195834.459146) can0 502#0000000000000000
(1716195834.499153) can0 501#0968000015140000
(1716195834.539081) can0 50A#087D7DFF00000000
(1716195834.548684) can0 460#0003A63DFFFFFFE7
(1716195834.549358) can0 462#00130014610019
(1716195834.550626) can0 463#00000019
(1716195834.551262) can0 461#09000000
(1716195834.552657) can0 464#000000000000AE41
(1716195834.553488) can0 466#0042070200000000
(1716195834.554162) can0 468#0303
(1716195834.555570) can0 182#6C5D6100
(1716195834.556383) can0 183#0000000000006100
(1716195834.557337) can0 185#1313131314141313
(1716195834.559077) can0 503#0000000000000000
(1716195834.598986) can0 501#0967000015140000
(1716195834.639504) can0 50A#087D7DFF00000000
(1716195834.658950) can0 505#0957FFFE13146100
(1716195834.698850) can0 501#0968000015140000
(1716195834.739034) can0 50A#087D7DFF00000000
(1716195834.758971) can0 50C#281A000000000100
(1716195834.759243) can0 506#0000020000EA5F00
(1716195834.798868) can0 501#0967000015140000
(1716195834.803481) can0 186#1415
(1716195834.839022) can0 50A#087D7DFF00000000
(1716195834.848899) can0 460#0003A63BFFFFFFE7
(1716195834.849343) can0 462#0013001461001A
(1716195834.850283) can0 463#00000019
(1716195834.851227) can0 461#0A000000
(1716195834.852389) can0 464#000000000000AE41
(1716195834.853375) can0 466#0042070200000000
(1716195834.854786) can0 468#0303
(1716195834.858938) can0 50D#0000007C00000000
(1716195834.898275) can0 182#6C5D6100
(1716195834.898724) can0 501#0968000015140000
(1716195834.899585) can0 183#0000000000006100
(1716195834.900656) can0 185#1313131314141313
(1716195834.938997) can0 50A#087D7DFF00000000
(1716195834.959000) can0 50F#0000000000000000
(1716195834.999030) can0 501#0968000015140000
(1716195835.038980) can0 50A#087D7DFF00000000
(1716195835.098957) can0 501#0968000015140000
(1716195835.138825) can0 50A#087D7DFF00000000
(1716195835.148446) can0 460#0003A63BFFFFFFE7
(1716195835.149409) can0 462#00130014610019
(1716195835.150653) can0 463#00000019
(1716195835.151607) can0 461#0B000000
(1716195835.152396) can0 464#000000000000AE41
(1716195835.153869) can0 466#0042070200000000
(1716195835.154198) can0 468#0303
(1716195835.155523) can0 186#1415
(1716195835.198649) can0 501#0967000015140000
(1716195835.239356) can0 50A#087D7DFF00000000
(1716195835.248389) can0 182#6C5D6100
(1716195835.249471) can0 183#0000000000006100
(1716195835.250701) can0 185#1313131314141313
(1716195835.258623) can0 50C#281A000000000100
(1716195835.298612) can0 501#0968000015140000
(1716195835.338896) can0 50A#087D7DFF00000000
(1716195835.348334) can0 46A#019000DC
(1716195835.349410) can0 776#006409D8000001E0
(1716195835.358565) can0 500#000F000001C40000
(1716195835.398592) can0 501#0968000015140000
(1716195835.438881) can0 50A#087D7DFF00000000
(1716195835.448554) can0 460#0003A63BFFFFFFE7
(1716195835.449373) can0 462#0013001461001A
(1716195835.450652) can0 463#00000019
(1716195835.451471) can0 461#0C000000
(1716195835.452431) can0 464#000000000000AE41
(1716195835.453408) can0 466#0042070200000000
(1716195835.454289) can0 468#0303
(1716195835.458838) can0 502#0000000000000000
(1716195835.498688) can0 501#0968000015140000
(1716195835.503523) can0 186#1415
(1716195835.538860) can0 50A#087D7DFF00000000
(1716195835.558880) can0 503#0000000000000000
(1716195835.598586) can0 182#6C5D6100
(1716195835.598720) can0 501#0967000015140000
(1716195835.599846) can0 183#0000000000006100
(1716195835.600399) can0 185#1313131414141313
(1716195835.638513) can0 50A#087D7DFF00000000
(1716195835.658516) can0 505#0957FFFE13146100
(1716195835.698767) can0 501#0968000015140000
(1716195835.738815) can0 50A#087D7DFF00000000
(1716195835.748737) can0 460#0003A63BFFFFFFE7
(1716195835.749431) can0 462#0013001461001A
(1716195835.750287) can0 463#00000019
(1716195835.751272) can0 461#0D000000
(1716195835.752423) can0 464#000000000000AE41
(1716195835.753427) can0 466#0042070200000000
(1716195835.754191) can0 468#0303
(1716195835.758790) can0 50C#281A000000000100
(1716195835.759031) can0 506#0000020000EA5F00
(1716195835.798716) can0 501#0968000015140000
(1716195835.838786) can0 50A#087D7DFF00000000
(1716195835.853310) can0 186#1415
(1716195835.858716) can0 50D#0000007C00000000
(1716195835.898483) can0 501#0967000015140000
(1716195835.938768) can0 50A#087D7DFF00000000
(1716195835.948536) can0 182#6C5D6100
(1716195835.949490) can0 183#0000000000006100
(1716195835.950937) can0 185#1313131414141313
(1716195835.958768) can0 50F#0000000000000000
(1716195835.998722) can0 501#0967000015140000
(1716195836.038676) can0 50A#087D7DFF00000000
(1716195836.048689) can0 460#0003A63BFFFFFFE7
(1716195836.049398) can0 462#00130014610019
(1716195836.050473) can0 463#00000019
(1716195836.051357) can0 461#0E000000
(1716195836.052564) can0 464#000000000000AE41
(1716195836.053451) can0 466#0042070200000000
(1716195836.054541) can0 468#0303
(1716195836.098645) can0 501#0968000015140000
(1716195836.138408) can0 50A#087D7DFF00000000
(1716195836.198711) can0 501#0968000015140000
(1716195836.203565) can0 186#1415
(1716195836.238385) can0 50A#087D7DFF00000000
(1716195836.258399) can0 50C#281A000000000100
(1716195836.298605) can0 501#0967000015140000
(1716195836.298677) can0 182#6C5D6100
(1716195836.299466) can0 183#0000000000006100
(1716195836.300553) can0 185#1313131414141313
(1716195836.338670) can0 50A#087D7DFF00000000
(1716195836.348800) can0 460#0003A63AFFFFFFE7
(1716195836.349425) can0 462#00130014610019
(1716195836.350716) can0 463#00000019
(1716195836.351313) can0 461#0F000000
(1716195836.352448) can0 464#000000000000AE41
(1716195836.353460) can0 466#0042070200000000
(1716195836.354252) can0 468#0303
(1716195836.355722) can0 46A#019000DC
(1716195836.356677) can0 776#006409D8000001E0
(1716195836.358591) can0 500#000F000001C40000
(1716195836.398574) can0 501#0968000015140000
(1716195836.438477) can0 50A#087D7DFF00000000
(1716195836.458700) can0 502#0000000000000000
(1716195836.498483) can0 501#0967000015140000
(1716195836.538633) can0 50A#087D7DFF00000000
(1716195836.553574) can0 186#1415
(1716195836.558641) can0 503#0000000000000000
(1716195836.598607) can0 501#0967000015140000
(1716195836.638618) can0 50A#087D7DFF00000000
(1716195836.648802) can0 460#0003A63AFFFFFFE7
(1716195836.649484) can0 462#0013001461001A
(1716195836.650823) can0 463#00000019
(1716195836.651442) can0 461#01151313
(1716195836.652848) can0 464#000000000000AE41
(1716195836.653523) can0 466#0042070200000000
(1716195836.654581) can0 468#0303
(1716195836.655713) can0 182#6C5D6100
(1716195836.656521) can0 183#0000000000006100
(1716195836.657553) can0 185#1313131414141313
(1716195836.658484) can0 505#0957FFFE13146100
(1716195836.698590) can0 501#0967000015140000
(1716195836.738273) can0 50A#087D7DFF00000000
(1716195836.758284) can0 50C#281A000000000100
(1716195836.758741) can0 506#0000020000EA5F00
(1716195836.798261) can0 501#0968000015140000
(1716195836.838565) can0 50A#087D7DFF00000000
(1716195836.858437) can0 50D#0000007C00000000
(1716195836.898459) can0 501#0968000015140000
(1716195836.903631) can0 186#1415
(1716195836.938537) can0 50A#087D7DFF00000000
(1716195836.948789) can0 460#0003A639FFFFFFE7
(1716195836.949496) can0 462#00130014610019
(1716195836.950441) can0 463#00000019
(1716195836.951420) can0 461#02141314
(1716195836.952962) can0 464#000000000000AE41
(1716195836.953529) can0 466#0042070200000000
(1716195836.954298) can0 468#0303
(1716195836.958463) can0 50F#0000000000000000
(1716195836.998371) can0 501#0968000015140000
(1716195836.998499) can0 182#6C5D6100
(1716195836.999735) can0 183#0000000000006100
(1716195837.000485) can0 185#1313131414141313
(1716195837.038490) can0 50A#087E7DFF00000000
(1716195837.098512) can0 501#0968000015140000
(1716195837.138174) can0 50A#087E7EFF00000000
(1716195837.198477) can0 501#08B100BF15140009
(1716195837.238188) can0 50A#087E7EFF00000000
(1716195837.248797) can0 460#0003A637FFFFFFE7
(1716195837.249541) can0 462#00130014610019
(1716195837.250575) can0 463#00000019
(1716195837.251391) can0 461#03151414
(1716195837.252752) can0 464#000000000000AE41
(1716195837.253538) can0 466#0042070200000000
(1716195837.254601) can0 468#0303
(1716195837.255344) can0 186#1415
(1716195837.258110) can0 50C#461A000000000100
(1716195837.298387) can0 501#083E00A715140040
(1716195837.338437) can0 50A#0C7E7EFF00000000
(1716195837.348718) can0 46A#019000DC
(1716195837.349382) can0 182#6B5D6100
(1716195837.350563) can0 183#0000000000006100
(1716195837.351516) can0 185#1313131414141313
(1716195837.353016) can0 776#006409D8000001E0
(1716195837.358304) can0 500#000F000001C40000
(1716195837.398350) can0 501#083E00EB15140084
(1716195837.438414) can0 50A#157E7EFF00000000
(1716195837.458114) can0 502#0000000000000000
(1716195837.498253) can0 501#08400129151400F9
(1716195837.538389) can0 50A#1A7E7EFF00000000
(1716195837.548883) can0 460#0003A637FFFFFFC0
(1716195837.549524) can0 462#00130014610019
(1716195837.550715) can0 463#00000040
(1716195837.551945) can0 461#04151313
(1716195837.552574) can0 464#000000000000AE41
(1716195837.553551) can0 466#0042070200000000
(1716195837.554690) can0 468#0303
(1716195837.558361) can0 503#0106450671002100
(1716195837.598350) can0 501#084300CF15140196
(1716195837.603667) can0 186#1415
(1716195837.638094) can0 50A#1E7E7EFF00000000
(1716195837.658054) can0 505#0957FFFA13146100
(1716195837.698271) can0 501#084900A815140245
(1716195837.698411) can0 182#6B5D6100
(1716195837.700076) can0 183#0000000000006100
(1716195837.700556) can0 185#1313131314141313
(1716195837.738346) can0 50A#1F7E7EFF00000000
(1716195837.758055) can0 50C#461A000000000100
(1716195837.758502) can0 506#0000020001EA5F00
(1716195837.798035) can0 501#084B006E151402FD
(1716195837.838358) can0 50A#217E7EFF00000000
(1716195837.848813) can0 460#0003A631FFFFFDCA
(1716195837.849658) can0 462#0013001461001A
(1716195837.850812) can0 463#00000236
(1716195837.851629) can0 461#05151415
(1716195837.853230) can0 464#000000000000AE41
(1716195837.853593) can0 466#0042070200000000
(1716195837.854484) can0 468#0303
(1716195837.858251) can0 50D#0000007C00000000
(1716195837.898223) can0 501#084E0081151403C0
(1716195837.938289) can0 50A#227E7EFF00000000
(1716195837.953455) can0 186#1415
(1716195837.958312) can0 50F#0000000000000000
(1716195837.998279) can0 501#0851005A15140489
(1716195838.038342) can0 50A#227E7EFF00000000
(1716195838.048778) can0 182#6B5D6100
(1716195838.050144) can0 183#0000000005006100
(1716195838.050573) can0 185#1313131314141313
(1716195838.098229) can0 501#084C004E15140550
(1716195838.138202) can0 50A#227E7EFF00000000
(1716195838.148949) can0 460#0003A62EFFFFFE16
(1716195838.149582) can0 462#00130014610019
(1716195838.150771) can0 463#000001EA
(1716195838.151552) can0 461#06000000
(1716195838.152939) can0 464#000000000000AE41
(1716195838.154134) can0 466#0042070200000000
(1716195838.154404) can0 468#0303
(1716195838.198223) can0 501#084B00611514060D
(1716195838.238041) can0 50A#227E7EFF00000000
(1716195838.257928) can0 50C#461A000000000100
(1716195838.297951) can0 501#085100551514069E
(1716195838.303424) can0 186#1415
(1716195838.338414) can0 50A#227E7EFF00000000
(1716195838.348795) can0 46A#019000DC
(1716195838.349659) can0 776#006409D8000001E0
(1716195838.357918) can0 500#000F000001C40000
(1716195838.398135) can0 501#084E004E15140722
(1716195838.398511) can0 182#6A5D6100
(1716195838.399835) can0 183#0000000004006100
(1716195838.400831) can0 185#1313131314141313
(1716195838.438112) can0 50A#227E7EFF00000000
(1716195838.448881) can0 460#0003A62CFFFFFE7C
(1716195838.449598) can0 462#00130014610019
(1716195838.450849) can0 463#00000184
(1716195838.451616) can0 461#07000000
(1716195838.453136) can0 464#000000000000AE41
(1716195838.453654) can0 466#0042070200000000
(1716195838.454434) can0 468#0303
(1716195838.457915) can0 502#0000000000000000
(1716195838.498088) can0 501#0848004D15140775
(1716195838.537898) can0 50A#227E7EFF00000000
(1716195838.557961) can0 503#0107C80671001E00
(1716195838.597866) can0 501#084C0045151407A2
(1716195838.638057) can0 50A#227E7EFF00000000
(1716195838.653608) can0 186#1415
(1716195838.657826) can0 505#0957FFDA13146100
(1716195838.698063) can0 501#0851004A151407BB
(1716195838.737868) can0 50A#227E7EFF00000000
(1716195838.749001) can0 460#0003A621FFFFFE8F
(1716195838.749650) can0 462#00130014610019
(1716195838.750522) can0 463#00000171
(1716195838.751495) can0 461#08000000
(1716195838.752773) can0 464#000000000000AE41
(1716195838.753889) can0 466#0042070200000000
(1716195838.754619) can0 468#0303
(1716195838.755765) can0 182#695D6100
(1716195838.756646) can0 183#0000000003006100
(1716195838.757644) can0 185#1313131314141313
(1716195838.758232) can0 506#0000020008EA5F00
(1716195838.758657) can0 50C#461A000000000100
(1716195838.797823) can0 501#084C0052151407CA
(1716195838.838153) can0 50A#227E7EFF00000000
(1716195838.857823) can0 50D#0000007C00000000
(1716195838.897842) can0 501#08490069151407CC
(1716195838.938088) can0 50A#227E7EFF00000000
(1716195838.958093) can0 50F#0000000000000000
(1716195838.997780) can0 501#084F0063151407CA
(1716195839.004022) can0 186#1415
(1716195839.037770) can0 50A#227E7EFF00000000
(1716195839.048723) can0 460#0003A621FFFFFE9C
(1716195839.050123) can0 462#00130014610019
(1716195839.050523) can0 463#00000164
(1716195839.051857) can0 461#09000000
(1716195839.052950) can0 464#000000000000AE41
(1716195839.054030) can0 466#0042070200000000
(1716195839.054443) can0 468#0303
(1716195839.098041) can0 501#08500050151407CB
(1716195839.098550) can0 182#695D6100
(1716195839.100038) can0 183#0000000003006100
(1716195839.100643) can0 185#1313131314141313
(1716195839.137749) can0 50A#227E7EFF00000000
(1716195839.198018) can0 501#084A005A151407CD
(1716195839.237721) can0 50A#227E7EFF00000000
(1716195839.257707) can0 50C#461A000000000100
(1716195839.297709) can0 501#08490050151407CF
(1716195839.337699) can0 50A#227E7EFF00000000
(1716195839.349008) can0 460#0003A616FFFFFE8F
(1716195839.349647) can0 462#0013001461001A
(1716195839.350584) can0 463#00000171
(1716195839.351559) can0 461#0A000000
(1716195839.352691) can0 464#000000000000AE41
(1716195839.353718) can0 466#0042070200000000
(1716195839.354574) can0 468#0303
(1716195839.355793) can0 46A#019000DC
(1716195839.356878) can0 186#1415
(1716195839.357661) can0 500#000F000001C40000
(1716195839.358139) can0 776#006409D8000001E0
(1716195839.397791) can0 501#084F004B151407D0
(1716195839.437674) can0 50A#227E7EFF00000000
(1716195839.448572) can0 182#685D6100
(1716195839.449892) can0 183#0000000003006100
(1716195839.450871) can0 185#1313131314141313
(1716195839.457766) can0 502#0000000000000000
(1716195839.497633) can0 501#084F005B151407D0
(1716195839.537728) can0 50A#237E7EFF00000000
(1716195839.557665) can0 503#0108060671001C00
(1716195839.597638) can0 501#084D0063151407D7
(1716195839.637630) can0 50A#257E7EFF00000000
(1716195839.649005) can0 460#0003A616FFFFFE83
(1716195839.649751) can0 462#00130014610019
(1716195839.650750) can0 463#0000017D
(1716195839.651869) can0 461#0B000000
(1716195839.653021) can0 464#000000000000AE41
(1716195839.654168) can0 466#0042070200000000
(1716195839.654501) can0 468#0303
(1716195839.657547) can0 505#0957FFDA13146100
(1716195839.697622) can0 501#085000AB151407EB
(1716195839.703741) can0 186#1415
(1716195839.737621) can0 50A#277E7EFF00000000
(1716195839.757620) can0 50C#461A000000000100
(1716195839.758076) can0 506#0000020009EA5F00
(1716195839.797573) can0 501#0852008115140808
(1716195839.798762) can0 182#685D6100
(1716195839.799907) can0 183#0000000003006100
(1716195839.800691) can0 185#1313131314141313
(1716195839.837573) can0 50A#287E7EFF00000000
(1716195839.857572) can0 50D#0000007C00000000
(1716195839.897552) can0 501#0853007A1514082C
(1716195839.937531) can0 50A#297E7EFF00000000
(1716195839.948793) can0 460#0003A60BFFFFFDEA
(1716195839.950000) can0 462#00130014610019
(1716195839.950599) can0 463#00000216
(1716195839.951979) can0 461#0C000000
(1716195839.952776) can0 464#000000000000AE41
(1716195839.954274) can0 466#0042070200000000
(1716195839.954526) can0 468#0303
(1716195839.957563) can0 50F#0000000000000000
(1716195839.997536) can0 501#0854007015140854
(1716195840.037539) can0 50A#297E7EFF00000000
(1716195840.053618) can0 186#1415
(1716195840.097525) can0 501#0853006D1514087B
(1716195840.137507) can0 50A#297E7EFF00000000
(1716195840.148970) can0 182#675D6100
(1716195840.149913) can0 183#0000000005006100
(1716195840.150974) can0 185#1313131314141313
(1716195840.197767) can0 501#0853006A151408A2
(1716195840.237483) can0 50A#2A7E7EFF00000000
(1716195840.249133) can0 460#0003A608FFFFFE49
(1716195840.249801) can0 462#0013001461001A
(1716195840.250940) can0 463#000001B7
(1716195840.251709) can0 461#0D000000
(1716195840.253132) can0 464#000000000000AE41
(1716195840.253802) can0 466#0042070200000000
(1716195840.254580) can0 468#0303
(1716195840.257456) can0 50C#461A000000000100
(1716195840.297441) can0 501#0855007C151408D0
(1716195840.337471) can0 50A#2A7E7EFF00000000
(1716195840.348717) can0 46A#019000DC
(1716195840.349821) can0 776#006409D8000001E0
(1716195840.357505) can0 500#000F000001C40000
(1716195840.397475) can0 501#08510075151408FE
(1716195840.403860) can0 186#1415
(1716195840.437551) can0 50A#2C7E7EFF00000000
(1716195840.457490) can0 502#0000000000000000
(1716195840.497556) can0 501#0855008C15140934
(1716195840.499014) can0 182#665D6100
(1716195840.500263) can0 183#0000000004006100
(1716195840.500816) can0 185#1313131314141313
(1716195840.537552) can0 50A#2C7E7EFF00000000
(1716195840.548852) can0 460#0003A602FFFFFE16
(1716195840.550132) can0 462#0013001461001A
(1716195840.550702) can0 463#000001EA
(1716195840.552046) can0 461#0E000000
(1716195840.552851) can0 464#000000000000AE41
(1716195840.554168) can0 466#0042070200000000
(1716195840.554619) can0 468#0303
(1716195840.557578) can0 503#010A460671001500
(1716195840.597538) can0 501#0858009115140969
(1716195840.637473) can0 50A#2E7E7EFF00000000
(1716195840.657361) can0 505#0957FFCF13146100
(1716195840.697504) can0 501#0859007715140999
(1716195840.737467) can0 50A#2E7E7EFF00000000
(1716195840.753871) can0 186#1415
(1716195840.757371) can0 50C#461A000000000100
(1716195840.757858) can0 506#000002000BEA5F00
(1716195840.797392) can0 501#085A0082151409C6
(1716195840.837637) can0 50A#307E7EFF00000000
(1716195840.849360) can0 460#0003A5F2FFFFFD84
(1716195840.849853) can0 462#0013001461001A
(1716195840.850940) can0 463#0000027C
(1716195840.851997) can0 461#0F000000
(1716195840.852899) can0 464#000000000000AE41
(1716195840.854101) can0 466#0042070200000000
(1716195840.854821) can0 468#0303
(1716195840.855751) can0 182#655D6100
(1716195840.857204) can0 183#0000000006006100
(1716195840.857387) can0 50D#0000007C00000000
(1716195840.857895) can0 185#1313131314141313
(1716195840.897560) can0 501#085C0073151409F6
(1716195840.937540) can0 50A#307E7EFF00000000
(1716195840.957649) can0 50F#0000000000000000
(1716195840.997543) can0 501#085E008616140A20
(1716195841.037479) can0 50A#327E7EFF00000000
(1716195841.097545) can0 501#085F007C16140A53
(1716195841.103755) can0 186#1415
(1716195841.137480) can0 50A#337E7EFF00000000
(1716195841.149274) can0 460#0003A5F2FFFFFD97
(1716195841.149978) can0 462#0013001461001A
(1716195841.150936) can0 463#00000269
(1716195841.152084) can0 461#01151313
(1716195841.152949) can0 464#000000000000AE41
(1716195841.154285) can0 466#0042070200000000
(1716195841.154750) can0 468#0303
(1716195841.197419) can0 501#0860005816140A91
(1716195841.199051) can0 182#655D6100
(1716195841.200141) can0 183#0000000006006100
(1716195841.201461) can0 185#1313131314141313
(1716195841.237485) can0 50A#337E7EFF00000000
(1716195841.257537) can0 50C#461A000000000100
(1716195841.297262) can0 501#0864005D16140ACA
(1716195841.337553) can0 50A#347E7EFF00000000
(1716195841.349178) can0 46A#019000DC
(1716195841.349988) can0 776#006409D8000001E0
(1716195841.357281) can0 500#000F000001C40000
(1716195841.397557) can0 501#0863005916140B0B
(1716195841.437541) can0 50A#357E7EFF00000000
(1716195841.449015) can0 460#0003A5E5FFFFFD1F
(1716195841.450267) can0 462#0013001461001A
(1716195841.450824) can0 463#000002E1
(1716195841.452168) can0 461#02141313
(1716195841.452978) can0 464#000000000000AE41
(1716195841.454294) can0 466#0042070200000000
(1716195841.454744) can0 468#0303
(1716195841.455752) can0 186#1415
(1716195841.457547) can0 502#0000000000000000
(1716195841.497486) can0 501#0865006C16140B42
(1716195841.537509) can0 50A#357E7EFF00000000
(1716195841.549110) can0 182#625D6100
(1716195841.550302) can0 183#0000000007006100
(1716195841.550960) can0 185#1313131314141313
(1716195841.557240) can0 503#010C210671001300
(1716195841.597454) can0 501#0866009216140B74
(1716195841.637401) can0 50A#367E7EFF00000000
(1716195841.657465) can0 505#0956FFB713146100
(1716195841.697182) can0 501#0867007816140BAB
(1716195841.737152) can0 50A#387E7EFF00000000
(1716195841.749472) can0 460#0003A5DCFFFFFD38
(1716195841.749969) can0 462#0013001461001A
(1716195841.751438) can0 463#000002C8
(1716195841.751837) can0 461#03151414
(1716195841.753629) can0 464#000000000000AE41
(1716195841.754008) can0 466#0042070200000000
(1716195841.754775) can0 468#0303
(1716195841.757172) can0 50C#461A000000000100
(1716195841.757608) can0 506#0000020010EA5F00
(1716195841.797426) can0 501#086A008416140BE0
(1716195841.804106) can0 186#1415
(1716195841.837173) can0 50A#387E7EFF00000000
(1716195841.857748) can0 50D#0000007C00000000
(1716195841.897422) can0 501#086B008716140C10
(1716195841.899185) can0 182#625D6100
(1716195841.900430) can0 183#0000000007006100
(1716195841.900979) can0 185#1313131314141313
(1716195841.937344) can0 50A#397E7EFF00000000
(1716195841.957150) can0 50F#0000000000000000
(1716195841.997073) can0 501#086D008D16140C44
(1716195842.037105) can0 50A#3A7E7EFF00000000
(1716195842.049354) can0 460#0003A5D4FFFFFCE5
(1716195842.049990) can0 462#0013001461001A
(1716195842.050874) can0 463#0000031B
(1716195842.051851) can0 461#04151313
(1716195842.053257) can0 464#000000000000AE41
(1716195842.054304) can0 466#0042070200000000
(1716195842.054824) can0 468#0303
(1716195842.097076) can0 501#086F008816140C76
(1716195842.137366) can0 50A#3B7E7EFF00000000
(1716195842.154081) can0 186#1415
(1716195842.197335) can0 501#086F008516140CA2
(1716195842.237344) can0 50A#3C7E7EFF00000000
(1716195842.249187) can0 182#5F5D6100
(1716195842.250146) can0 183#0000000007006100
(1716195842.251197) can0 185#1313131414141313
(1716195842.257274) can0 50C#461A000000000100
(1716195842.297308) can0 501#086F007616140CD1
(1716195842.337324) can0 50A#3C7E7EFF00000000
(1716195842.349422) can0 460#0003A5BFFFFFFCAC
(1716195842.350115) can0 462#0013001461001A
(1716195842.351120) can0 463#00000354
(1716195842.352195) can0 461#05151415
(1716195842.353076) can0 464#000000000000AE41
(1716195842.354415) can0 466#0042070200000000
(1716195842.354834) can0 468#0303
(1716195842.356225) can0 46A#019000DC
(1716195842.357366) can0 500#000F000001C40000
(1716195842.357445) can0 776#006409D8000001E0
(1716195842.397030) can0 501#0871007516140CF5
(1716195842.437231) can0 50A#3C7E7EFF00000000
(1716195842.457005) can0 502#0000000000000000
(1716195842.496961) can0 501#086D007F16140D1E
(1716195842.504104) can0 186#1415
(1716195842.537222) can0 50A#3C7E7EFF00000000
(1716195842.557329) can0 503#010DFE0671000F00
(1716195842.597387) can0 501#087000BD16140D48
(1716195842.599250) can0 182#5F5D6100
(1716195842.600470) can0 183#0000000008006100
(1716195842.601066) can0 185#1313131414141313
(1716195842.637264) can0 50A#427E7EFF00000000
(1716195842.649428) can0 460#0003A5B5FFFFFD78
(1716195842.650048) can0 462#0013001461001A
(1716195842.651511) can0 463#00000288
(1716195842.651970) can0 461#06000000
(1716195842.653122) can0 464#000000000000AE41
(1716195842.654083) can0 466#0042070200000000
(1716195842.655050) can0 468#0303
(1716195842.656912) can0 505#0956FFC013146100
(1716195842.697257) can0 501#087F014116140D82
(1716195842.737229) can0 50A#4B7E7EFF00000000
(1716195842.757249) can0 50C#461A000000000100
(1716195842.757410) can0 506#000002000FEA5F00
(1716195842.797195) can0 501#089901A716140DE8
(1716195842.837093) can0 50A#547E7EFF00000000
(1716195842.854312) can0 186#1415
(1716195842.856888) can0 50D#0000007C00000000
(1716195842.896936) can0 501#08BE018916140E84
(1716195842.937122) can0 50A#597E7EFF00000000
(1716195842.949146) can0 460#0003A599FFFFF6D0
(1716195842.950068) can0 462#0013001461001A
(1716195842.951208) can0 463#00000930
(1716195842.952180) can0 461#07000000
(1716195842.953330) can0 464#000000000000AE41
(1716195842.954293) can0 466#0042070200000000
(1716195842.954984) can0 468#0303
(1716195842.956218) can0 182#5C5D6100
(1716195842.956859) can0 50F#0000000000000000
(1716195842.957461) can0 183#0000000017006100
(1716195842.958136) can0 185#1313131414141313
(1716195842.997158) can0 501#08D600F216140F3F
(1716195843.037177) can0 50A#5D7E7EFF00000000
(1716195843.097146) can0 501#08E600CF16141006
(1716195843.137083) can0 50A#5F7E7EFF00000000
(1716195843.196834) can0 501#08F100B0161410D4
(1716195843.204278) can0 186#1415
(1716195843.237053) can0 50A#5F7E7EFF00000000
(1716195843.249513) can0 460#0003A599FFFFF88D
(1716195843.250117) can0 462#0013001461001A
(1716195843.251333) can0 463#00000773
(1716195843.252536) can0 461#08000000
(1716195843.253183) can0 464#000000000000AE41
(1716195843.254133) can0 466#0042070200000000
(1716195843.254938) can0 468#0303
(1716195843.257023) can0 50C#461A000000000100
(1716195843.296807) can0 501#08F3006C161411A5
(1716195843.299751) can0 182#5C5D6100
(1716195843.300175) can0 183#0000000013006100
(1716195843.301335) can0 185#1313131414141313
(1716195843.336820) can0 50A#607E7EFF00000000
(1716195843.349317) can0 46A#019000DC
(1716195843.350173) can0 776#006409D8000001E0
(1716195843.357028) can0 500#000F000001C40000
(1716195843.396996) can0 501#08F5009D16141274
(1716195843.437095) can0 50A#607E7EFF00000000
(1716195843.457038) can0 502#0000000000000000
(1716195843.496988) can0 501#08F6008816141342
(1716195843.537094) can0 50A#607E7EFF00000000
(1716195843.549987) can0 460#0003A576FFFFFADC
(1716195843.550113) can0 462#0013001461001A
(1716195843.551078) can0 463#00000524
(1716195843.552215) can0 461#09000000
(1716195843.553393) can0 464#000000000000AE41
(1716195843.554247) can0 466#0042070200000000
(1716195843.554950) can0 468#0303
(1716195843.556482) can0 186#1415
(1716195843.556694) can0 503#0115C10671000A00
(1716195843.597039) can0 501#08F6008716141412
(1716195843.637038) can0 50A#617E7EFF00000000
(1716195843.649418) can0 182#565D6100
(1716195843.650655) can0 183#000000000D006100
(1716195843.651150) can0 185#1313131414141313
(1716195843.657006) can0 505#0955FF7D13146100
(1716195843.697025) can0 501#08F900AA161414CA
(1716195843.736955) can0 50A#627E7EFF00000000
(1716195843.756707) can0 50C#461A000000000100
(1716195843.757182) can0 506#000002001FEA5F00
(1716195843.796713) can0 501#08FB00911614155D
(1716195843.836931) can0 50A#637E7EFF00000000
(1716195843.849288) can0 460#0003A563FFFFFB09
(1716195843.850171) can0 462#0013001461001A
(1716195843.851064) can0 463#000004F7
(1716195843.852047) can0 461#0A000000
(1716195843.853408) can0 464#000000000000AE41
(1716195843.854309) can0 466#0042070200000000
(1716195843.855183) can0 468#0303
(1716195843.856930) can0 50D#0000007C00000000
(1716195843.896872) can0 501#08FF00BA161415B0
(1716195843.904314) can0 186#1415
(1716195843.936980) can0 50A#637E7EFF00000000
(1716195843.956910) can0 50F#0000000000000000
(1716195843.996965) can0 501#08FE0084161415EF
(1716195843.999392) can0 182#565D6100
(1716195844.000610) can0 183#000000000C006100
(1716195844.001200) can0 185#1313131414141313
(1716195844.036952) can0 50A#637E7EFF00000000
(1716195844.096934) can0 501#08FE007116141618
(1716195844.136857) can0 50A#617E7EFF00000000
(1716195844.149583) can0 460#0003A547FFFFFA43
(1716195844.150419) can0 462#0013001461001A
(1716195844.151166) can0 463#000005BD
(1716195844.152393) can0 461#0B000000
(1716195844.153238) can0 464#000000000000AE41
(1716195844.154216) can0 466#0042070200000000
(1716195844.155007) can0 468#0303
(1716195844.196644) can0 501#08F900611614162B
(1716195844.236850) can0 50A#577E7EFF00000000
(1716195844.254517) can0 186#1415
(1716195844.256826) can0 50C#461A000000000100
(1716195844.296706) can0 501#08EA003A1614162D
(1716195844.336899) can0 50A#3E7E7EFF00000000
(1716195844.349130) can0 46A#019000DC
(1716195844.350838) can0 182#505D6100
(1716195844.351322) can0 183#000000000E006100
(1716195844.352397) can0 185#1313131414141313
(1716195844.353287) can0 776#006409D8000001E0
(1716195844.356812) can0 500#000F000001C40000
(1716195844.396860) can0 501#08D8003C16141624
(1716195844.436872) can0 50A#2C7E7EFF00000000
(1716195844.449330) can0 460#0003A529FFFFFD45
(1716195844.450233) can0 462#0013001461001A
(1716195844.451536) can0 463#000002BB
(1716195844.452648) can0 461#0C000000
(1716195844.453249) can0 464#000000000000AE41
(1716195844.454608) can0 466#0042070200000000
(1716195844.455045) can0 468#0303
(1716195844.456858) can0 502#0000000000000000
(1716195844.496857) can0 501#08C9003516141605
(1716195844.536779) can0 50A#177E7EFF00000000
(1716195844.556559) can0 503#0104550671000C00
(1716195844.596745) can0 501#08BC0038161415D4
(1716195844.604298) can0 186#1415
(1716195844.636767) can0 50A#087E7EFF00000000
(1716195844.656732) can0 505#0954FFBB13146100
(1716195844.696717) can0 501#08AD00351614158C
(1716195844.699460) can0 182#505D6100
(1716195844.700673) can0 183#0000000006006100
(1716195844.701255) can0 185#1313131414141313
(1716195844.736804) can0 50A#087E7EFF00000000
(1716195844.749282) can0 460#0003A529FFFFFE89
(1716195844.750469) can0 462#0013001461001A
(1716195844.751377) can0 463#00000177
(1716195844.752416) can0 461#0D000000
(1716195844.753292) can0 464#000000000000AE41
(1716195844.754478) can0 466#0042070200000000
(1716195844.755264) can0 468#0303
(1716195844.756776) can0 50C#461A000000000100
(1716195844.756961) can0 506#0000020008EA5F00
(1716195844.796476) can0 501#08A4002C1614152D
(1716195844.836776) can0 50A#087E7EFF00000000
(1716195844.856720) can0 50D#0000007C00000000
(1716195844.896758) can0 501#0899002C161414C2
(1716195844.936481) can0 50A#087E7EFF00000000
(1716195844.954440) can0 186#1415
(1716195844.956770) can0 50F#0000000000000000
(1716195844.996743) can0 501#089100201614143A
(1716195845.036676) can0 50A#087E7EFF00000000
(1716195845.049578) can0 460#0003A512FFFFFEC8
(1716195845.050787) can0 462#00130014610019
(1716195845.051173) can0 463#00000138
(1716195845.052490) can0 461#0E000000
(1716195845.053368) can0 464#000000000000AE41
(1716195845.054330) can0 466#0042070200000000
(1716195845.055113) can0 468#0303
(1716195845.056159) can0 182#4E5D6100
(1716195845.058097) can0 183#0000000003006100
(1716195845.058312) can0 185#1313131414141313
(1716195845.096789) can0 501#08860027161413A4
(1716195845.136716) can0 50A#087E7EFF00000000
(1716195845.196701) can0 501#087E002C16141309
(1716195845.236628) can0 50A#087E7EFF00000000
(1716195845.256400) can0 50C#461A000000000100
(1716195845.296664) can0 501#0876002716141266
(1716195845.304392) can0 186#1415
(1716195845.336681) can0 50A#087E7EFF00000000
(1716195845.349410) can0 460#0003A505FFFFFF08
(1716195845.350323) can0 462#0013001461001A
(1716195845.351204) can0 463#000000F8
(1716195845.352228) can0 461#0F000000
(1716195845.353387) can0 464#000000000000AE41
(1716195845.354541) can0 466#0042070200000000
(1716195845.355229) can0 468#0303
(1716195845.356546) can0 500#000F000001C40000
(1716195845.356651) can0 46A#019000DC
(1716195845.357470) can0 776#006409D8000001E0
(1716195845.396508) can0 501#08700025161411C6
(1716195845.399533) can0 182#4D5D6100
(1716195845.400728) can0 183#0000000002006100
(1716195845.401341) can0 185#1313131414141313
(1716195845.436660) can0 50A#087E7EFF00000000
(1716195845.456417) can0 502#0000000000000000
(1716195845.496850) can0 501#0869002C16141126
(1716195845.536438) can0 50A#087D7EFF00000000
(1716195845.556627) can0 503#0100000013001300
(1716195845.596615) can0 501#0864001F16141088
(1716195845.636547) can0 50A#087D7EFF00000000
(1716195845.649579) can0 460#0003A4EDFFFFFF2E
(1716195845.650712) can0 462#0013001461001A
(1716195845.651262) can0 463#000000D2
(1716195845.652587) can0 461#01151313
(1716195845.653656) can0 464#000000000000AE41
(1716195845.654404) can0 466#0042070200000000
(1716195845.655185) can0 468#0303
(1716195845.656241) can0 505#0954FFEB13146100
(1716195845.656713) can0 186#1415
(1716195845.696521) can0 501#085E002616140FED
(1716195845.736611) can0 50A#087D7EFF00000000
(1716195845.749280) can0 182#4A5D6100
(1716195845.750433) can0 183#0000000002006100
(1716195845.751401) can0 185#1313131414141313
(1716195845.756268) can0 50C#281A000000000100
(1716195845.756750) can0 506#0000020005EA5F00
(1716195845.796290) can0 501#08B7000D16140F51
(1716195845.836747) can0 50A#087D7DFF00000000
(1716195845.856514) can0 50D#0000007C00000000
(1716195845.896254) can0 501#0959000016140EB1
(1716195845.936436) can0 50A#087D7DFF00000000
(1716195845.949535) can0 460#0003A4DFFFFFFF54
(1716195845.950787) can0 462#0013001461001A
(1716195845.951327) can0 463#000000AC
(1716195845.952645) can0 461#02141314
(1716195845.953718) can0 464#000000000000AE41
(1716195845.954817) can0 466#0042070200000000
(1716195845.955252) can0 468#0303
(1716195845.956584) can0 50F#0000000000000000
(1716195845.996525) can0 501#0959000016140E11
(1716195846.004590) can0 186#1415
(1716195846.036730) can0 50A#087D7DFF00000000
(1716195846.096622) can0 501#0959000116140D79
(1716195846.099696) can0 182#495D6100
(1716195846.100586) can0 183#0000000001006100
(1716195846.101726) can0 185#1313131414141313
(1716195846.136715) can0 50A#087D7DFF00000000
(1716195846.196190) can0 501#0959000016140CE1
(1716195846.236363) can0 50A#087D7DFF00000000
(1716195846.249593) can0 460#0003A4D1FFFFFFE0
(1716195846.250822) can0 462#0013001461001A
(1716195846.251395) can0 463#00000020
(1716195846.252677) can0 461#03151414
(1716195846.253807) can0 464#000000000000AE41
(1716195846.254524) can0 466#0042070200000000
(1716195846.255317) can0 468#0303
(1716195846.256158) can0 50C#281A000000000100
(1716195846.296163) can0 501#095A000116140C4B
(1716195846.336460) can0 50A#087D7DFF00000000
(1716195846.349464) can0 46A#019000DC
(1716195846.350544) can0 776#006409D8000001E0
(1716195846.354870) can0 186#1415
(1716195846.356746) can0 500#000F000001C40000
(1716195846.396161) can0 501#095A000016140BB4
(1716195846.436449) can0 50A#087D7DFF00000000
(1716195846.449532) can0 182#475D6100
(1716195846.450584) can0 183#0000000000006100
(1716195846.451536) can0 185#1313131314141313
(1716195846.456380) can0 502#0000000000000000
(1716195846.496291) can0 501#095A000016140B22
(1716195846.536415) can0 50A#087D7DFF00000000
(1716195846.549605) can0 460#0003A4BCFFFFFFE0
(1716195846.550866) can0 462#0013001461001A
(1716195846.551998) can0 463#00000020
(1716195846.552430) can0 461#04151313
(1716195846.554036) can0 464#000000000000AE41
(1716195846.554655) can0 466#0042070200000000
(1716195846.555649) can0 468#0303
(1716195846.556099) can0 503#0000000000000000
(1716195846.596382) can0 501#095A000116140A90
(1716195846.636094) can0 50A#087D7DFF00000000
(1716195846.656067) can0 505#0953FFFD13146100
(1716195846.696295) can0 501#095A000116140A01
(1716195846.704734) can0 186#1415
(1716195846.736380) can0 50A#087D7DFF00000000
(1716195846.756090) can0 50C#281A000000000100
(1716195846.756551) can0 506#0000020000EA5F00
(1716195846.796266) can0 501#095A000016140971
(1716195846.799834) can0 182#465D6100
(1716195846.800934) can0 183#0000000000006100
(1716195846.801674) can0 185#1313131314141313
(1716195846.836369) can0 50A#087D7DFF00000000
(1716195846.849718) can0 460#0003A4BCFFFFFFE0
(1716195846.850600) can0 462#0013001461001A
(1716195846.851513) can0 463#00000020
(1716195846.852485) can0 461#05151415
(1716195846.853782) can0 464#000000000000AE41
(1716195846.854681) can0 466#0042070200000000
(1716195846.855649) can0 468#0303
(1716195846.856017) can0 50D#0000007C00000000
(1716195846.896504) can0 501#095A0000161408EC
(1716195846.936086) can0 50A#087D7DFF00000000
(1716195846.956347) can0 50F#0000000000000000
(1716195846.996312) can0 501#095A000116140866
(1716195847.036008) can0 50A#087D7DFF00000000
(1716195847.054508) can0 186#1415
(1716195847.096226) can0 501#095A0001161407DD
(1716195847.136303) can0 50A#087D7DFF00000000
(1716195847.149733) can0 460#0003A4A7FFFFFFE7
(1716195847.150660) can0 462#00130014610019
(1716195847.151564) can0 463#00000019
(1716195847.152909) can0 461#06000000
(1716195847.154109) can0 464#000000000000AE41
(1716195847.154917) can0 466#0042070200000000
(1716195847.155523) can0 468#0303
(1716195847.156753) can0 182#435D6100
(1716195847.157753) can0 183#0000000000006100
(1716195847.158676) can0 185#1313131314141313
(1716195847.196201) can0 501#095A00001614075B
(1716195847.236275) can0 50A#087D7DFF00000000
(1716195847.256072) can0 50C#281A000000000100
(1716195847.296185) can0 501#095A0001161406DC
(1716195847.336243) can0 50A#087D7DFF00000000
(1716195847.349637) can0 46A#019000DC
(1716195847.351080) can0 776#006409D8000001E0
(1716195847.356262) can0 500#000F000001C40000
(1716195847.396227) can0 501#095A000116140661
(1716195847.404872) can0 186#1415
(1716195847.436192) can0 50A#087D7DFF00000000
(1716195847.450100) can0 460#0003A49DFFFFFFE0
(1716195847.450829) can0 462#0013001461001A
(1716195847.451772) can0 463#00000020
(1716195847.452945) can0 461#07000000
(1716195847.453790) can0 464#000000000000AE41
(1716195847.454761) can0 466#0042070200000000
(1716195847.455563) can0 468#0303
(1716195847.456036) can0 502#0000000000000000
(1716195847.496131) can0 501#095A0001161405E9
(1716195847.499900) can0 182#425D6100
(1716195847.500927) can0 183#0000000000006100
(1716195847.502336) can0 185#1313131314141313
(1716195847.536218) can0 50A#087D7DFF00000000
(1716195847.556158) can0 503#0000000000000000
(1716195847.596106) can0 501#095A000116140575
(1716195847.636189) can0 50A#087D7DFF00000000
(1716195847.656100) can0 505#0953FFFD13146100
(1716195847.696211) can0 501#095A000016140506
(1716195847.736173) can0 50A#087D7DFF00000000
(1716195847.750146) can0 460#0003A48DFFFFFFE7
(1716195847.750821) can0 462#0013001461001A
(1716195847.752003) can0 463#00000019
(1716195847.753231) can0 461#08000000
(1716195847.754082) can0 464#000000000000AE41
(1716195847.755334) can0 466#0042070200000000
(1716195847.755831) can0 50C#281A000000000100
(1716195847.756098) can0 468#0303
(1716195847.756822) can0 506#0000020000EA5F00
(1716195847.756881) can0 186#1415
(1716195847.796141) can0 501#095A00011614049B
(1716195847.835860) can0 50A#087D7DFF00000000
(1716195847.849746) can0 182#405D6100
(1716195847.850892) can0 183#0000000000006100
(1716195847.851856) can0 185#1313131314141313
(1716195847.855883) can0 50D#0000007C00000000
(1716195847.896057) can0 501#095A000016140433
(1716195847.936141) can0 50A#087D7DFF00000000
(1716195847.956061) can0 50F#0000000000000000
(1716195847.996021) can0 501#095A0001161403D0
(1716195848.036109) can0 50A#087D7DFF00000000
(1716195848.050201) can0 460#0003A47EFFFFFFE0
(1716195848.050948) can0 462#0013001461001A
(1716195848.051785) can0 463#00000020
(1716195848.052776) can0 461#09000000
(1716195848.054384) can0 464#000000000000AE41
(1716195848.055106) can0 466#0042070200000000
(1716195848.055787) can0 468#0303
(1716195848.096008) can0 501#095A00001614035D
(1716195848.104757) can0 186#1415
(1716195848.135811) can0 50A#087D7DFF00000000
(1716195848.196076) can0 501#095A0000161402D8
(1716195848.199828) can0 182#3F5D6100
(1716195848.201180) can0 183#0000000000006100
(1716195848.201964) can0 185#1313131314141313
(1716195848.235784) can0 50A#087D7DFF00000000
(1716195848.256085) can0 50C#281A000000000100
(1716195848.296043) can0 501#095A00001614025F
(1716195848.335755) can0 50A#087D7DFF00000000
(1716195848.350127) can0 460#0003A472FFFFFFE0
(1716195848.351166) can0 462#0013001461001A
(1716195848.351967) can0 463#00000020
(1716195848.352855) can0 461#0A000000
(1716195848.354024) can0 464#000000000000AE41
(1716195848.355002) can0 466#0042070200000000
(1716195848.355706) can0 500#000F000001C40000
(1716195848.355987) can0 468#0303
(1716195848.356865) can0 46A#019000DC
(1716195848.358781) can0 776#006409D8000001E0
(1716195848.395949) can0 501#095A0000161401F0
(1716195848.436029) can0 50A#087D7DFF00000000
(1716195848.454834) can0 186#1415
(1716195848.455892) can0 502#0000000000000000
(1716195848.495968) can0 501#095A00001614018A
(1716195848.536011) can0 50A#087D7DFF00000000
(1716195848.550165) can0 182#3E5D6100
(1716195848.551335) can0 183#0000000000006100
(1716195848.552219) can0 185#1313131314141313
(1716195848.556416) can0 503#0000000000000000
(1716195848.595981) can0 501#095A00001614012E
(1716195848.635969) can0 50A#087D7DFF00000000
(1716195848.650437) can0 460#0003A464FFFFFFE0
(1716195848.651563) can0 462#0013001461001A
(1716195848.651928) can0 463#00000020
(1716195848.653272) can0 461#0B000000
(1716195848.654438) can0 464#000000000000AE41
(1716195848.655606) can0 466#0042070200000000
(1716195848.655624) can0 505#0952FFFD13146100
(1716195848.655881) can0 468#0303
(1716195848.696002) can0 501#095A0000161400DC
(1716195848.735681) can0 50A#087D7DFF00000000
(1716195848.755656) can0 50C#281A000000000100
(1716195848.756125) can0 506#0000020000EA5F00
(1716195848.795871) can0 501#095A000016140092
(1716195848.805228) can0 186#1415
(1716195848.835933) can0 50A#087D7DFF00000000
(1716195848.856158) can0 50D#0000007C00000000
(1716195848.895842) can0 501#095B000016140051
(1716195848.900032) can0 182#3D5D6100
(1716195848.901150) can0 183#0000000000006100
(1716195848.902438) can0 185#1313131314141313
(1716195848.935924) can0 50A#087D7DFF00000000
(1716195848.950421) can0 460#0003A464FFFFFFE0
(1716195848.951123) can0 462#0013001461001A
(1716195848.952253) can0 463#00000020
(1716195848.953054) can0 461#0C000000
(1716195848.954175) can0 464#000000000000AE41
(1716195848.955532) can0 466#0042070200000000
(1716195848.955657) can0 50F#0000000000000000
(1716195848.955946) can0 468#0303
(1716195848.995828) can0 501#095B00001614001B
(1716195849.035809) can0 50A#087D7DFF00000000
(1716195849.095889) can0 501#095A000016140000
(1716195849.135796) can0 50A#087D7DFF00000000
(1716195849.155101) can0 186#1415
(1716195849.195781) can0 501#095B000016140000
(1716195849.235857) can0 50A#087D7DFF00000000
(1716195849.250244) can0 460#0003A44BFFFFFFE0
(1716195849.251274) can0 462#0013001461001A
(1716195849.252284) can0 463#00000020
(1716195849.253087) can0 461#0D000000
(1716195849.254255) can0 464#000000000000AE41
(1716195849.255232) can0 466#0042070200000000
(1716195849.255944) can0 50C#281A000000000100
(1716195849.256001) can0 468#0303
(1716195849.257065) can0 182#3A5D6100
(1716195849.258469) can0 183#0000000000006100
(1716195849.259399) can0 185#1313131314141313
(1716195849.295763) can0 501#095B000016140000
(1716195849.335837) can0 50A#087D7DFF00000000
(1716195849.350132) can0 46A#019000DC
(1716195849.351258) can0 776#006409D8000001E0
(1716195849.355510) can0 500#000F000001C40000
(1716195849.395754) can0 501#095A000016140000
(1716195849.435533) can0 50A#087D7DFF00000000
(1716195849.455832) can0 502#0000000000000000
(1716195849.495788) can0 501#095B000016140000
(1716195849.505127) can0 186#1415
(1716195849.535726) can0 50A#087D7DFF00000000
(1716195849.550366) can0 460#0003A43EFFFFFFE0
(1716195849.551599) can0 462#0013001461001A
(1716195849.552175) can0 463#00000020
(1716195849.553208) can0 461#0E000000
(1716195849.554321) can0 464#000000000000AE41
(1716195849.555299) can0 466#0042070200000000
(1716195849.555817) can0 503#0000000000000000
(1716195849.556092) can0 468#0303
(1716195849.595498) can0 501#095B000016140000
(1716195849.600334) can0 182#395D6100
(1716195849.601376) can0 183#0000000000006100
(1716195849.602606) can0 185#1313131314141313
(1716195849.636073) can0 50A#087D7DFF00000000
(1716195849.655444) can0 505#0952FFFD13146100
(1716195849.695669) can0 501#095B000016140000
(1716195849.735609) can0 50A#087D7DFF00000000
(1716195849.755486) can0 50C#281A000000000100
(1716195849.755944) can0 506#0000020000EA5F00
(1716195849.795726) can0 501#095B000016140000
(1716195849.835724) can0 50A#087D7DFF00000000
(1716195849.850711) can0 460#0003A432FFFFFFE0
(1716195849.851370) can0 462#0013001461001A
(1716195849.852539) can0 463#00000020
(1716195849.853281) can0 461#0F000000
(1716195849.854733) can0 464#000000000000AE41
(1716195849.855914) can0 50D#0000007C00000000
(1716195849.855933) can0 466#0042070200000000
(1716195849.856174) can0 468#0303
(1716195849.857479) can0 186#1415
(1716195849.895412) can0 501#095B000016140000
(1716195849.935595) can0 50A#087D7DFF00000000
(1716195849.950504) can0 182#385D6100
(1716195849.951475) can0 183#0000000000006100
(1716195849.952384) can0 185#1313131314141313
(1716195849.955704) can0 50F#0000000000000000
(1716195849.995616) can0 501#095B000016140000
(1716195850.035402) can0 50A#087D7DFF00000000
(1716195850.095655) can0 501#095B000015140000
(1716195850.135355) can0 50A#087D7DFF00000000
(1716195850.150634) can0 460#0003A42AFFFFFFE0
(1716195850.151478) can0 462#0013001461001A
(1716195850.152314) can0 463#00000020
(1716195850.153300) can0 461#01151313
(1716195850.154478) can0 464#000000000000AE41
(1716195850.155472) can0 466#0042070200000000
(1716195850.156237) can0 468#0303
(1716195850.195571) can0 501#095B000015140000
(1716195850.205544) can0 186#1415
(1716195850.235353) can0 50A#087D7DFF00000000
(1716195850.255365) can0 50C#281A000000000100
(1716195850.295558) can0 501#095B000015140000
(1716195850.300611) can0 182#365D6100
(1716195850.301519) can0 183#0000000000006100
(1716195850.302795) can0 185#1313131314141313
(1716195850.335321) can0 50A#087D7DFF00000000
(1716195850.350563) can0 46A#019000DC
(1716195850.351504) can0 776#006409D8000001E0
(1716195850.355543) can0 500#000F000001C40000
(1716195850.395607) can0 501#095B000015140000
(1716195850.435607) can0 50A#087D7DFF00000000
(1716195850.450881) can0 460#0003A425FFFFFFE0
(1716195850.451530) can0 462#0013001461001A
(1716195850.452697) can0 463#00000020
(1716195850.453425) can0 461#02141313
(1716195850.454889) can0 464#000000000000AE41
(1716195850.455277) can0 502#0000000000000000
(1716195850.455762) can0 466#0042070200000000
(1716195850.456342) can0 468#0303
(1716195850.495294) can0 501#095B000015140000
(1716195850.535288) can0 50A#087D7DFF00000000
(1716195850.555609) can0 503#0000000000000000
(1716195850.555630) can0 186#1415
(1716195850.595572) can0 501#095B000015140000
(1716195850.635282) can0 50A#087D7DFF00000000
(1716195850.650796) can0 182#345D6100
(1716195850.651653) can0 183#0000000000006100
(1716195850.652624) can0 185#1313131314141313
(1716195850.655207) can0 505#0952FFFD13146100
(1716195850.695473) can0 501#095B000015140000
(1716195850.735256) can0 50A#087D7DFF00000000
(1716195850.750891) can0 460#0003A410FFFFFFE0
(1716195850.751600) can0 462#0013001461001A
(1716195850.753065) can0 463#00000020
(1716195850.753477) can0 461#03151414
(1716195850.754845) can0 464#000000000000AE41
(1716195850.755202) can0 50C#281A000000000100
(1716195850.755696) can0 466#0042070200000000
(1716195850.756174) can0 506#0000020000EA5F00
(1716195850.756446) can0 468#0303
(1716195850.795459) can0 501#095B000015140000
(1716195850.835314) can0 50A#087D7DFF00000000
(1716195850.855475) can0 50D#0000007C00000000
(1716195850.895503) can0 501#095B000015140000
(1716195850.905449) can0 186#1415
(1716195850.935209) can0 50A#087D7DFF00000000
(1716195850.955284) can0 50F#0000000000000000
(1716195850.995476) can0 501#095B000015140000
(1716195851.000598) can0 182#335D6100
(1716195851.002282) can0 183#0000000000006100
(1716195851.002686) can0 185#1313131314141313
(1716195851.035387) can0 50A#087D7DFF00000000
(1716195851.051016) can0 460#0003A404FFFFFFE7
(1716195851.051679) can0 462#0013001461001A
(1716195851.052577) can0 463#00000019
(1716195851.053615) can0 461#04151313
(1716195851.055073) can0 464#000000000000AE41
(1716195851.055756) can0 466#0042070200000000
(1716195851.056487) can0 468#0303
(1716195851.095585) can0 501#095B000015140000
(1716195851.135397) can0 50A#087D7DFF00000000
(1716195851.195144) can0 501#095B000015140000
(1716195851.235360) can0 50A#087D7DFF00000000
(1716195851.255115) can0 50C#281A000000000100
(1716195851.255536) can0 186#1415
(1716195851.295344) can0 501#095B000015140000
(1716195851.335340) can0 50A#087D7DFF00000000
(1716195851.350986) can0 460#0003A3EAFFFFFFE7
(1716195851.351815) can0 462#0013001461001A
(1716195851.352633) can0 463#00000019
(1716195851.353691) can0 461#05151415
(1716195851.355398) can0 464#000000000000AE41
(1716195851.355418) can0 500#000F000001C40000
(1716195851.355791) can0 466#0042070200000000
(1716195851.356543) can0 468#0303
(1716195851.357620) can0 46A#019000DC
(1716195851.358615) can0 182#315D6100
(1716195851.360590) can0 183#0000000000006100
(1716195851.360729) can0 185#1313131314141313
(1716195851.361965) can0 776#006409D8000001E0
(1716195851.395334) can0 501#095B000015140000
(1716195851.435382) can0 50A#087D7DFF00000000
(1716195851.455422) can0 502#0000000000000000
(1716195851.495375) can0 501#095B000015140000
(1716195851.535374) can0 50A#087D7DFF00000000
(1716195851.555385) can0 503#0000000000000000
(1716195851.595358) can0 501#095B000015140000
(1716195851.605950) can0 186#1415
(1716195851.635274) can0 50A#087D7DFF00000000
(1716195851.651156) can0 460#0003A3DDFFFFFFE7
(1716195851.651844) can0 462#0013001461001A
(1716195851.653193) can0 463#00000019
(1716195851.653684) can0 461#06000000
(1716195851.654849) can0 464#000000000000AE41
(1716195851.655314) can0 505#0951FFFE13146100
(1716195851.655841) can0 466#0042070200000000
(1716195851.656653) can0 468#0303
(1716195851.695263) can0 501#095B000015140000
(1716195851.701050) can0 182#2F5D6100
(1716195851.702005) can0 183#0000000000006100
(1716195851.702869) can0 185#1313131314141313
(1716195851.735258) can0 50A#087D7DFF00000000
(1716195851.755275) can0 50C#281A000000000100
(1716195851.755529) can0 506#0000020000EA5F00
(1716195851.795253) can0 501#095B000015140000
(1716195851.835328) can0 50A#087D7DFF00000000
(1716195851.855492) can0 50D#0000007C00000000
(1716195851.895309) can0 501#095B000015140000
(1716195851.935080) can0 50A#087D7DFF00000000
(1716195851.951234) can0 460#0003A3CAFFFFFFE7
(1716195851.952047) can0 462#0013001461001A
(1716195851.952884) can0 463#00000019
(1716195851.954269) can0 461#07000000
(1716195851.955002) can0 464#000000000000AE41
(1716195851.955433) can0 50F#0000000000000000
(1716195851.955926) can0 466#0042070200000000
(1716195851.957017) can0 468#0303
(1716195851.957693) can0 186#1415
(1716195851.995277) can0 501#095B000015140000
(1716195852.035207) can0 50A#087D7DFF00000000
(1716195852.051101) can0 182#2C5D6100
(1716195852.051938) can0 183#0000000000006100
(1716195852.052890) can0 185#1313131314141313
(1716195852.095270) can0 501#095B000015140000
(1716195852.135337) can0 50A#087D7DFF00000000
(1716195852.195231) can0 501#095B000015140000
(1716195852.235188) can0 50A#087D7DFF00000000
(1716195852.251303) can0 460#0003A3BAFFFFFFE7
(1716195852.251955) can0 462#0013001461001A
(1716195852.252818) can0 463#00000019
(1716195852.253827) can0 461#08000000
(1716195852.254903) can0 50C#281A000000000100
(1716195852.255594) can0 464#000000000000AE41
(1716195852.255975) can0 466#0042070200000000
(1716195852.256753) can0 468#0303
(1716195852.295595) can0 501#095B000015140000
(1716195852.306146) can0 186#1415
(1716195852.334928) can0 50A#087D7DFF00000000
(1716195852.350864) can0 46A#019000DC
(1716195852.352431) can0 776#006409D8000001E0
(1716195852.355138) can0 500#000F000001C40000
(1716195852.395075) can0 501#095B000015140000
(1716195852.401134) can0 182#2C5D6100
(1716195852.402234) can0 183#0000000000006100
(1716195852.403054) can0 185#1313131314141313
(1716195852.434884) can0 50A#087D7DFF00000000
(1716195852.454996) can0 502#0000000000000000
(1716195852.495177) can0 501#095B000015140000
(1716195852.535163) can0 50A#087D7DFF00000000
(1716195852.551315) can0 460#0003A3BAFFFFFFE7
(1716195852.552028) can0 462#0013001461001A
(1716195852.553099) can0 463#00000019
(1716195852.554068) can0 461#09000000
(1716195852.554856) can0 503#0000000000000000
(1716195852.555707) can0 464#000000000000AE41
(1716195852.556058) can0 466#0042070200000000
(1716195852.556853) can0 468#0303
(1716195852.595155) can0 501#095B000015140000
(1716195852.635161) can0 50A#087D7DFF00000000
(1716195852.655204) can0 505#0951FFFE13146100
(1716195852.655863) can0 186#1415
(1716195852.695127) can0 501#095B000015140000
(1716195852.735065) can0 50A#087D7DFF00000000
(1716195852.751308) can0 182#2A5D6100
(1716195852.752534) can0 183#0000000000006100
(1716195852.753092) can0 185#1313131414141313
(1716195852.754793) can0 50C#281A000000000100
(1716195852.755294) can0 506#0000020000EA5F00
(1716195852.795160) can0 501#095B000015140000
(1716195852.835038) can0 50A#087D7DFF00000000
(1716195852.851879) can0 460#0003A39EFFFFFFE0
(1716195852.852123) can0 462#0013001461001A
(1716195852.853184) can0 463#00000020
(1716195852.854280) can0 461#0A000000
(1716195852.854796) can0 50D#0000007C00000000
(1716195852.855472) can0 464#000000000000AE41
(1716195852.856294) can0 466#0042070200000000
(1716195852.856911) can0 468#0303
(1716195852.894785) can0 501#095B000015140000
(1716195852.934828) can0 50A#087D7DFF00000000
(1716195852.954813) can0 50F#0000000000000000
(1716195852.995040) can0 501#095B000015140000
(1716195853.005967) can0 186#1415
(1716195853.034961) can0 50A#087D7DFF00000000
(1716195853.095061) can0 501#095B000015140000
(1716195853.101255) can0 182#285D6100
(1716195853.102486) can0 183#0000000000006100
(1716195853.103219) can0 185#1313131414141313
(1716195853.134978) can0 50A#087D7DFF00000000
(1716195853.151516) can0 460#0003A398FFFFFFE7
(1716195853.152261) can0 462#0013001461001A
(1716195853.153563) can0 463#00000019
(1716195853.154087) can0 461#0B000000
(1716195853.155262) can0 464#000000000000AE41
(1716195853.156433) can0 466#0042070200000000
(1716195853.157004) can0 468#0303
(1716195853.195035) can0 501#095B000015140000
(1716195853.234956) can0 50A#087D7DFF00000000
(1716195853.254729) can0 50C#281A000000000100
(1716195853.294702) can0 501#095B000015140000
(1716195853.334932) can0 50A#087D7DFF00000000
(1716195853.351123) can0 46A#019000DC
(1716195853.352261) can0 776#006409D8000001E0
(1716195853.354932) can0 500#000F000001C40000
(1716195853.356267) can0 186#1415
(1716195853.394666) can0 501#095B000015140000
(1716195853.435063) can0 50A#087D7DFF00000000
(1716195853.451559) can0 460#0003A393FFFFFFE0
(1716195853.452395) can0 462#0013001461001A
(1716195853.453353) can0 463#00000020
(1716195853.454351) can0 461#0C000000
(1716195853.454689) can0 502#0000000000000000
(1716195853.455436) can0 464#000000000000AE41
(1716195853.456295) can0 466#0042070200000000
(1716195853.457330) can0 468#0303
(1716195853.458335) can0 182#285D6100
(1716195853.459484) can0 183#0000000000006100
(1716195853.460278) can0 185#1313131414141313
(1716195853.494961) can0 501#095B000015140000
(1716195853.534971) can0 50A#087D7DFF00000000
(1716195853.554848) can0 503#0000000000000000
(1716195853.594964) can0 501#095B000015140000
(1716195853.634960) can0 50A#087D7DFF00000000
(1716195853.654938) can0 505#0950FFFD13146100
(1716195853.694943) can0 501#095B000015140000
(1716195853.706172) can0 186#1415
(1716195853.734866) can0 50A#087D7DFF00000000
(1716195853.751717) can0 460#0003A37DFFFFFFE7
(1716195853.752371) can0 462#0013001461001A
(1716195853.753236) can0 463#00000019
(1716195853.754221) can0 461#0D000000
(1716195853.754716) can0 506#0000020000EA5F00
(1716195853.755460) can0 50C#281A000000000100
(1716195853.755724) can0 464#000000000000AE41
(1716195853.756547) can0 466#0042070200000000
(1716195853.757153) can0 468#0303
(1716195853.794599) can0 501#095B000015140000
(1716195853.801521) can0 182#265D6100
(1716195853.802647) can0 183#0000000000006100
(1716195853.803398) can0 185#1313131414141313
(1716195853.834974) can0 50A#087D7DFF00000000
(1716195853.854846) can0 50D#0000007C00000000
(1716195853.894902) can0 501#095B000015140000
(1716195853.934896) can0 50A#087D7DFF00000000
(1716195853.954828) can0 50F#0000000000000000
(1716195853.994869) can0 501#095B000015140000
(1716195854.034589) can0 50A#087D7DFF00000000
(1716195854.051803) can0 460#0003A377FFFFFFE7
(1716195854.052427) can0 462#0013001461001A
(1716195854.053542) can0 463#00000019
(1716195854.054537) can0 461#0E000000
(1716195854.055780) can0 464#000000000000AE41
(1716195854.056468) can0 466#0042070200000000
(1716195854.057222) can0 468#0303
(1716195854.058529) can0 186#1415
(1716195854.094533) can0 501#095B000015140000
(1716195854.134781) can0 50A#087D7DFF00000000
(1716195854.151648) can0 182#255D6100
(1716195854.152852) can0 183#0000000000006100
(1716195854.153453) can0 185#1313131414141313
(1716195854.194829) can0 501#095B000015140000
(1716195854.234699) can0 50A#087D7DFF00000000
(1716195854.254553) can0 50C#281A000000000100
(1716195854.294521) can0 501#095B000015140000
(1716195854.334725) can0 50A#087D7DFF00000000
(1716195854.351768) can0 460#0003A35FFFFFFFE7
(1716195854.352616) can0 462#0013001461001A
(1716195854.353355) can0 463#00000019
(1716195854.354864) can0 500#000F000001C40000
(1716195854.354886) can0 461#0F000000
(1716195854.355542) can0 464#000000000000AE41
(1716195854.356541) can0 466#0042070200000000
(1716195854.357275) can0 468#0303
(1716195854.358620) can0 46A#019000DC
(1716195854.359738) can0 776#006409D8000001E0
(1716195854.394517) can0 501#095B000015140000
(1716195854.406354) can0 186#1415
(1716195854.434794) can0 50A#087D7DFF00000000
(1716195854.454719) can0 502#0000000000000000
(1716195854.494774) can0 501#095B000015140000
(1716195854.501542) can0 182#235D6100
(1716195854.502868) can0 183#0000000000006100
(1716195854.503522) can0 185#1313131414141313
(1716195854.534764) can0 50A#087D7DFF00000000
(1716195854.554713) can0 503#0000000000000000
(1716195854.594748) can0 501#095B000015140000
(1716195854.634750) can0 50A#087D7DFF00000000
(1716195854.651594) can0 460#0003A35FFFFFFFE7
(1716195854.652508) can0 462#0013001561001A
(1716195854.653430) can0 463#00000019
(1716195854.654715) can0 505#0950FFFE13146100
(1716195854.654732) can0 461#01151313
(1716195854.655900) can0 464#000000000000AE41
(1716195854.657075) can0 466#0042070200000000
(1716195854.657317) can0 468#0303
(1716195854.694413) can0 501#095B000015140000
(1716195854.734416) can0 50A#087D7DFF00000000
(1716195854.754731) can0 50C#281A000000000100
(1716195854.754865) can0 506#0000020000EA5F00
(1716195854.756344) can0 186#1415
(1716195854.794439) can0 501#095B000015140000
(1716195854.834569) can0 50A#087D7DFF00000000
(1716195854.851473) can0 182#225D6100
(1716195854.852813) can0 183#0000000000006100
(1716195854.853633) can0 185#1313131414141313
(1716195854.854457) can0 50D#0000007C00000000
(1716195854.894382) can0 501#095B000015140000
(1716195854.934682) can0 50A#087D7DFF00000000
(1716195854.951862) can0 460#0003A346FFFFFFE7
(1716195854.952558) can0 462#0013001561001A
(1716195854.953796) can0 463#00000019
(1716195854.954365) can0 50F#0000000000000000
(1716195854.954684) can0 461#02151314
(1716195854.955635) can0 464#000000000000AE41
(1716195854.956606) can0 466#0042070200000000
(1716195854.957404) can0 468#0303
(1716195854.994678) can0 501#095B000015140000
(1716195855.034676) can0 50A#087D7DFF00000000
(1716195855.094373) can0 501#095B000015140000
(1716195855.106738) can0 186#1415
(1716195855.134531) can0 50A#087D7DFF00000000
(1716195855.194637) can0 501#095B000015140000
(1716195855.201528) can0 182#205D6100
(1716195855.202972) can0 183#0000000000006100
(1716195855.203842) can0 185#1313131414141313
(1716195855.234313) can0 50A#087D7DFF00000000
(1716195855.251971) can0 460#0003A346FFFFFFE0
(1716195855.252591) can0 462#0013001561001A
(1716195855.253471) can0 463#00000020
(1716195855.254264) can0 50C#281A000000000100
(1716195855.254610) can0 461#03151414
(1716195855.255843) can0 464#000000000000AE41
(1716195855.256907) can0 466#0042070200000000
(1716195855.257431) can0 468#0303
(1716195855.294665) can0 501#095B000015140000
(1716195855.334529) can0 50A#087D7DFF00000000
(1716195855.351706) can0 46A#019000DC
(1716195855.352636) can0 776#006409D8000001E0
(1716195855.354526) can0 500#000F000001C40000
(1716195855.394584) can0 501#095B000015140000
(1716195855.434589) can0 50A#087D7DFF00000000
(1716195855.454525) can0 502#0000000000000000
(1716195855.456468) can0 186#1415
(1716195855.494646) can0 501#095B000015140000
(1716195855.534567) can0 50A#087D7DFF00000000
(1716195855.551738) can0 460#0003A33FFFFFFFE7
(1716195855.552957) can0 462#0013001461001A
(1716195855.553538) can0 463#00000019
(1716195855.554677) can0 503#0000000000000000
(1716195855.554696) can0 461#04151313
(1716195855.555992) can0 464#000000000000AE41
(1716195855.556670) can0 466#0042070200000000
(1716195855.557977) can0 468#0303
(1716195855.558562) can0 182#1F5D6100
(1716195855.560014) can0 183#0000000000006100
(1716195855.560653) can0 185#1313131414141313
(1716195855.594558) can0 501#095B000015140000
(1716195855.634506) can0 50A#087D7DFF00000000
(1716195855.654248) can0 505#094FFFFE13146100
(1716195855.694461) can0 501#095B000015140000
(1716195855.734570) can0 50A#087D7DFF00000000
(1716195855.754473) can0 50C#281A000000000100
(1716195855.754681) can0 506#0000020000EA5F00
(1716195855.794417) can0 501#095B000015140000
(1716195855.806818) can0 186#1415
(1716195855.834513) can0 50A#087D7DFF00000000
(1716195855.851999) can0 460#0003A32CFFFFFFE0
(1716195855.852707) can0 462#0013001461001A
(1716195855.853776) can0 463#00000020
(1716195855.854183) can0 50D#0000007C00000000
(1716195855.854592) can0 461#05151415
(1716195855.855925) can0 464#000000000000AE41
(1716195855.856716) can0 466#0042070200000000
(1716195855.857705) can0 468#0303
(1716195855.894487) can0 501#095C000015140000
(1716195855.901609) can0 182#1E5D6100
(1716195855.903072) can0 183#0000000000006100
(1716195855.903722) can0 185#1313131414141313
(1716195855.934496) can0 50A#087D7DFF00000000
(1716195855.954422) can0 50F#0000000000000000
(1716195855.994620) can0 501#095C000015140000
(1716195856.034468) can0 50A#087D7DFF00000000
(1716195856.094410) can0 501#095B000015140000
(1716195856.134247) can0 50A#087D7DFF00000000
(1716195856.151849) can0 460#0003A32CFFFFFFE0
(1716195856.152753) can0 462#0013001461001A
(1716195856.153608) can0 463#00000020
(1716195856.154636) can0 461#06000000
(1716195856.156156) can0 464#000000000000AE41
(1716195856.156809) can0 466#0042070200000000
(1716195856.157782) can0 468#0303
(1716195856.158769) can0 186#1415
(1716195856.194638) can0 501#095B000015140000
(1716195856.234434) can0 50A#087D7DFF00000000
(1716195856.252421) can0 182#1D5D6100
(1716195856.252826) can0 183#0000000000006100
(1716195856.253968) can0 185#1313131414141313
(1716195856.254286) can0 50C#281A000000000100
(1716195856.294377) can0 501#095B000015140000
(1716195856.334401) can0 50A#087D7DFF00000000
(1716195856.351934) can0 46A#019000DC
(1716195856.352905) can0 776#006409D8000001E0
(1716195856.354263) can0 500#000F000001C40000
(1716195856.394223) can0 501#095B000015140000
(1716195856.434071) can0 50A#087D7DFF00000000
(1716195856.452185) can0 460#0003A313FFFFFFE0
(1716195856.452816) can0 462#0013001461001A
(1716195856.453992) can0 463#00000020
(1716195856.454158) can0 502#0000000000000000
(1716195856.454696) can0 461#07000000
(1716195856.456161) can0 464#000000000000AE41
(1716195856.456832) can0 466#0042070200000000
(1716195856.457982) can0 468#0303
(1716195856.494053) can0 501#095B000015140000
(1716195856.506824) can0 186#1415
(1716195856.534298) can0 50A#087D7DFF00000000
(1716195856.554388) can0 503#0000000000000000
(1716195856.594553) can0 501#095B000015140000
(1716195856.602042) can0 182#1A5D6100
(1716195856.603255) can0 183#0000000000006100
(1716195856.603935) can0 185#1313131414141313
(1716195856.634038) can0 50A#087D7DFF00000000
(1716195856.654002) can0 505#094FFFFD13146100
(1716195856.694243) can0 501#095C000015140000
(1716195856.734333) can0 50A#087D7DFF00000000
(1716195856.752200) can0 460#0003A30DFFFFFFE0
(1716195856.752865) can0 462#0013001461001A
(1716195856.753940) can0 463#00000020
(1716195856.754254) can0 506#0000020000EA5F00
(1716195856.754833) can0 50C#281A000000000100
(1716195856.755077) can0 461#08000000
(1716195856.756140) can0 464#000000000000AE41
(1716195856.756955) can0 466#0042070200000000
(1716195856.757944) can0 468#0303
(1716195856.794020) can0 501#095C000015140000
(1716195856.834021) can0 50A#087D7DFF00000000
(1716195856.854237) can0 50D#0000007C00000000
(1716195856.856959) can0 186#1415
(1716195856.894003) can0 501#095C000015140000
(1716195856.934308) can0 50A#087D7DFF00000000
(1716195856.952126) can0 182#1A5D6100
(1716195856.953370) can0 183#0000000000006100
(1716195856.953910) can0 185#1313131314141313
(1716195856.954481) can0 50F#0000000000000000
(1716195856.994247) can0 501#095C000015140000
(1716195857.034660) can0 50A#087D7DFF00000000
(1716195857.052011) can0 460#0003A307FFFFFFE0
(1716195857.052926) can0 462#0013001461001A
(1716195857.053789) can0 463#00000020
(1716195857.055535) can0 461#09000000
(1716195857.055952) can0 464#000000000000AE41
(1716195857.057546) can0 466#0042070200000000
(1716195857.057725) can0 468#0303
(1716195857.094132) can0 501#095C000015140000
(1716195857.134267) can0 50A#087D7DFF00000000
(1716195857.194256) can0 501#095C000015140000
(1716195857.207095) can0 186#1415
(1716195857.234457) can0 50A#087D7DFF00000000
(1716195857.253918) can0 50C#281A000000000100
(1716195857.294207) can0 501#095C000015140000
(1716195857.302007) can0 182#185D6100
(1716195857.303267) can0 183#0000000000006100
(1716195857.304003) can0 185#1313131314141313
(1716195857.334301) can0 50A#087D7DFF00000000
(1716195857.352286) can0 460#0003A2F0FFFFFFE0
(1716195857.352977) can0 462#0013001461001A
(1716195857.354169) can0 500#000F000001C40000
(1716195857.354230) can0 463#00000020
(1716195857.355040) can0 461#0A000000
(1716195857.356356) can0 464#000000000000AE41
(1716195857.357018) can0 466#0042070200000000
(1716195857.358038) can0 468#0303
(1716195857.359063) can0 46A#019000DC
(1716195857.360204) can0 776#006409D8000001E0
(1716195857.393962) can0 501#095C000015140000
(1716195857.434269) can0 50A#087D7DFF00000000
(1716195857.453952) can0 502#0000000000000000
(1716195857.494082) can0 501#095C000015140000
(1716195857.534164) can0 50A#087D7DFF00000000
(1716195857.554300) can0 503#0000000000000000
(1716195857.557150) can0 186#1415
(1716195857.594240) can0 501#095C000015140000
(1716195857.634207) can0 50A#087D7DFF00000000
(1716195857.652118) can0 460#0003A2ECFFFFFFE0
(1716195857.653018) can0 462#0013001561001A
(1716195857.653785) can0 505#094FFFFD13146100
(1716195857.654141) can0 463#00000020
(1716195857.654896) can0 461#0B000000
(1716195857.656329) can0 464#000000000000AE41
(1716195857.657222) can0 466#0042070200000000
(1716195857.657895) can0 468#0303
(1716195857.659105) can0 182#175D6100
(1716195857.660344) can0 183#0000000000006100
(1716195857.661037) can0 185#1313131314141313
(1716195857.694092) can0 501#095C000015140000
(1716195857.734095) can0 50A#087D7DFF00000000
(1716195857.754070) can0 50C#281A000000000100
(1716195857.754333) can0 506#0000020000EA5F00
(1716195857.794096) can0 501#095C000015140000
(1716195857.834307) can0 50A#087D7DFF00000000
(1716195857.854065) can0 50D#0000007C00000000
(1716195857.894077) can0 501#095C000015140000
(1716195857.907121) can0 186#1415
(1716195857.933803) can0 50A#087D7DFF00000000
(1716195857.952429) can0 460#0003A2D5FFFFFFE0
(1716195857.953047) can0 462#0013001561001A
(1716195857.954123) can0 50F#0000000000000000
(1716195857.954144) can0 463#00000020
(1716195857.955229) can0 461#0C000000
(1716195857.956106) can0 464#000000000000AE41
(1716195857.957415) can0 466#0042070200000000
(1716195857.957844) can0 468#0303
(1716195857.993840) can0 501#095C000015140000
(1716195858.002204) can0 182#155D6100
(1716195858.003357) can0 183#0000000000006100
(1716195858.004205) can0 185#1313131314141313
(1716195858.033783) can0 50A#087D7DFF00000000
(1716195858.094287) can0 501#095C000015140000
(1716195858.133762) can0 50A#087D7DFF00000000
(1716195858.194301) can0 501#095C000015140000
(1716195858.233756) can0 50A#087D7DFF00000000
(1716195858.252151) can0 460#0003A2D5FFFFFFE7
(1716195858.253076) can0 462#0013001461001A
(1716195858.253719) can0 50C#281A000000000100
(1716195858.254025) can0 463#00000019
(1716195858.255099) can0 461#0D000000
(1716195858.256348) can0 464#000000000000AE41
(1716195858.257114) can0 466#0042070200000000
(1716195858.258389) can0 468#0303
(1716195858.258878) can0 186#1415
(1716195858.293863) can0 501#095C000015140000
(1716195858.333793) can0 50A#087D7DFF00000000
(1716195858.352265) can0 46A#019000DC
(1716195858.352986) can0 182#145D6100
(1716195858.353897) can0 500#000F000001C40000
(1716195858.354163) can0 183#0000000000006100
(1716195858.355384) can0 185#1313131314141313
(1716195858.356147) can0 776#006409D8000001E0
(1716195858.393734) can0 501#095C000015140000
(1716195858.433772) can0 50A#087D7DFF00000000
(1716195858.453734) can0 502#0000000000000000
(1716195858.494012) can0 501#095C000015140000
(1716195858.533940) can0 50A#087D7DFF00000000
(1716195858.552508) can0 460#0003A2BFFFFFFFE0
(1716195858.553131) can0 462#0013001461001A
(1716195858.554034) can0 503#0000000000000000
(1716195858.554050) can0 463#00000020
(1716195858.555346) can0 461#0E000000
(1716195858.556507) can0 464#000000000000AE41
(1716195858.557180) can0 466#0042070200000000
(1716195858.558244) can0 468#0303
(1716195858.593766) can0 501#095C000015140000
(1716195858.607293) can0 186#1415
(1716195858.633640) can0 50A#087D7DFF00000000
(1716195858.653597) can0 505#094EFFFD13146100
(1716195858.693653) can0 501#095C000015140000
(1716195858.702388) can0 182#125D6100
(1716195858.703570) can0 183#0000000000006100
(1716195858.704173) can0 185#1313131314141313
(1716195858.733608) can0 50A#087D7DFF00000000
(1716195858.753744) can0 50C#281A000000000100
(1716195858.754088) can0 506#0000020000EA5F00
(1716195858.793843) can0 501#095C000015140000
(1716195858.833643) can0 50A#087D7DFF00000000
(1716195858.852241) can0 460#0003A2BCFFFFFFE0
(1716195858.853155) can0 462#0013001461001A
(1716195858.853749) can0 50D#0000007D00000000
(1716195858.854323) can0 463#00000020
(1716195858.855139) can0 461#0F000000
(1716195858.856211) can0 464#000000000000AE41
(1716195858.857402) can0 466#0042070200000000
(1716195858.858144) can0 468#0303
(1716195858.893637) can0 501#095C000015140000
(1716195858.933574) can0 50A#087D7DFF00000000
(1716195858.953620) can0 50F#0000000000000000
(1716195858.957313) can0 186#1415
(1716195858.993571) can0 501#095C000015140000
(1716195859.033581) can0 50A#087D7DFF00000000
(1716195859.052083) can0 182#115D6100
(1716195859.053211) can0 183#0000000000006100
(1716195859.054189) can0 185#1313131414141313
(1716195859.093560) can0 501#095C000015140000
(1716195859.133565) can0 50A#087D7DFF00000000
(1716195859.152247) can0 460#0003A2AAFFFFFFE0
(1716195859.153204) can0 462#0013001461001A
(1716195859.154565) can0 463#00000020
(1716195859.155251) can0 461#01151313
(1716195859.156535) can0 464#000000000000AE41
(1716195859.157241) can0 466#0042070200000000
(1716195859.158207) can0 468#0303
(1716195859.193535) can0 501#095C000015140000
(1716195859.233531) can0 50A#087D7DFF00000000
(1716195859.253770) can0 50C#281A000000000100
(1716195859.293515) can0 501#095C000015140000
(1716195859.307304) can0 186#1415
(1716195859.333551) can0 50A#087D7DFF00000000
(1716195859.352464) can0 46A#019000DC
(1716195859.353269) can0 776#006409D8000001E0
(1716195859.354286) can0 500#000F000001C40000
(1716195859.393531) can0 501#095C000015140000
(1716195859.402510) can0 182#105D6100
(1716195859.403443) can0 183#0000000000006100
(1716195859.404517) can0 185#1313131414141313
(1716195859.433500) can0 50A#087D7DFF00000000
(1716195859.452634) can0 460#0003A2A3FFFFFFE7
(1716195859.453265) can0 462#0013001461001A
(1716195859.453863) can0 502#0000000000000000
(1716195859.454159) can0 463#00000019
(1716195859.455436) can0 461#02141314
(1716195859.456623) can0 464#000000000000AE41
(1716195859.457285) can0 466#0042070200000000
(1716195859.458068) can0 468#0303
(1716195859.493468) can0 501#095C000015140000
(1716195859.533478) can0 50A#087D7DFF00000000
(1716195859.553494) can0 503#0000000000000000
(1716195859.593482) can0 501#095C000015140000
(1716195859.633557) can0 50A#087D7DFF00000000
(1716195859.653546) can0 505#094EFFFE13146100
(1716195859.657377) can0 186#1415
(1716195859.693589) can0 501#095C000015140000
(1716195859.733550) can0 50A#087D7DFF00000000
(1716195859.752366) can0 460#0003A293FFFFFFE0
(1716195859.753276) can0 462#0013001461001A
(1716195859.753890) can0 506#00000200000B2A00
(1716195859.754253) can0 50C#281A000000000100
(1716195859.754797) can0 463#00000020
(1716195859.755302) can0 461#03151414
(1716195859.756382) can0 464#000000000000AE41
(1716195859.757394) can0 466#0042070200000000
(1716195859.758312) can0 468#0303
(1716195859.759381) can0 182#0E5D6100
(1716195859.760349) can0 183#0000000000006100
(1716195859.761295) can0 185#1313131414141313
(1716195859.793475) can0 501#095C000015140000
(1716195859.833554) can0 50A#087D7DFF00000000
(1716195859.853559) can0 50D#0000007D00000000
(1716195859.893720) can0 501#095C000015140000
(1716195859.933555) can0 50A#087D7DFF00000000
(1716195859.953520) can0 50F#0000000000000000
(1716195859.993543) can0 501#095C000015140000
(1716195860.007472) can0 186#1415
(1716195860.033476) can0 50A#087D7DFF00000000
(1716195860.052409) can0 460#0003A292FFFFFFE0
(1716195860.053337) can0 462#0013001461001A
(1716195860.054225) can0 463#00000020
(1716195860.055206) can0 461#04151313
(1716195860.056389) can0 464#000000000000AE41
(1716195860.057719) can0 466#0042070200000000
(1716195860.058146) can0 468#0303
(1716195860.093475) can0 501#095C000015140000
(1716195860.102567) can0 182#0E5D6100
(1716195860.103685) can0 183#0000000000006100
(1716195860.104348) can0 185#1313131414141313
(1716195860.133544) can0 50A#087D7DFF00000000
(1716195860.193654) can0 501#095C000015140000
(1716195860.233465) can0 50A#087D7DFF00000000
(1716195860.253327) can0 50C#281A000000000100
(1716195860.293471) can0 501#095C000015140000
(1716195860.333532) can0 50A#087D7DFF00000000
(1716195860.352499) can0 460#0003A27DFFFFFFE0
(1716195860.353281) can0 500#000F000001C40000
(1716195860.353732) can0 462#0013001461001A
(1716195860.354435) can0 463#00000020
(1716195860.355482) can0 461#05151415
(1716195860.356799) can0 464#000000000000AE41
(1716195860.357448) can0 466#0042070200000000
(1716195860.358385) can0 468#0303
(1716195860.359524) can0 46A#019000DC
(1716195860.360201) can0 186#1415
(1716195860.361528) can0 776#006409D8000001E0
(1716195860.393479) can0 501#095C000015140000
(1716195860.433265) can0 50A#087D7DFF00000000
(1716195860.452306) can0 182#0C5D6100
(1716195860.453236) can0 502#0000000000000000
(1716195860.454039) can0 183#0000000000006100
(1716195860.454396) can0 185#1313131414141313
(1716195860.493470) can0 501#095C000015140000
(1716195860.533298) can0 50A#087D7DFF00000000
(1716195860.553548) can0 503#0000000000000000
(1716195860.593339) can0 501#095C000015140000
(1716195860.633554) can0 50A#087D7DFF00000000
(1716195860.652780) can0 460#0003A277FFFFFFE0
(1716195860.653184) can0 505#094EFFFD13146100
(1716195860.653788) can0 462#0013001461001A
(1716195860.654294) can0 463#00000020
(1716195860.655608) can0 461#06000000
(1716195860.656762) can0 464#000000000000AE41
(1716195860.657638) can0 466#0042070200000000
(1716195860.658454) can0 468#0303
(1716195860.693242) can0 501#095C000015140000
(1716195860.707494) can0 186#1415
(1716195860.733478) can0 50A#087D7DFF00000000
(1716195860.753543) can0 50C#281A000000000100
(1716195860.753729) can0 506#00000200000B2A00
(1716195860.793532) can0 501#095C000015140000
(1716195860.802460) can0 182#0B5D6100
(1716195860.803790) can0 183#0000000000006100
(1716195860.804411) can0 185#1313131414141313
(1716195860.833303) can0 50A#087D7DFF00000000
(1716195860.853198) can0 50D#0000007D00000000
(1716195860.893429) can0 501#095C000015140000
(1716195860.933195) can0 50A#087D7DFF00000000
(1716195860.952502) can0 460#0003A26BFFFFFFE0
(1716195860.953173) can0 50F#0000000000000000
(1716195860.953603) can0 462#0013001461001A
(1716195860.954782) can0 463#00000020
(1716195860.955580) can0 461#07000000
(1716195860.956594) can0 464#000000000000AE41
(1716195860.957839) can0 466#0042070200000000
