(1716195574.732360) can0 182#A95D6100
(1716195574.733534) can0 183#0000000000006100
(1716195574.734494) can0 185#1313131314141313
(1716195574.744305) can0 50A#087D7DFF00000000
(1716195574.764733) can0 50C#281A000000000100
(1716195574.764754) can0 506#0000020000EA5F00
(1716195574.804097) can0 501#096E000015140000
(1716195574.844396) can0 50A#087D7DFF00000000
(1716195574.864070) can0 50D#0000007800000000
(1716195574.904318) can0 501#096E000015140000
(1716195574.932928) can0 460#0003A89DFFFFFFE7
(1716195574.933508) can0 462#00130014610018
(1716195574.934773) can0 463#00000019
(1716195574.935471) can0 461#0E000000
(1716195574.936895) can0 464#080000000000AE41
(1716195574.938045) can0 466#0042070200000000
(1716195574.938347) can0 468#0303
(1716195574.944362) can0 50A#087D7DFF00000000
(1716195574.964349) can0 50F#0000000000000000
(1716195574.987650) can0 186#1415
(1716195575.004378) can0 501#096E000015140000
(1716195575.044395) can0 50A#087D7DFF00000000
(1716195575.082712) can0 182#A95D6100
(1716195575.083940) can0 183#0000000000006100
(1716195575.084781) can0 185#1313131314141313
(1716195575.104087) can0 501#096E000015140000
(1716195575.144469) can0 50A#087D7DFF00000000
(1716195575.204091) can0 501#096E000015140000
(1716195575.232715) can0 460#0003A89BFFFFFFE7
(1716195575.233654) can0 462#00130014610018
(1716195575.234539) can0 463#00000019
(1716195575.235772) can0 461#0F000000
(1716195575.236844) can0 464#080000000000AE41
(1716195575.238092) can0 466#0042070200000000
(1716195575.238464) can0 468#0303
(1716195575.239849) can0 46A#019000DC
(1716195575.240723) can0 776#006409D8000001E0
(1716195575.244070) can0 50A#087D7DFF00000000
(1716195575.264069) can0 50C#281A000000000100
(1716195575.304310) can0 501#096E000015140000
(1716195575.337544) can0 186#1415
(1716195575.344355) can0 50A#087D7DFF00000000
(1716195575.364108) can0 500#000F000001C40000
(1716195575.404030) can0 501#096E000015140000
(1716195575.433222) can0 182#A95D6100
(1716195575.433783) can0 183#0000000000006100
(1716195575.435238) can0 185#1313131314141313
(1716195575.444460) can0 50A#087D7DFF00000000
(1716195575.464083) can0 502#0000000000000000
(1716195575.504376) can0 501#096E000015140000
(1716195575.533162) can0 460#0003A89BFFFFFFE7
(1716195575.533759) can0 462#00130014610018
(1716195575.535016) can0 463#00000019
(1716195575.535728) can0 461#01141313
(1716195575.536826) can0 464#080000000000AE41
(1716195575.538333) can0 466#0042070200000000
(1716195575.538584) can0 468#0303
(1716195575.544087) can0 50A#087D7DFF00000000
(1716195575.564389) can0 503#0000000000000000
(1716195575.604368) can0 501#096E000015140000
(1716195575.644369) can0 50A#087D7DFF00000000
(1716195575.664361) can0 505#095DFFFE13146100
(1716195575.687940) can0 186#1415
(1716195575.704070) can0 501#096E000015140000
(1716195575.744300) can0 50A#087D7DFF00000000
(1716195575.764384) can0 50C#281A000000000100
(1716195575.764509) can0 506#0000020000EA5F00
(1716195575.783108) can0 182#A85D6100
(1716195575.784319) can0 183#0000000000006100
(1716195575.784887) can0 185#1313131314141313
(1716195575.804399) can0 501#096E000015140000
(1716195575.833165) can0 460#0003A898FFFFFFE7
(1716195575.833931) can0 462#00130014610018
(1716195575.835164) can0 463#00000019
(1716195575.835965) can0 461#02141313
(1716195575.837152) can0 464#080000000000AE41
(1716195575.838135) can0 466#0042070200000000
(1716195575.838992) can0 468#0303
(1716195575.844203) can0 50A#087D7DFF00000000
(1716195575.864081) can0 50D#0000007800000000
(1716195575.904303) can0 501#096E000015140000
(1716195575.944240) can0 50A#087D7DFF00000000
(1716195575.964214) can0 50F#0000000000000000
(1716195576.004290) can0 501#096E000015140000
(1716195576.038095) can0 186#1415
(1716195576.044050) can0 50A#087D7DFF00000000
(1716195576.104357) can0 501#096E000015140000
(1716195576.133091) can0 460#0003A897FFFFFFE7
(1716195576.134023) can0 462#00130014610018
(1716195576.134918) can0 463#00000019
(1716195576.136147) can0 461#03151414
(1716195576.137127) can0 464#080000000000AE41
(1716195576.138330) can0 466#0042070200000000
(1716195576.139033) can0 468#0303
(1716195576.140401) can0 182#A85D6100
(1716195576.141111) can0 183#0000000000006100
(1716195576.142643) can0 185#1313131314141313
(1716195576.144015) can0 50A#087D7DFF00000000
(1716195576.204352) can0 501#096E000015140000
(1716195576.232997) can0 46A#019000DC
(1716195576.234100) can0 776#006409D8000001E0
(1716195576.244349) can0 50A#087D7DFF00000000
(1716195576.264069) can0 50C#281A000000000100
(1716195576.304279) can0 501#096E000015140000
(1716195576.344069) can0 50A#087D7DFF00000000
(1716195576.364086) can0 500#000F000001C40000
(1716195576.388254) can0 186#1415
(1716195576.404294) can0 501#096E000015140000
(1716195576.433211) can0 460#0003A896FFFFFFE0
(1716195576.434297) can0 462#00130014610018
(1716195576.435210) can0 463#00000020
(1716195576.436265) can0 461#04151313
(1716195576.437199) can0 464#080000000000AE41
(1716195576.438458) can0 466#0042070200000000
(1716195576.438962) can0 468#0303
(1716195576.444069) can0 50A#087D7DFF00000000
(1716195576.464113) can0 502#0000000000000000
(1716195576.483083) can0 182#A85D6100
(1716195576.484213) can0 183#0000000000006100
(1716195576.485186) can0 185#1313131314141313
(1716195576.504357) can0 501#096E000015140000
(1716195576.544044) can0 50A#087D7DFF00000000
(1716195576.564388) can0 503#0000000000000000
(1716195576.604269) can0 501#096E000015140000
(1716195576.644053) can0 50A#087D7DFF00000000
(1716195576.664038) can0 505#095DFFFD13146100
(1716195576.704292) can0 501#096E000015140000
(1716195576.733366) can0 460#0003A895FFFFFFE7
(1716195576.734594) can0 462#00130014610018
(1716195576.735369) can0 463#00000019
(1716195576.736252) can0 461#05151415
(1716195576.737411) can0 464#080000000000AE41
(1716195576.738588) can0 466#0042070200000000
(1716195576.739090) can0 468#0303
(1716195576.740473) can0 186#1415
(1716195576.744068) can0 50A#087D7DFF00000000
(1716195576.764295) can0 50C#281A000000000100
(1716195576.764529) can0 506#0000020000EA5F00
(1716195576.804280) can0 501#096E000015140000
(1716195576.833244) can0 182#A85D6100
(1716195576.834634) can0 183#0000000000006100
(1716195576.835475) can0 185#1313131314141313
(1716195576.844080) can0 50A#087D7DFF00000000
(1716195576.864299) can0 50D#0000007800000000
(1716195576.904068) can0 501#096E000015140000
(1716195576.944031) can0 50A#087D7DFF00000000
(1716195576.964363) can0 50F#0000000000000000
(1716195577.004358) can0 501#096E000015140000
(1716195577.033485) can0 460#0003A894FFFFFFE7
(1716195577.034435) can0 462#00130014610018
(1716195577.035552) can0 463#00000019
(1716195577.036536) can0 461#06000000
(1716195577.037590) can0 464#080000000000AE41
(1716195577.038668) can0 466#0042070200000000
(1716195577.039365) can0 468#0303
(1716195577.044265) can0 50A#087D7DFF00000000
(1716195577.088625) can0 186#1415
(1716195577.104281) can0 501#096E000015140000
(1716195577.144292) can0 50A#087D7DFF00000000
(1716195577.183745) can0 182#A85D6100
(1716195577.184956) can0 183#0000000000006100
(1716195577.185505) can0 185#1313131314141313
(1716195577.204275) can0 501#096E000015140000
(1716195577.233459) can0 46A#019000DC
(1716195577.235148) can0 776#006409D8000001E0
(1716195577.244277) can0 50A#087D7DFF00000000
(1716195577.264392) can0 50C#281A000000000100
(1716195577.304359) can0 501#096E000015140000
(1716195577.333679) can0 460#0003A894FFFFFFE7
(1716195577.334909) can0 462#00130014610018
(1716195577.335456) can0 463#00000019
(1716195577.336826) can0 461#07000000
(1716195577.338048) can0 464#080000000000AE41
(1716195577.338614) can0 466#0042070200000000
(1716195577.339695) can0 468#0303
(1716195577.344354) can0 50A#087D7DFF00000000
(1716195577.364380) can0 500#000F000001C40000
(1716195577.404363) can0 501#096E000015140000
(1716195577.438789) can0 186#1415
(1716195577.444359) can0 50A#087D7DFF00000000
(1716195577.464378) can0 502#0000000000000000
(1716195577.504355) can0 501#096E000015140000
(1716195577.533591) can0 182#A85D6100
(1716195577.534766) can0 183#0000000000006100
(1716195577.535707) can0 185#1313131314141313
(1716195577.544278) can0 50A#087D7DFF00000000
(1716195577.564056) can0 503#0000000000000000
(1716195577.604276) can0 501#096E000015140000
(1716195577.633803) can0 460#0003A893FFFFFFE7
(1716195577.634975) can0 462#00130014610018
(1716195577.636009) can0 463#00000019
(1716195577.636821) can0 461#08000000
(1716195577.637965) can0 464#080000000000AE41
(1716195577.639034) can0 466#0042070200000000
(1716195577.639535) can0 468#0303
(1716195577.644274) can0 50A#087D7DFF00000000
(1716195577.664278) can0 505#095DFFFE13146100
(1716195577.704283) can0 501#096E000015140000
(1716195577.744286) can0 50A#087D7DFF00000000
(1716195577.764274) can0 50C#281A000000000100
(1716195577.764513) can0 506#0000020000EA5F00
(1716195577.788868) can0 186#1415
(1716195577.804353) can0 501#096E000015140000
(1716195577.844350) can0 50A#087D7DFF00000000
(1716195577.864357) can0 50D#0000007800000000
(1716195577.883825) can0 182#A85D6100
(1716195577.884871) can0 183#0000000000006100
(1716195577.886058) can0 185#1313131314141313
(1716195577.904035) can0 501#096E000015140000
(1716195577.933943) can0 460#0003A892FFFFFFE7
(1716195577.934855) can0 462#00130014610018
(1716195577.935783) can0 463#00000019
(1716195577.936783) can0 461#09000000
(1716195577.937899) can0 464#080000000000AE41
(1716195577.939670) can0 466#0042070200000000
(1716195577.939689) can0 468#0303
(1716195577.944283) can0 50A#087D7DFF00000000
(1716195577.964374) can0 50F#0000000000000000
(1716195578.004360) can0 501#096E000015140000
(1716195578.044276) can0 50A#087D7DFF00000000
(1716195578.104357) can0 501#096E000015140000
(1716195578.139203) can0 186#1415
(1716195578.144262) can0 50A#087D7DFF00000000
(1716195578.204365) can0 501#096E000015140000
(1716195578.234064) can0 460#0003A892FFFFFFE7
(1716195578.234993) can0 462#00130014610018
(1716195578.236138) can0 463#00000019
(1716195578.237138) can0 461#0A000000
(1716195578.238348) can0 464#080000000000AE41
(1716195578.239175) can0 466#0042070200000000
(1716195578.240377) can0 468#0303
(1716195578.240882) can0 46A#019000DC
(1716195578.241874) can0 182#A85D6100
(1716195578.243045) can0 183#0000000000006100
(1716195578.244007) can0 50A#087D7DFF00000000
(1716195578.244565) can0 185#1313131314141313
(1716195578.245023) can0 776#006409D8000001E0
(1716195578.264043) can0 50C#281A000000000100
(1716195578.304348) can0 501#096E000015140000
(1716195578.344270) can0 50A#087D7DFF00000000
(1716195578.364059) can0 500#000F000001C40000
(1716195578.404230) can0 501#096E000015140000
(1716195578.444278) can0 50A#087D7DFF00000000
(1716195578.464092) can0 502#0000000000000000
(1716195578.489158) can0 186#1415
(1716195578.504357) can0 501#096E000015140000
(1716195578.534318) can0 460#0003A892FFFFFFE7
(1716195578.535635) can0 462#00130014610018
(1716195578.536006) can0 463#00000019
(1716195578.537385) can0 461#0B000000
(1716195578.538435) can0 464#080000000000AE41
(1716195578.539499) can0 466#0042070200000000
(1716195578.539960) can0 468#0303
(1716195578.544331) can0 50A#087D7DFF00000000
(1716195578.564058) can0 503#0000000000000000
(1716195578.584104) can0 182#A85D6100
(1716195578.585205) can0 183#0000000000006100
(1716195578.586164) can0 185#1313131314141313
(1716195578.604249) can0 501#096E000015140000
(1716195578.644345) can0 50A#087D7DFF00000000
(1716195578.664351) can0 505#095DFFFE13146100
(1716195578.704331) can0 501#096E000015140000
(1716195578.744067) can0 50A#087D7DFF00000000
(1716195578.764034) can0 50C#281A000000000100
(1716195578.764500) can0 506#0000020000EA5F00
(1716195578.804382) can0 501#096E000015140000
(1716195578.834377) can0 460#0003A88FFFFFFFE7
(1716195578.835274) can0 462#00130014610018
(1716195578.836151) can0 463#00000019
(1716195578.837168) can0 461#0C000000
(1716195578.838522) can0 464#080000000000AE41
(1716195578.839429) can0 466#0042070200000000
(1716195578.840292) can0 468#0303
(1716195578.841084) can0 186#1415
(1716195578.844257) can0 50A#087D7DFF00000000
(1716195578.864154) can0 50D#0000007800000000
(1716195578.904783) can0 501#096E000015140000
(1716195578.934248) can0 182#A75D6100
(1716195578.935379) can0 183#0000000000006100
(1716195578.936319) can0 185#1313131314141313
(1716195578.944265) can0 50A#087D7DFF00000000
(1716195578.964074) can0 50F#0000000000000000
(1716195579.004355) can0 501#096E000015140000
(1716195579.044350) can0 50A#087D7DFF00000000
(1716195579.104339) can0 501#096E000015140000
(1716195579.134479) can0 460#0003A88FFFFFFFE7
(1716195579.135570) can0 462#00130014610018
(1716195579.136556) can0 463#00000019
(1716195579.137405) can0 461#0D000000
(1716195579.139022) can0 464#080000000000AE41
(1716195579.139448) can0 466#0042070200000000
(1716195579.140427) can0 468#0303
(1716195579.144261) can0 50A#087D7DFF00000000
(1716195579.189632) can0 186#1415
(1716195579.204409) can0 501#096E000015140000
(1716195579.234642) can0 46A#019000DC
(1716195579.235552) can0 776#006409D8000001E0
(1716195579.244256) can0 50A#087D7DFF00000000
(1716195579.264158) can0 50C#281A000000000100
(1716195579.284718) can0 182#A75D6100
(1716195579.285665) can0 183#0000000000006100
(1716195579.287057) can0 185#1313131314141313
(1716195579.304348) can0 501#096E000015140000
(1716195579.344355) can0 50A#087D7DFF00000000
(1716195579.364287) can0 500#000F000001C40000
(1716195579.404346) can0 501#096E000015140000
(1716195579.434932) can0 460#0003A88FFFFFFFE0
(1716195579.436086) can0 462#00130014610018
(1716195579.436419) can0 463#00000020
(1716195579.437525) can0 461#0E000000
(1716195579.438913) can0 464#080000000000AE41
(1716195579.439585) can0 466#0042070200000000
(1716195579.440570) can0 468#0303
(1716195579.444002) can0 50A#087D7DFF00000000
(1716195579.464292) can0 502#0000000000000000
(1716195579.504342) can0 501#096E000015140000
(1716195579.539617) can0 186#1415
(1716195579.544371) can0 50A#087D7DFF00000000
(1716195579.564374) can0 503#0000000000000000
(1716195579.604352) can0 501#096E000015140000
(1716195579.634707) can0 182#A75D6100
(1716195579.635693) can0 183#0000000000006100
(1716195579.636630) can0 185#1313131314141313
(1716195579.644263) can0 50A#087D7DFF00000000
(1716195579.664010) can0 505#095DFFFD13146100
(1716195579.704057) can0 501#096E000015140000
(1716195579.734968) can0 460#0003A88FFFFFFFE0
(1716195579.735667) can0 462#00130014610018
(1716195579.736553) can0 463#00000020
(1716195579.737536) can0 461#0F000000
(1716195579.739051) can0 464#080000000000AE41
(1716195579.740011) can0 466#0042070200000000
(1716195579.740686) can0 468#0303
(1716195579.744255) can0 50A#087D7DFF00000000
(1716195579.764284) can0 50C#281A000000000100
(1716195579.764534) can0 506#0000020000EA5F00
(1716195579.804373) can0 501#096E000015140000
(1716195579.844353) can0 50A#087D7DFF00000000
(1716195579.864282) can0 50D#0000007800000000
(1716195579.889689) can0 186#1415
(1716195579.904335) can0 501#096E000015140000
(1716195579.944346) can0 50A#087D7DFF00000000
(1716195579.964339) can0 50F#0000000000000000
(1716195579.984992) can0 182#A75D6100
(1716195579.986112) can0 183#0000000000006100
(1716195579.986997) can0 185#1313131314141313
(1716195580.004026) can0 501#096E000015140000
(1716195580.034864) can0 460#0003A88EFFFFFFE7
(1716195580.035769) can0 462#00130014610018
(1716195580.036653) can0 463#00000019
(1716195580.037659) can0 461#01141313
(1716195580.039026) can0 464#080000000000AE41
(1716195580.039893) can0 466#0042070200000000
(1716195580.040616) can0 468#0303
(1716195580.044252) can0 50A#087D7DFF00000000
(1716195580.104335) can0 501#096E000015140000
(1716195580.144040) can0 50A#087D7DFF00000000
(1716195580.204337) can0 501#096E000015140000
(1716195580.234959) can0 46A#019000DC
(1716195580.235989) can0 776#006409D8000001E0
(1716195580.239889) can0 186#1415
(1716195580.244272) can0 50A#087D7DFF00000000
(1716195580.264049) can0 50C#281A000000000100
(1716195580.304029) can0 501#096E000015140000
(1716195580.335157) can0 460#0003A88EFFFFFFE0
(1716195580.335927) can0 462#00130014610018
(1716195580.336792) can0 463#00000020
(1716195580.337772) can0 461#02141313
(1716195580.339798) can0 464#080000000000AE41
(1716195580.339923) can0 466#0042070200000000
(1716195580.340814) can0 468#0303
(1716195580.341994) can0 182#A75D6100
(1716195580.343148) can0 183#0000000000006100
(1716195580.343988) can0 185#1313131314141313
(1716195580.344595) can0 50A#087D7DFF00000000
(1716195580.364408) can0 500#000F000001C40000
(1716195580.404299) can0 501#096E000015140000
(1716195580.444345) can0 50A#087D7DFF00000000
(1716195580.464284) can0 502#0000000000000000
(1716195580.504336) can0 501#096E000015140000
(1716195580.544439) can0 50A#087D7DFF00000000
(1716195580.564341) can0 503#0000000000000000
(1716195580.590110) can0 186#1415
(1716195580.604013) can0 501#096E000015140000
(1716195580.635095) can0 460#0003A88EFFFFFFE7
(1716195580.636007) can0 462#00130014610018
(1716195580.636922) can0 463#00000019
(1716195580.637917) can0 461#03151414
(1716195580.639265) can0 464#080000000000AE41
(1716195580.640214) can0 466#0042070200000000
(1716195580.640869) can0 468#0303
(1716195580.644253) can0 50A#087D7DFF00000000
(1716195580.664320) can0 505#095DFFFE13146100
(1716195580.685292) can0 182#A75D6100
(1716195580.686185) can0 183#0000000000006100
(1716195580.687401) can0 185#1313131314141313
(1716195580.704050) can0 501#096E000015140000
(1716195580.744270) can0 50A#087D7DFF00000000
(1716195580.764064) can0 50C#281A000000000100
(1716195580.764541) can0 506#0000020000EA5F00
(1716195580.804040) can0 501#096E000015140000
(1716195580.844061) can0 50A#087D7DFF00000000
(1716195580.864277) can0 50D#0000007800000000
(1716195580.906237) can0 501#096E000015140000
(1716195580.935754) can0 460#0003A88DFFFFFFE7
(1716195580.936142) can0 462#00130014610018
(1716195580.937436) can0 463#00000019
(1716195580.938537) can0 461#04151313
(1716195580.939632) can0 464#080000000000AE41
(1716195580.940748) can0 466#0042070200000000
(1716195580.940964) can0 468#0303
(1716195580.942305) can0 186#1415
(1716195580.944304) can0 50A#087D7DFF00000000
(1716195580.964518) can0 50F#0000000000000000
(1716195581.004336) can0 501#096E000015140000
(1716195581.035253) can0 182#A75D6100
(1716195581.036713) can0 183#0000000000006100
(1716195581.037251) can0 185#1313131314141313
(1716195581.044639) can0 50A#087D7DFF00000000
(1716195581.104341) can0 501#096E000015140000
(1716195581.144256) can0 50A#087D7DFF00000000
(1716195581.204333) can0 501#096E000015140000
(1716195581.235614) can0 460#0003A88DFFFFFFE7
(1716195581.236353) can0 462#00130014610018
(1716195581.237201) can0 463#00000019
(1716195581.238172) can0 461#05151415
(1716195581.239972) can0 464#080000000000AE41
(1716195581.240365) can0 466#0042070200000000
(1716195581.241132) can0 468#0303
(1716195581.242397) can0 46A#019000DC
(1716195581.243543) can0 776#006409D8000001E0
(1716195581.243994) can0 50A#087D7DFF00000000
(1716195581.264025) can0 50C#281A000000000100
(1716195581.290476) can0 186#1415
(1716195581.304052) can0 501#096E000015140000
(1716195581.344270) can0 50A#087D7DFF00000000
(1716195581.364266) can0 500#000F000001C40000
(1716195581.385299) can0 182#A75D6100
(1716195581.387068) can0 183#0000000000006100
(1716195581.387384) can0 185#1313131314141313
(1716195581.404008) can0 501#096E000015140000
(1716195581.444344) can0 50A#087D7DFF00000000
(1716195581.464392) can0 502#0000000000000000
(1716195581.504333) can0 501#096E000015140000
(1716195581.535518) can0 460#0003A88DFFFFFFE0
(1716195581.536740) can0 462#00130014610018
(1716195581.537466) can0 463#00000020
(1716195581.538739) can0 461#06000000
(1716195581.539492) can0 464#080000000000AE41
(1716195581.540498) can0 466#0042070200000000
(1716195581.541249) can0 468#0303
(1716195581.544332) can0 50A#087D7DFF00000000
(1716195581.564281) can0 503#0000000000000000
(1716195581.604325) can0 501#096E000015140000
(1716195581.640658) can0 186#1415
(1716195581.644333) can0 50A#087D7DFF00000000
(1716195581.664330) can0 505#095DFFFD13146100
(1716195581.704326) can0 501#096E000015140000
(1716195581.736020) can0 182#A75D6100
(1716195581.736959) can0 183#0000000000006100
(1716195581.737566) can0 185#1313131314141313
(1716195581.744256) can0 50A#087D7DFF00000000
(1716195581.764022) can0 50C#281A000000000100
(1716195581.764490) can0 506#0000020000EA5F00
(1716195581.804251) can0 501#096E000015140000
(1716195581.835686) can0 460#0003A88CFFFFFFE0
(1716195581.836787) can0 462#00130014610018
(1716195581.837630) can0 463#00000020
(1716195581.838601) can0 461#07000000
(1716195581.839648) can0 464#080000000000AE41
(1716195581.840632) can0 466#0042070200000000
(1716195581.841425) can0 468#0303
(1716195581.844337) can0 50A#087D7DFF00000000
(1716195581.864281) can0 50D#0000007800000000
(1716195581.904509) can0 501#096E000015140000
(1716195581.944496) can0 50A#087D7DFF00000000
(1716195581.964073) can0 50F#0000000000000000
(1716195581.990545) can0 186#1415
(1716195582.004420) can0 501#096D000015140000
(1716195582.044340) can0 50A#087D7DFF00000000
(1716195582.085718) can0 182#A75D6100
(1716195582.087063) can0 183#0000000000006100
(1716195582.087886) can0 185#1313131314141313
(1716195582.104346) can0 501#096E000015140000
(1716195582.135850) can0 460#0003A88CFFFFFFE0
(1716195582.136884) can0 462#00130014610018
(1716195582.137781) can0 463#00000020
(1716195582.138948) can0 461#08000000
(1716195582.140158) can0 464#080000000000AE41
(1716195582.140808) can0 466#0042070200000000
(1716195582.142007) can0 468#0303
(1716195582.144317) can0 50A#087D7DFF00000000
(1716195582.204344) can0 501#096E000015140000
(1716195582.235767) can0 46A#019000DC
(1716195582.237056) can0 776#006409D8000001E0
(1716195582.244264) can0 50A#087D7DFF00000000
(1716195582.264034) can0 50C#281A000000000100
(1716195582.304279) can0 501#096D000015140000
(1716195582.341125) can0 186#1415
(1716195582.344330) can0 50A#087D7DFF00000000
(1716195582.364281) can0 500#000F000001C40000
(1716195582.404041) can0 501#096D000015140000
(1716195582.436015) can0 460#0003A88CFFFFFFE0
(1716195582.436934) can0 462#00130014610018
(1716195582.437827) can0 463#00000020
(1716195582.439190) can0 461#09000000
(1716195582.440402) can0 464#080000000000AE41
(1716195582.441027) can0 466#0042070200000000
(1716195582.442125) can0 468#0303
(1716195582.442899) can0 182#A75D6100
(1716195582.444370) can0 183#0000000000006100
(1716195582.444449) can0 50A#087D7DFF00000000
(1716195582.444945) can0 185#1313131314141313
(1716195582.464280) can0 502#0000000000000000
(1716195582.504094) can0 501#096E000015140000
(1716195582.544191) can0 50A#087D7DFF00000000
(1716195582.564348) can0 503#0000000000000000
(1716195582.604371) can0 501#096E000015140000
(1716195582.644349) can0 50A#087D7DFF00000000
(1716195582.663981) can0 505#095DFFFD13146100
(1716195582.690934) can0 186#1415
(1716195582.704294) can0 501#096E000015140000
(1716195582.736355) can0 460#0003A88CFFFFFFE7
(1716195582.737092) can0 462#00130014610018
(1716195582.738176) can0 463#00000019
(1716195582.739295) can0 461#0A000000
(1716195582.740238) can0 464#080000000000AE41
(1716195582.741113) can0 466#0042070200000000
(1716195582.742511) can0 468#0303
(1716195582.744349) can0 50A#087D7DFF00000000
(1716195582.764301) can0 50C#281A000000000100
(1716195582.764502) can0 506#0000020000EA5F00
(1716195582.786370) can0 182#A75D6100
(1716195582.787172) can0 183#0000000000006100
(1716195582.788091) can0 185#1313131314141313
(1716195582.804056) can0 501#096E000015140000
(1716195582.844329) can0 50A#087D7DFF00000000
(1716195582.864307) can0 50D#0000007800000000
(1716195582.904043) can0 501#096D000015140000
(1716195582.944326) can0 50A#087D7DFF00000000
(1716195582.964079) can0 50F#0000000000000000
(1716195583.004311) can0 501#096E000015140000
(1716195583.036523) can0 460#0003A88CFFFFFFE7
(1716195583.037238) can0 462#00130014610018
(1716195583.038721) can0 463#00000019
(1716195583.039103) can0 461#0B000000
(1716195583.040252) can0 464#080000000000AE41
(1716195583.041255) can0 466#0042070200000000
(1716195583.042633) can0 468#0303
(1716195583.043262) can0 186#1415
(1716195583.044019) can0 50A#087D7DFF00000000
(1716195583.104435) can0 501#096E000015140000
(1716195583.136429) can0 182#A75D6100
(1716195583.137314) can0 183#0000000000006100
(1716195583.138470) can0 185#1313131314141313
(1716195583.144572) can0 50A#087D7DFF00000000
(1716195583.204463) can0 501#096D000015140000
(1716195583.236610) can0 46A#019000DC
(1716195583.237546) can0 776#006409D8000001E0
(1716195583.244039) can0 50A#087D7DFF00000000
(1716195583.264062) can0 50C#281A000000000100
(1716195583.304034) can0 501#096D000015140000
(1716195583.336676) can0 460#0003A88BFFFFFFE0
(1716195583.337404) can0 462#00130014610018
(1716195583.338643) can0 463#00000020
(1716195583.339261) can0 461#0C000000
(1716195583.340445) can0 464#080000000000AE41
(1716195583.341422) can0 466#0042070200000000
(1716195583.342194) can0 468#0303
(1716195583.344006) can0 50A#087D7DFF00000000
(1716195583.364572) can0 500#000F000001C40000
(1716195583.391245) can0 186#1414
(1716195583.404026) can0 501#096D000015140000
(1716195583.444308) can0 50A#087D7DFF00000000
(1716195583.464268) can0 502#0000000000000000
(1716195583.486549) can0 182#A75D6100
(1716195583.487515) can0 183#0000000000006100
(1716195583.488645) can0 185#1313131314141313
(1716195583.504183) can0 501#096D000015140000
(1716195583.544314) can0 50A#087D7DFF00000000
(1716195583.564270) can0 503#0000000000000000
(1716195583.604317) can0 501#096D000015140000
(1716195583.636895) can0 460#0003A88BFFFFFFE7
(1716195583.637534) can0 462#00130014610018
(1716195583.638410) can0 463#00000019
(1716195583.639412) can0 461#0D000000
(1716195583.640769) can0 464#080000000000AE41
(1716195583.641594) can0 466#0042070200000000
(1716195583.642340) can0 468#0303
(1716195583.644181) can0 50A#087D7DFF00000000
(1716195583.664310) can0 505#095DFFFE13146100
(1716195583.704293) can0 501#096E000015140000
(1716195583.741468) can0 186#1414
(1716195583.743960) can0 50A#087D7DFF00000000
(1716195583.764032) can0 50C#281A000000000100
(1716195583.764471) can0 506#0000020000EA5F00
(1716195583.804236) can0 501#096D000015140000
(1716195583.836782) can0 182#A75D6100
(1716195583.837957) can0 183#0000000000006100
(1716195583.838633) can0 185#1313131314141313
(1716195583.844305) can0 50A#087D7DFF00000000
(1716195583.864304) can0 50D#0000007800000000
(1716195583.904245) can0 501#096E000015140000
(1716195583.937150) can0 460#0003A88AFFFFFFE7
(1716195583.937700) can0 462#00130014610018
(1716195583.938567) can0 463#00000019
(1716195583.939817) can0 461#0E000000
(1716195583.940759) can0 464#080000000000AE41
(1716195583.942114) can0 466#0042070200000000
(1716195583.942485) can0 468#0303
(1716195583.944289) can0 50A#087D7DFF00000000
(1716195583.964253) can0 50F#0000000000000000
(1716195584.004231) can0 501#096E000015140000
(1716195584.044319) can0 50A#087D7DFF00000000
(1716195584.091925) can0 186#1414
(1716195584.103994) can0 501#096D000015140000
(1716195584.144015) can0 50A#087D7DFF00000000
(1716195584.186958) can0 182#A75D6100
(1716195584.188095) can0 183#0000000000006100
(1716195584.188811) can0 185#1313131314141313
(1716195584.204236) can0 501#096D000015140000
(1716195584.237137) can0 460#0003A88AFFFFFFE7
(1716195584.237818) can0 462#00130014610018
(1716195584.238724) can0 463#00000019
(1716195584.239930) can0 461#0F000000
(1716195584.240879) can0 464#080000000000AE41
(1716195584.242064) can0 466#0042070200000000
(1716195584.242868) can0 468#0303
(1716195584.243917) can0 46A#019000DC
(1716195584.244204) can0 50A#087D7DFF00000000
(1716195584.245247) can0 776#006409D8000001E0
(1716195584.264016) can0 50C#281A000000000100
(1716195584.304240) can0 501#096D000015140000
(1716195584.343986) can0 50A#087D7DFF00000000
(1716195584.364255) can0 500#000F000001C40000
(1716195584.404230) can0 501#096E000015140000
(1716195584.442112) can0 186#1414
(1716195584.444295) can0 50A#087D7DFF00000000
(1716195584.464260) can0 502#0000000000000000
(1716195584.504372) can0 501#096E000015140000
(1716195584.537328) can0 460#0003A88AFFFFFFE0
(1716195584.537958) can0 462#00130014610018
(1716195584.539118) can0 463#00000020
(1716195584.539838) can0 461#01141313
(1716195584.540989) can0 464#080000000000AE41
(1716195584.541985) can0 466#0042070200000000
(1716195584.542765) can0 468#0303
(1716195584.543962) can0 50A#087D7DFF00000000
(1716195584.544305) can0 182#A75D6100
(1716195584.544998) can0 183#0000000000006100
(1716195584.546031) can0 185#1313131314141313
(1716195584.564335) can0 503#0000000000000000
(1716195584.603990) can0 501#096D000015140000
(1716195584.644022) can0 50A#087D7DFF00000000
(1716195584.663977) can0 505#095DFFFD13146100
(1716195584.704231) can0 501#096D000015140000
(1716195584.744255) can0 50A#087D7DFF00000000
(1716195584.764486) can0 50C#281A000000000100
(1716195584.764507) can0 506#0000020000EA5F00
(1716195584.792132) can0 186#1414
(1716195584.804243) can0 501#096E000015140000
(1716195584.837403) can0 460#0003A88AFFFFFFE7
(1716195584.838322) can0 462#00130014610018
(1716195584.839156) can0 463#00000019
(1716195584.839938) can0 461#02141313
(1716195584.841132) can0 464#080000000000AE41
(1716195584.842467) can0 466#0042070200000000
(1716195584.842872) can0 468#0303
(1716195584.844295) can0 50A#087D7DFF00000000
(1716195584.864406) can0 50D#0000007800000000
(1716195584.887253) can0 182#A75D6100
(1716195584.888365) can0 183#0000000000006100
(1716195584.889187) can0 185#1313131314141313
(1716195584.904020) can0 501#096D000015140000
(1716195584.944007) can0 50A#087D7DFF00000000
(1716195584.964321) can0 50F#0000000000000000
(1716195585.004286) can0 501#096D000015140000
(1716195585.044040) can0 50A#087D7DFF00000000
(1716195585.104310) can0 501#096D000015140000
(1716195585.137269) can0 460#0003A88AFFFFFFE7
(1716195585.138408) can0 462#00130014610018
(1716195585.139141) can0 463#00000019
(1716195585.140435) can0 461#03151414
(1716195585.141236) can0 464#080000000000AE41
(1716195585.142693) can0 466#0042070200000000
(1716195585.143008) can0 468#0303
(1716195585.143959) can0 50A#087D7DFF00000000
(1716195585.144217) can0 186#1414
(1716195585.204312) can0 501#096D000015140000
(1716195585.237427) can0 46A#019000DC
(1716195585.238205) can0 182#A75D6100
(1716195585.239474) can0 183#0000000000006100
(1716195585.240445) can0 185#1313131314141313
(1716195585.241411) can0 776#006409D8000001E0
(1716195585.243999) can0 50A#087D7DFF00000000
(1716195585.264029) can0 50C#281A000000000100
(1716195585.304246) can0 501#096D000015140000
(1716195585.344106) can0 50A#087D7DFF00000000
(1716195585.363989) can0 500#000F000001C40000
(1716195585.404237) can0 501#096D000015140000
(1716195585.437474) can0 460#0003A88AFFFFFFE7
(1716195585.438335) can0 462#00130014610018
(1716195585.439561) can0 463#00000019
(1716195585.440218) can0 461#04151313
(1716195585.441524) can0 464#080000000000AE41
(1716195585.442608) can0 466#0042070200000000
(1716195585.443169) can0 468#0303
(1716195585.444249) can0 50A#087D7DFF00000000
(1716195585.464365) can0 502#0000000000000000
(1716195585.492461) can0 186#1415
(1716195585.504219) can0 501#096D000015140000
(1716195585.544164) can0 50A#087D7DFF00000000
(1716195585.564024) can0 503#0000000000000000
(1716195585.587584) can0 182#A75D6100
(1716195585.588743) can0 183#0000000000006100
(1716195585.589473) can0 185#1313131314141313
(1716195585.604210) can0 501#096D000015140000
(1716195585.644303) can0 50A#087D7DFF00000000
(1716195585.664284) can0 505#095DFFFE13146100
(1716195585.704293) can0 501#096D000015140000
(1716195585.737654) can0 460#0003A88AFFFFFFE7
(1716195585.738709) can0 462#00130014610018
(1716195585.739554) can0 463#00000019
(1716195585.740394) can0 461#05151415
(1716195585.741656) can0 464#080000000000AE41
(1716195585.742595) can0 466#0042070200000000
(1716195585.743341) can0 468#0303
(1716195585.743965) can0 50A#087D7DFF00000000
(1716195585.763997) can0 50C#281A000000000100
(1716195585.764467) can0 506#0000020000EA5F00
(1716195585.804005) can0 501#096D000015140000
(1716195585.842415) can0 186#1415
(1716195585.843967) can0 50A#087D7DFF00000000
(1716195585.864004) can0 50D#0000007800000000
(1716195585.904219) can0 501#096D000015140000
(1716195585.937578) can0 182#A75D6100
(1716195585.938789) can0 183#0000000000006100
(1716195585.939849) can0 185#1313131314141313
(1716195585.944305) can0 50A#087D7DFF00000000
(1716195585.963981) can0 50F#0000000000000000
(1716195586.004303) can0 501#096D000015140000
(1716195586.037821) can0 460#0003A88AFFFFFFE0
(1716195586.038951) can0 462#00130014610018
(1716195586.039611) can0 463#00000020
(1716195586.040885) can0 461#06000000
(1716195586.041728) can0 464#080000000000AE41
(1716195586.042709) can0 466#0042070200000000
(1716195586.043498) can0 468#0303
(1716195586.043984) can0 50A#087D7DFF00000000
(1716195586.103972) can0 501#096D000015140000
(1716195586.144574) can0 50A#087D7DFF00000000
(1716195586.192922) can0 186#1415
(1716195586.203988) can0 501#096D000015140000
(1716195586.237889) can0 46A#019000DC
(1716195586.238862) can0 776#006409D8000001E0
(1716195586.244278) can0 50A#087D7DFF00000000
(1716195586.263991) can0 50C#281A000000000100
(1716195586.288232) can0 182#A75D6100
(1716195586.288862) can0 183#0000000000006100
(1716195586.290019) can0 185#1313131314141313
(1716195586.304300) can0 501#096D000015140000
(1716195586.337929) can0 460#0003A88AFFFFFFE7
(1716195586.339034) can0 462#00130014610018
(1716195586.339751) can0 463#00000019
(1716195586.341233) can0 461#07000000
(1716195586.342020) can0 464#080000000000AE41
(1716195586.343210) can0 466#0042070200000000
(1716195586.343668) can0 468#0303
(1716195586.344202) can0 50A#087D7DFF00000000
(1716195586.364322) can0 500#000F000001C40000
(1716195586.404279) can0 501#096D000015140000
(1716195586.444307) can0 50A#087D7DFF00000000
(1716195586.464334) can0 502#0000000000000000
(1716195586.504299) can0 501#096D000015140000
(1716195586.542818) can0 186#1415
(1716195586.544158) can0 50A#087D7DFF00000000
(1716195586.564002) can0 503#0000000000000000
(1716195586.604252) can0 501#096D000015140000
(1716195586.638293) can0 460#0003A88AFFFFFFE7
(1716195586.639046) can0 462#00130014610018
(1716195586.639865) can0 463#00000019
(1716195586.641081) can0 461#08000000
(1716195586.642192) can0 464#080000000000AE41
(1716195586.643151) can0 466#0042070200000000
(1716195586.644551) can0 50A#087D7DFF00000000
(1716195586.644568) can0 468#0303
(1716195586.644851) can0 182#A75D6100
(1716195586.646355) can0 183#0000000000006100
(1716195586.647484) can0 185#1313131314141313
(1716195586.664002) can0 505#095DFFFE13146100
(1716195586.704228) can0 501#096D000015140000
(1716195586.744055) can0 50A#087D7DFF00000000
(1716195586.764046) can0 50C#281A000000000100
(1716195586.764433) can0 506#0000020000EA5F00
(1716195586.804325) can0 501#096D000015140000
(1716195586.844267) can0 50A#087D7DFF00000000
(1716195586.864299) can0 50D#0000007800000000
(1716195586.892977) can0 186#1415
(1716195586.903969) can0 501#096D000015140000
(1716195586.938427) can0 460#0003A88AFFFFFFE7
(1716195586.939128) can0 462#00130014610018
(1716195586.940492) can0 463#00000019
(1716195586.941003) can0 461#09000000
(1716195586.942353) can0 464#080000000000AE41
(1716195586.943427) can0 466#0042070200000000
(1716195586.943957) can0 50A#087D7DFF00000000
(1716195586.944252) can0 468#0303
(1716195586.963997) can0 50F#0000000000000000
(1716195586.988369) can0 182#A75D6100
(1716195586.989214) can0 183#0000000000006100
(1716195586.990487) can0 185#1313131414141313
(1716195587.004222) can0 501#096D000015140000
(1716195587.043970) can0 50A#087D7DFF00000000
(1716195587.104302) can0 501#096E000015140000
(1716195587.143991) can0 50A#087D7DFF00000000
(1716195587.204294) can0 501#096E000015140000
(1716195587.238596) can0 460#0003A888FFFFFFE7
(1716195587.239423) can0 462#00130014610018
(1716195587.240546) can0 463#00000019
(1716195587.241165) can0 461#0A000000
(1716195587.242577) can0 464#080000000000AE41
(1716195587.243330) can0 466#0042070200000000
(1716195587.243943) can0 50A#087D7DFF00000000
(1716195587.244262) can0 468#0303
(1716195587.245142) can0 46A#019000DC
(1716195587.246389) can0 186#1415
(1716195587.247337) can0 776#006409D8000001E0
(1716195587.263992) can0 50C#281A000000000100
(1716195587.304355) can0 501#096D000015140000
(1716195587.338468) can0 182#A75D6100
(1716195587.339576) can0 183#0000000000006100
(1716195587.340551) can0 185#1313131414141313
(1716195587.343998) can0 50A#087D7DFF00000000
(1716195587.364031) can0 500#000F000001C40000
(1716195587.403963) can0 501#096D000015140000
(1716195587.444010) can0 50A#087D7DFF00000000
(1716195587.464221) can0 502#0000000000000000
(1716195587.504296) can0 501#096D000015140000
(1716195587.538768) can0 460#0003A888FFFFFFE0
(1716195587.539373) can0 462#00130014610018
(1716195587.540652) can0 463#00000020
(1716195587.541269) can0 461#0B000000
(1716195587.542423) can0 464#080000000000AE41
(1716195587.543410) can0 466#0042070200000000
(1716195587.543952) can0 50A#087D7DFF00000000
(1716195587.544267) can0 468#0303
(1716195587.564288) can0 503#0000000000000000
(1716195587.593336) can0 186#1415
(1716195587.604016) can0 501#096D000015140000
(1716195587.644030) can0 50A#087D7DFF00000000
(1716195587.665998) can0 505#095DFFFD13146100
(1716195587.688601) can0 182#A75D6100
(1716195587.689724) can0 183#0000000000006100
(1716195587.690701) can0 185#1313131414141313
(1716195587.703974) can0 501#096D000015140000
(1716195587.744083) can0 50A#087D7DFF00000000
(1716195587.764293) can0 50C#281A000000000100
(1716195587.764438) can0 506#0000020000EA5F00
(1716195587.804222) can0 501#096D000015140000
(1716195587.838811) can0 460#0003A888FFFFFFE7
(1716195587.839811) can0 462#00130014610018
(1716195587.840597) can0 463#00000019
(1716195587.841441) can0 461#0C000000
(1716195587.842741) can0 464#080000000000AE41
(1716195587.843726) can0 466#0042070200000000
(1716195587.844011) can0 50A#087D7DFF00000000
(1716195587.844328) can0 468#0303
(1716195587.864001) can0 50D#0000007800000000
(1716195587.904210) can0 501#096D000015140000
(1716195587.943540) can0 186#1415
(1716195587.943942) can0 50A#087D7DFF00000000
(1716195587.964021) can0 50F#0000000000000000
(1716195588.004214) can0 501#096D000015140000
(1716195588.038828) can0 182#A75D6100
(1716195588.039935) can0 183#0000000000006100
(1716195588.040664) can0 185#1313131414141313
(1716195588.044273) can0 50A#087D7DFF00000000
(1716195588.104287) can0 501#096D000015140000
(1716195588.138937) can0 460#0003A888FFFFFFE7
(1716195588.140002) can0 462#00130014610018
(1716195588.140738) can0 463#00000019
(1716195588.141731) can0 461#0D000000
(1716195588.142872) can0 464#080000000000AE41
(1716195588.143869) can0 466#0042070200000000
(1716195588.144144) can0 50A#087D7DFF00000000
(1716195588.144451) can0 468#0303
(1716195588.204276) can0 501#096D000015140000
(1716195588.238834) can0 46A#019000DC
(1716195588.239972) can0 776#006409D8000001E0
(1716195588.244207) can0 50A#087D7DFF00000000
(1716195588.264008) can0 50C#281A000000000100
(1716195588.293600) can0 186#1415
(1716195588.304187) can0 501#096D000015140000
(1716195588.344214) can0 50A#087D7DFF00000000
(1716195588.364174) can0 500#000F000001C40000
(1716195588.388668) can0 182#A75D6100
(1716195588.389792) can0 183#0000000000006100
(1716195588.390746) can0 185#1313131414141313
(1716195588.404207) can0 501#096D000015140000
(1716195588.439052) can0 460#0003A888FFFFFFE7
(1716195588.440120) can0 462#00130014610018
(1716195588.440845) can0 463#00000019
(1716195588.441648) can0 461#0E000000
(1716195588.442995) can0 464#080000000000AE41
(1716195588.443978) can0 466#0042070200000000
(1716195588.444300) can0 50A#087D7DFF00000000
(1716195588.444844) can0 468#0303
(1716195588.464578) can0 502#0000000000000000
(1716195588.504304) can0 501#096D000015140000
(1716195588.544289) can0 50A#087D7DFF00000000
(1716195588.564301) can0 503#0000000000000000
(1716195588.604296) can0 501#096D000015140000
(1716195588.643999) can0 186#1415
(1716195588.644115) can0 50A#087D7DFF00000000
(1716195588.663946) can0 505#095DFFFE13146100
(1716195588.704296) can0 501#096D000015140000
(1716195588.739174) can0 460#0003A887FFFFFFE7
(1716195588.739885) can0 462#00130014610018
(1716195588.741347) can0 463#00000019
(1716195588.741769) can0 461#0F000000
(1716195588.743106) can0 464#080000000000AE41
(1716195588.744218) can0 466#0042070200000000
(1716195588.744417) can0 50A#087D7DFF00000000
(1716195588.744686) can0 468#0303
(1716195588.745768) can0 182#A75D6100
(1716195588.747271) can0 183#0000000000006100
(1716195588.747884) can0 185#1313131414141313
(1716195588.763982) can0 50C#281A000000000100
(1716195588.764423) can0 506#0000020000EA5F00
(1716195588.804227) can0 501#096D000015140000
(1716195588.844301) can0 50A#087D7DFF00000000
(1716195588.864356) can0 50D#0000007800000000
(1716195588.904555) can0 501#096D000015140000
(1716195588.944227) can0 50A#087D7DFF00000000
(1716195588.963990) can0 50F#0000000000000000
(1716195588.994093) can0 186#1415
(1716195589.004290) can0 501#096D000015140000
(1716195589.039360) can0 460#0003A885FFFFFFE7
(1716195589.040012) can0 462#00130014610018
(1716195589.041220) can0 463#00000019
(1716195589.042439) can0 461#01141313
(1716195589.043159) can0 464#080000000000AE41
(1716195589.043988) can0 50A#087D7DFF00000000
(1716195589.044424) can0 466#0042070200000000
(1716195589.044807) can0 468#0303
(1716195589.089181) can0 182#A65D6100
(1716195589.090297) can0 183#0000000000006100
(1716195589.091517) can0 185#1313131414141313
(1716195589.104303) can0 501#096D000015140000
(1716195589.144305) can0 50A#087D7DFF00000000
(1716195589.204036) can0 501#096D000015140000
(1716195589.239429) can0 46A#019000DC
(1716195589.240140) can0 776#006409D8000001E0
(1716195589.244224) can0 50A#087D7DFF00000000
(1716195589.263979) can0 50C#281A000000000100
(1716195589.304196) can0 501#096D000015140000
(1716195589.339434) can0 460#0003A884FFFFFFE7
(1716195589.340192) can0 462#00130014610018
(1716195589.341212) can0 463#00000019
(1716195589.342199) can0 461#02141314
(1716195589.343365) can0 464#080000000000AE41
(1716195589.344070) can0 50A#087D7DFF00000000
(1716195589.344630) can0 466#0042070200000000
(1716195589.344927) can0 468#0303
(1716195589.346128) can0 186#1415
(1716195589.364349) can0 500#000F000001C40000
(1716195589.404223) can0 501#096D000015140000
(1716195589.439397) can0 182#A65D6100
(1716195589.440317) can0 183#0000000000006100
(1716195589.441273) can0 185#1313131414141313
(1716195589.444266) can0 50A#087D7DFF00000000
(1716195589.464022) can0 502#0000000000000000
(1716195589.504292) can0 501#096D000015140000
(1716195589.544378) can0 50A#087D7DFF00000000
(1716195589.564310) can0 503#0000000000000000
(1716195589.604307) can0 501#096D000015140000
(1716195589.639576) can0 460#0003A881FFFFFFE7
(1716195589.640235) can0 462#00130014610018
(1716195589.641535) can0 463#00000019
(1716195589.642445) can0 461#03151414
(1716195589.643704) can0 464#080000000000AE41
(1716195589.643984) can0 50A#087D7DFF00000000
(1716195589.644595) can0 466#0042070200000000
(1716195589.645061) can0 468#0303
(1716195589.663968) can0 505#095DFFFE13146100
(1716195589.694122) can0 186#1415
(1716195589.704203) can0 501#096D000015140000
(1716195589.744217) can0 50A#087D7DFF00000000
(1716195589.764026) can0 50C#281A000000000100
(1716195589.764457) can0 506#0000020000EA5F00
(1716195589.789228) can0 182#A65D6100
(1716195589.790376) can0 183#0000000000006100
(1716195589.791537) can0 185#1313131414141313
(1716195589.804350) can0 501#096D000015140000
(1716195589.844288) can0 50A#087D7DFF00000000
(1716195589.864004) can0 50D#0000007800000000
(1716195589.904290) can0 501#096D000015140000
(1716195589.939774) can0 460#0003A881FFFFFFE0
(1716195589.940386) can0 462#00130014610018
(1716195589.941259) can0 463#00000020
(1716195589.942596) can0 461#04151313
(1716195589.943415) can0 464#080000000000AE41
(1716195589.943951) can0 50A#087D7DFF00000000
(1716195589.944438) can0 466#0042070200000000
(1716195589.945217) can0 468#0303
(1716195589.964017) can0 50F#0000000000000000
(1716195590.004291) can0 501#096D000015140000
(1716195590.044280) can0 50A#087D7DFF00000000
(1716195590.044297) can0 186#1415
(1716195590.104383) can0 501#096D000015140000
(1716195590.139664) can0 182#A65D6100
(1716195590.140551) can0 183#0000000000006100
(1716195590.141682) can0 185#1313131414141313
(1716195590.144209) can0 50A#087D7DFF00000000
(1716195590.204287) can0 501#096D000015140000
(1716195590.239886) can0 460#0003A880FFFFFFE7
(1716195590.240510) can0 462#00130014610018
(1716195590.241425) can0 463#00000019
(1716195590.242601) can0 461#05151415
(1716195590.243705) can0 464#080000000000AE41
(1716195590.244039) can0 50A#087D7DFF00000000
(1716195590.244949) can0 466#0042070200000000
(1716195590.245401) can0 468#0303
(1716195590.246608) can0 46A#019000DC
(1716195590.247632) can0 776#006409D8000001E0
(1716195590.263978) can0 50C#281A000000000100
(1716195590.303950) can0 501#096D000015140000
(1716195590.343986) can0 50A#087D7DFF00000000
(1716195590.364234) can0 500#000F000001C40000
(1716195590.394699) can0 186#1415
(1716195590.404287) can0 501#096D000015140000
(1716195590.444289) can0 50A#087D7DFF00000000
(1716195590.464294) can0 502#0000000000000000
(1716195590.489669) can0 182#A65D6100
(1716195590.490994) can0 183#0000000000006100
(1716195590.491833) can0 185#1313131414141313
(1716195590.504273) can0 501#096D000015140000
(1716195590.540058) can0 460#0003A880FFFFFFE0
(1716195590.541241) can0 462#00130014610018
(1716195590.541551) can0 463#00000020
(1716195590.542562) can0 461#06000000
(1716195590.543711) can0 464#080000000000AE41
(1716195590.544414) can0 50A#087D7DFF00000000
(1716195590.544702) can0 466#0042070200000000
(1716195590.545710) can0 468#0303
(1716195590.564240) can0 503#0000000000000000
(1716195590.604271) can0 501#096D000015140000
(1716195590.644222) can0 50A#087D7DFF00000000
(1716195590.663956) can0 505#095DFFFD13146100
(1716195590.703982) can0 501#096D000015140000
(1716195590.744209) can0 50A#087D7DFF00000000
(1716195590.744601) can0 186#1415
(1716195590.764229) can0 50C#281A000000000100
(1716195590.764477) can0 506#0000020000EA5F00
(1716195590.803976) can0 501#096D000015140000
(1716195590.840195) can0 460#0003A880FFFFFFE0
(1716195590.840800) can0 462#00130014610018
(1716195590.842000) can0 463#00000020
(1716195590.843242) can0 461#07000000
(1716195590.843886) can0 464#080000000000AE41
(1716195590.844873) can0 50A#087D7DFF00000000
(1716195590.844889) can0 466#0042070200000000
(1716195590.845744) can0 468#0303
(1716195590.847197) can0 182#A65D6100
(1716195590.847871) can0 183#0000000000006100
(1716195590.848845) can0 185#1313131414141313
(1716195590.864222) can0 50D#0000007800000000
(1716195590.904287) can0 501#096D000015140000
(1716195590.943976) can0 50A#087D7DFF00000000
(1716195590.964228) can0 50F#0000000000000000
(1716195591.004266) can0 501#096D000015140000
(1716195591.044206) can0 50A#087D7DFF00000000
(1716195591.095095) can0 186#1415
(1716195591.104268) can0 501#096D000015140000
(1716195591.140350) can0 460#0003A880FFFFFFE7
(1716195591.140951) can0 462#00130014610018
(1716195591.142142) can0 463#00000019
(1716195591.142863) can0 461#08000000
(1716195591.144265) can0 50A#087D7DFF00000000
(1716195591.144444) can0 464#080000000000AE41
(1716195591.144984) can0 466#0042070200000000
(1716195591.146118) can0 468#0303
(1716195591.190243) can0 182#A65D6100
(1716195591.191313) can0 183#0000000000006100
(1716195591.192310) can0 185#1313131414141313
(1716195591.204251) can0 501#096D000015140000
(1716195591.240223) can0 46A#019000DC
(1716195591.241401) can0 776#006409D8000001E0
(1716195591.244258) can0 50A#087D7DFF00000000
(1716195591.264217) can0 50C#281A000000000100
(1716195591.304260) can0 501#096D000015140000
(1716195591.344279) can0 50A#087D7DFF00000000
(1716195591.364306) can0 500#000F000001C40000
(1716195591.404000) can0 501#096D000015140000
(1716195591.440424) can0 460#0003A880FFFFFFE7
(1716195591.441087) can0 462#00130014610018
(1716195591.442155) can0 463#00000019
(1716195591.443215) can0 461#09000000
(1716195591.444065) can0 50A#087D7DFF00000000
(1716195591.444544) can0 464#080000000000AE41
(1716195591.445107) can0 466#0042070200000000
(1716195591.446152) can0 468#0303
(1716195591.446894) can0 186#1415
(1716195591.463984) can0 502#0000000000000000
(1716195591.503973) can0 501#096D000015140000
(1716195591.540376) can0 182#A65D6100
(1716195591.541155) can0 183#0000000000006100
(1716195591.542390) can0 185#1313131314141313
(1716195591.544128) can0 50A#087D7DFF00000000
(1716195591.564228) can0 503#0000000000000000
(1716195591.604281) can0 501#096D000015140000
(1716195591.644282) can0 50A#087D7DFF00000000
(1716195591.664184) can0 505#095DFFFE13146100
(1716195591.704257) can0 501#096D000015140000
(1716195591.740579) can0 460#0003A880FFFFFFE7
(1716195591.741202) can0 462#00130014610018
(1716195591.742380) can0 463#00000019
(1716195591.743073) can0 461#0A000000
(1716195591.743922) can0 50A#087D7DFF00000000
(1716195591.744418) can0 464#080000000000AE41
(1716195591.745218) can0 466#0042070200000000
(1716195591.746879) can0 468#0303
(1716195591.764002) can0 50C#281A000000000100
(1716195591.764477) can0 506#0000020000EA5F00
(1716195591.795307) can0 186#1415
(1716195591.804256) can0 501#096D000015140000
(1716195591.844011) can0 50A#087D7DFF00000000
(1716195591.864253) can0 50D#0000007800000000
(1716195591.890499) can0 182#A65D6100
(1716195591.891590) can0 183#0000000000006100
(1716195591.892335) can0 185#1313131314141313
(1716195591.903950) can0 501#096D000015140000
(1716195591.944188) can0 50A#087D7DFF00000000
(1716195591.964274) can0 50F#0000000000000000
(1716195592.004259) can0 501#096D000015140000
(1716195592.040406) can0 460#0003A880FFFFFFE7
(1716195592.041322) can0 462#00130014610018
(1716195592.042239) can0 463#00000019
(1716195592.043213) can0 461#0B000000
(1716195592.043925) can0 50A#087D7DFF00000000
(1716195592.044421) can0 464#080000000000AE41
(1716195592.045386) can0 466#0042070200000000
(1716195592.046157) can0 468#0303
(1716195592.104291) can0 501#096D000015140000
(1716195592.144204) can0 50A#087D7DFF00000000
(1716195592.145238) can0 186#1415
(1716195592.204252) can0 501#096D000015140000
(1716195592.240315) can0 46A#019000DC
(1716195592.241306) can0 182#A65D6100
(1716195592.242753) can0 183#0000000000006100
(1716195592.243438) can0 185#1313131314141313
(1716195592.243941) can0 50A#087D7DFF00000000
(1716195592.244506) can0 776#006409D8000001E0
(1716195592.263970) can0 50C#281A000000000100
(1716195592.304332) can0 501#096D000015140000
(1716195592.340549) can0 460#0003A87EFFFFFFE7
(1716195592.341460) can0 462#00130014610018
(1716195592.342478) can0 463#00000019
(1716195592.343549) can0 461#0C000000
(1716195592.343929) can0 50A#087D7DFF00000000
(1716195592.344606) can0 464#080000000000AE41
(1716195592.345594) can0 466#0042070200000000
(1716195592.346570) can0 468#0303
(1716195592.364218) can0 500#000F000001C40000
(1716195592.404330) can0 501#096D000015140000
(1716195592.444265) can0 50A#087D7DFF00000000
(1716195592.464218) can0 502#0000000000000000
(1716195592.495605) can0 186#1415
(1716195592.504244) can0 501#096D000015140000
(1716195592.543976) can0 50A#087D7DFF00000000
(1716195592.564293) can0 503#0000000000000000
(1716195592.590805) can0 182#A65D6100
(1716195592.591922) can0 183#0000000000006100
(1716195592.592666) can0 185#1313131314141313
(1716195592.603942) can0 501#096D000015140000
(1716195592.640672) can0 460#0003A87DFFFFFFE7
(1716195592.641592) can0 462#00130014610018
(1716195592.642569) can0 463#00000019
(1716195592.644015) can0 461#0D000000
(1716195592.644038) can0 50A#087D7DFF00000000
(1716195592.644615) can0 464#080000000000AE41
(1716195592.645821) can0 466#0042070200000000
(1716195592.646612) can0 468#0303
(1716195592.664249) can0 505#095DFFFE13146100
(1716195592.703959) can0 501#096D000015140000
(1716195592.744283) can0 50A#087D7DFF00000000
(1716195592.763957) can0 50C#281A000000000100
(1716195592.764434) can0 506#0000020000EA5F00
(1716195592.804190) can0 501#096D000015140000
(1716195592.844269) can0 50A#087D7DFF00000000
(1716195592.845632) can0 186#1415
(1716195592.864205) can0 50D#0000007800000000
(1716195592.904262) can0 501#096D000015140000
(1716195592.941105) can0 460#0003A87BFFFFFFE7
(1716195592.941709) can0 462#00130014610018
(1716195592.942928) can0 463#00000019
(1716195592.943743) can0 461#0E000000
(1716195592.944069) can0 50A#087D7DFF00000000
(1716195592.945064) can0 464#080000000000AE41
(1716195592.946324) can0 466#0042070200000000
(1716195592.946520) can0 468#0303
(1716195592.947617) can0 182#A55D6100
(1716195592.948816) can0 183#0000000000006100
(1716195592.949727) can0 185#1313131314141313
(1716195592.964336) can0 50F#0000000000000000
(1716195593.004244) can0 501#096D000015140000
(1716195593.044263) can0 50A#087D7DFF00000000
(1716195593.104252) can0 501#096D000015140000
(1716195593.143946) can0 50A#087D7DFF00000000
(1716195593.195972) can0 186#1415
(1716195593.204244) can0 501#096D000015140000
(1716195593.241131) can0 460#0003A87BFFFFFFE7
(1716195593.241857) can0 462#00130014610018
(1716195593.243136) can0 463#00000019
(1716195593.243891) can0 461#0F000000
(1716195593.244263) can0 50A#087D7DFF00000000
(1716195593.244867) can0 464#080000000000AE41
(1716195593.246070) can0 466#0042070200000000
(1716195593.246680) can0 468#0303
(1716195593.247720) can0 46A#019000DC
(1716195593.249108) can0 776#006409D8000001E0
(1716195593.264199) can0 50C#281A000000000100
(1716195593.290788) can0 182#A55D6100
(1716195593.291889) can0 183#0000000000006100
(1716195593.292873) can0 185#1313131314141313
(1716195593.304060) can0 501#096D000015140000
(1716195593.344266) can0 50A#087D7DFF00000000
(1716195593.364207) can0 500#000F000001C40000
(1716195593.403936) can0 501#096D000015140000
(1716195593.444269) can0 50A#087D7DFF00000000
(1716195593.464266) can0 502#0000000000000000
(1716195593.504272) can0 501#096D000015140000
(1716195593.541125) can0 460#0003A87BFFFFFFE7
(1716195593.542259) can0 462#00130014610018
(1716195593.543085) can0 463#00000019
(1716195593.544045) can0 50A#087D7DFF00000000
(1716195593.544268) can0 461#01141313
(1716195593.545054) can0 464#080000000000AE41
(1716195593.546195) can0 466#0042070200000000
(1716195593.546848) can0 468#0303
(1716195593.548004) can0 186#1415
(1716195593.564154) can0 503#0000000000000000
(1716195593.604267) can0 501#096D000015140000
(1716195593.641412) can0 182#A55D6100
(1716195593.642069) can0 183#0000000000006100
(1716195593.643322) can0 185#1313131414141313
(1716195593.643993) can0 50A#087D7DFF00000000
(1716195593.664170) can0 505#095DFFFE13146100
(1716195593.703974) can0 501#096D000015140000
(1716195593.744266) can0 50A#087D7DFF00000000
(1716195593.764201) can0 50C#281A000000000100
(1716195593.764426) can0 506#0000020000EA5F00
(1716195593.803969) can0 501#096D000015140000
(1716195593.841442) can0 460#0003A879FFFFFFE7
(1716195593.842307) can0 462#00130014610018
(1716195593.842971) can0 463#00000019
(1716195593.843906) can0 50A#087D7DFF00000000
(1716195593.844246) can0 461#02141314
(1716195593.845126) can0 464#080000000000AE41
(1716195593.846127) can0 466#0042070200000000
(1716195593.847113) can0 468#0303
(1716195593.863974) can0 50D#0000007800000000
(1716195593.896255) can0 186#1415
(1716195593.904254) can0 501#096D000015140000
(1716195593.944290) can0 50A#087D7DFF00000000
(1716195593.964203) can0 50F#0000000000000000
(1716195593.991368) can0 182#A55D6100
(1716195593.992624) can0 183#0000000000006100
(1716195593.993164) can0 185#1313131414141313
(1716195594.003939) can0 501#096D000015140000
(1716195594.044333) can0 50A#087D7DFF00000000
(1716195594.104327) can0 501#096D000015140000
(1716195594.141295) can0 460#0003A879FFFFFFE7
(1716195594.142212) can0 462#00130014610018
(1716195594.143118) can0 463#00000019
(1716195594.144212) can0 50A#087D7DFF00000000
(1716195594.144220) can0 461#03151414
(1716195594.145810) can0 464#080000000000AE41
(1716195594.146262) can0 466#0042070200000000
(1716195594.147237) can0 468#0303
(1716195594.204008) can0 501#096D000015140000
(1716195594.241207) can0 46A#019000DC
(1716195594.242305) can0 776#006409D8000001E0
(1716195594.244640) can0 50A#087D7DFF00000000
(1716195594.246272) can0 186#1415
(1716195594.263957) can0 50C#281A000000000100
(1716195594.303962) can0 501#096D000015140000
(1716195594.341442) can0 182#A55D6100
(1716195594.342662) can0 183#0000000000006100
(1716195594.343348) can0 185#1313131414141313
(1716195594.343931) can0 50A#087D7DFF00000000
(1716195594.364191) can0 500#000F000001C40000
(1716195594.403980) can0 501#096D000015140000
(1716195594.441543) can0 460#0003A876FFFFFFE7
(1716195594.442759) can0 462#00130014610018
(1716195594.443224) can0 463#00000019
(1716195594.444226) can0 50A#087D7DFF00000000
(1716195594.444244) can0 461#04151313
(1716195594.445655) can0 464#080000000000AE41
(1716195594.446685) can0 466#0042070200000000
(1716195594.447293) can0 468#0303
(1716195594.464197) can0 502#0000000000000000
(1716195594.504191) can0 501#096D000015140000
(1716195594.544258) can0 50A#087D7DFF00000000
(1716195594.564195) can0 503#0000000000000000
(1716195594.596490) can0 186#1415
(1716195594.604154) can0 501#096D000015140000
(1716195594.644247) can0 50A#087D7DFF00000000
(1716195594.664247) can0 505#095DFFFE13146100
(1716195594.691674) can0 182#A55D6100
(1716195594.692898) can0 183#0000000000006100
(1716195594.693482) can0 185#1313131414141313
(1716195594.703934) can0 501#096D000015140000
(1716195594.741555) can0 460#0003A876FFFFFFE7
(1716195594.742465) can0 462#00130014610018
(1716195594.743353) can0 463#00000019
(1716195594.743911) can0 50A#087D7DFF00000000
(1716195594.744351) can0 461#05151415
(1716195594.745650) can0 464#080000000000AE41
(1716195594.746802) can0 466#0042070200000000
(1716195594.747405) can0 468#0303
(1716195594.764271) can0 50C#281A000000000100
(1716195594.764408) can0 506#0000020000EA5F00
(1716195594.804247) can0 501#096D000015140000
(1716195594.843958) can0 50A#087D7DFF00000000
(1716195594.863954) can0 50D#0000007800000000
(1716195594.904174) can0 501#096D000015140000
(1716195594.944237) can0 50A#087D7DFF00000000
(1716195594.946680) can0 186#1415
(1716195594.964190) can0 50F#0000000000000000
(1716195595.004161) can0 501#096D000015140000
(1716195595.041715) can0 460#0003A876FFFFFFE7
(1716195595.042698) can0 462#00130014610018
(1716195595.043552) can0 463#00000019
(1716195595.043944) can0 50A#087D7DFF00000000
(1716195595.044481) can0 461#06000000
(1716195595.045883) can0 464#080000000000AE41
(1716195595.047083) can0 466#0042070200000000
(1716195595.047412) can0 468#0303
(1716195595.048484) can0 182#A55D6100
(1716195595.049651) can0 183#0000000000006100
(1716195595.050670) can0 185#1313131414141313
(1716195595.104174) can0 501#096D000015140000
(1716195595.143981) can0 50A#087D7DFF00000000
(1716195595.204244) can0 501#096D000015140000
(1716195595.241620) can0 46A#019000DC
(1716195595.242707) can0 776#006409D8000001E0
(1716195595.243897) can0 50A#087D7DFF00000000
(1716195595.263954) can0 50C#281A000000000100
(1716195595.296523) can0 186#1415
(1716195595.304147) can0 501#096D000015140000
(1716195595.342282) can0 460#0003A876FFFFFFE7
(1716195595.342688) can0 462#00130014610018
(1716195595.343903) can0 463#00000019
(1716195595.344048) can0 50A#087D7DFF00000000
(1716195595.344583) can0 461#07000000
(1716195595.346303) can0 464#080000000000AE41
(1716195595.346734) can0 466#0042070200000000
(1716195595.347828) can0 468#0303
(1716195595.364186) can0 500#000F000001C40000
(1716195595.391722) can0 182#A55D6100
(1716195595.392765) can0 183#0000000000006100
(1716195595.393723) can0 185#1313131414141313
(1716195595.404148) can0 501#096D000015140000
(1716195595.444246) can0 50A#087D7DFF00000000
(1716195595.464179) can0 502#0000000000000000
(1716195595.504286) can0 501#096D000015140000
(1716195595.544255) can0 50A#087D7DFF00000000
(1716195595.564273) can0 503#0000000000000000
(1716195595.604216) can0 501#096D000015140000
(1716195595.642112) can0 460#0003A876FFFFFFE7
(1716195595.642813) can0 462#00130014610018
(1716195595.643699) can0 463#00000019
(1716195595.644173) can0 50A#087D7DFF00000000
(1716195595.644711) can0 461#08000000
(1716195595.646523) can0 464#080000000000AE41
(1716195595.646855) can0 466#0042070200000000
(1716195595.647867) can0 468#0303
(1716195595.648935) can0 186#1415
(1716195595.663908) can0 505#095DFFFE13146100
(1716195595.704166) can0 501#096D000015140000
(1716195595.742096) can0 182#A55D6100
(1716195595.743418) can0 183#0000000000006100
(1716195595.743850) can0 185#1313131314141313
(1716195595.744826) can0 50A#087D7DFF00000000
(1716195595.764188) can0 50C#281A000000000100
(1716195595.764383) can0 506#0000020000EA5F00
(1716195595.804163) can0 501#096D000015140000
(1716195595.844239) can0 50A#087D7DFF00000000
(1716195595.864176) can0 50D#0000007800000000
(1716195595.904305) can0 501#096D000015140000
(1716195595.942201) can0 460#0003A870FFFFFFE0
(1716195595.943031) can0 462#00130014610018
(1716195595.943897) can0 50A#087D7DFF00000000
(1716195595.944240) can0 463#00000020
(1716195595.944801) can0 461#09000000
(1716195595.945963) can0 464#080000000000AE41
(1716195595.946944) can0 466#0042070200000000
(1716195595.947944) can0 468#0303
(1716195595.964245) can0 50F#0000000000000000
(1716195595.997101) can0 186#1414
(1716195596.004223) can0 501#096D000015140000
(1716195596.044231) can0 50A#087D7DFF00000000
(1716195596.091886) can0 182#A45D6100
(1716195596.093049) can0 183#0000000000006100
(1716195596.094290) can0 185#1313131314141313
(1716195596.103928) can0 501#096D000015140000
(1716195596.143926) can0 50A#087D7DFF00000000
(1716195596.204235) can0 501#096D000015140000
(1716195596.242332) can0 460#0003A870FFFFFFE7
(1716195596.243032) can0 462#00130014610018
(1716195596.243881) can0 50A#087D7DFF00000000
(1716195596.244231) can0 463#00000019
(1716195596.244934) can0 461#0A000000
(1716195596.246422) can0 464#080000000000AE41
(1716195596.247322) can0 466#0042070200000000
(1716195596.247916) can0 468#0303
(1716195596.249470) can0 46A#019000DC
(1716195596.250091) can0 776#006409D8000001E0
(1716195596.263948) can0 50C#281A000000000100
(1716195596.304163) can0 501#096D000015140000
(1716195596.344234) can0 50A#087D7DFF00000000
(1716195596.347200) can0 186#1414
(1716195596.364192) can0 500#000F000001C40000
(1716195596.404258) can0 501#096D000015140000
(1716195596.442215) can0 182#A45D6100
(1716195596.443659) can0 183#0000000000006100
(1716195596.443875) can0 50A#087D7DFF00000000
(1716195596.444354) can0 185#1313131314141313
(1716195596.464138) can0 502#0000000000000000
(1716195596.504148) can0 501#096D000015140000
(1716195596.542393) can0 460#0003A870FFFFFFE7
(1716195596.543166) can0 462#00130014610018
(1716195596.543904) can0 50A#087D7DFF00000000
(1716195596.544221) can0 463#00000019
(1716195596.545053) can0 461#0B000000
(1716195596.546204) can0 464#080000000000AE41
(1716195596.547193) can0 466#0042070200000000
(1716195596.548343) can0 468#0303
(1716195596.564254) can0 503#0000000000000000
(1716195596.604225) can0 501#096D000015140000
(1716195596.644215) can0 50A#087D7DFF00000000
(1716195596.664222) can0 505#095DFFFE13146100
(1716195596.697371) can0 186#1414
(1716195596.703873) can0 501#096D000015140000
(1716195596.744297) can0 50A#087D7DFF00000000
(1716195596.764241) can0 50C#281A000000000100
(1716195596.764378) can0 506#0000020000EA5F00
(1716195596.792200) can0 182#A45D6100
(1716195596.793308) can0 183#0000000000006100
(1716195596.794393) can0 185#1313131314141313
(1716195596.804281) can0 501#096D000015140000
(1716195596.842444) can0 460#0003A86FFFFFFFE7
(1716195596.843342) can0 462#00130014610018
(1716195596.843991) can0 50A#087D7DFF00000000
(1716195596.844204) can0 463#00000019
(1716195596.845547) can0 461#0C000000
(1716195596.846525) can0 464#080000000000AE41
(1716195596.847852) can0 466#0042070200000000
(1716195596.848080) can0 468#0303
(1716195596.864118) can0 50D#0000007800000000
(1716195596.904202) can0 501#096D000015140000
(1716195596.944233) can0 50A#087D7DFF00000000
(1716195596.963923) can0 50F#0000000000000000
(1716195597.004150) can0 501#096D000015140000
(1716195597.044221) can0 50A#087D7DFF00000000
(1716195597.047460) can0 186#1414
(1716195597.104229) can0 501#096D000015140000
(1716195597.142707) can0 460#0003A86DFFFFFFE7
(1716195597.143445) can0 462#00130014610018
(1716195597.143918) can0 50A#087D7DFF00000000
(1716195597.144283) can0 463#00000019
(1716195597.145308) can0 461#0D000000
(1716195597.146434) can0 464#080000000000AE41
(1716195597.147440) can0 466#0042070200000000
(1716195597.148440) can0 468#0303
(1716195597.149303) can0 182#A45D6100
(1716195597.150647) can0 183#0000000000006100
(1716195597.151685) can0 185#1313131314141313
(1716195597.204228) can0 501#096D000015140000
(1716195597.242364) can0 46A#019000DC
(1716195597.243683) can0 776#006409D8000001E0
(1716195597.243962) can0 50A#087D7DFF00000000
(1716195597.263930) can0 50C#281A000000000100
(1716195597.304153) can0 501#096D000015140000
(1716195597.343908) can0 50A#087D7DFF00000000
(1716195597.363897) can0 500#000F000001C40000
(1716195597.397378) can0 186#1414
(1716195597.404137) can0 501#096D000015140000
(1716195597.442637) can0 460#0003A86DFFFFFFE7
(1716195597.443549) can0 462#00130014610018
(1716195597.444073) can0 50A#087D7DFF00000000
(1716195597.444406) can0 463#00000019
(1716195597.445610) can0 461#0E000000
(1716195597.446770) can0 464#080000000000AE41
(1716195597.447972) can0 466#0042070200000000
(1716195597.448371) can0 468#0303
(1716195597.464149) can0 502#0000000000000000
(1716195597.492504) can0 182#A45D6100
(1716195597.493696) can0 183#0000000000006100
(1716195597.494748) can0 185#1313131314141313
(1716195597.504214) can0 501#096D000015140000
(1716195597.544226) can0 50A#087D7DFF00000000
(1716195597.564032) can0 503#0000000000000000
(1716195597.604214) can0 501#096D000015140000
(1716195597.644099) can0 50A#087D7DFF00000000
(1716195597.663895) can0 505#095DFFFE13146100
(1716195597.704141) can0 501#096D000015140000
(1716195597.742753) can0 460#0003A86DFFFFFFE7
(1716195597.743845) can0 462#00130014610018
(1716195597.744139) can0 50A#087D7DFF00000000
(1716195597.744586) can0 463#00000019
(1716195597.745577) can0 461#0F000000
(1716195597.746725) can0 464#080000000000AE41
(1716195597.747995) can0 466#0042070200000000
(1716195597.748497) can0 468#0303
(1716195597.749686) can0 186#1414
(1716195597.763918) can0 50C#281A000000000100
(1716195597.764524) can0 506#0000020000EA5F00
(1716195597.804144) can0 501#096D000015140000
(1716195597.842636) can0 182#A45D6100
(1716195597.844127) can0 183#0000000000006100
(1716195597.844215) can0 50A#087D7DFF00000000
(1716195597.844727) can0 185#1313131314141313
(1716195597.863930) can0 50D#0000007800000000
(1716195597.904206) can0 501#096D000015140000
(1716195597.944211) can0 50A#087D7DFF00000000
(1716195597.964225) can0 50F#0000000000000000
(1716195598.004213) can0 501#096D000015140000
(1716195598.042858) can0 460#0003A869FFFFFFE7
(1716195598.043803) can0 462#00130014610019
(1716195598.044287) can0 50A#087D7DFF00000000
(1716195598.044693) can0 463#00000019
(1716195598.045876) can0 461#01141313
(1716195598.046849) can0 464#080000000000AE41
(1716195598.047831) can0 466#0042070200000000
(1716195598.048958) can0 468#0303
(1716195598.097710) can0 186#1414
(1716195598.104201) can0 501#096D000015140000
(1716195598.143900) can0 50A#087D7DFF00000000
(1716195598.193316) can0 182#A45D6100
(1716195598.193932) can0 183#0000000000006100
(1716195598.195448) can0 185#1313131314141313
(1716195598.204178) can0 501#096D000015140000
(1716195598.243374) can0 46A#019000DC
(1716195598.243880) can0 50A#087D7DFF00000000
(1716195598.244369) can0 776#006409D8000001E0
(1716195598.263949) can0 50C#281A000000000100
(1716195598.304194) can0 501#096D000015140000
(1716195598.343302) can0 460#0003A869FFFFFFE7
(1716195598.343895) can0 50A#087D7DFF00000000
(1716195598.344316) can0 462#00130014610018
(1716195598.344862) can0 463#00000019
(1716195598.345817) can0 461#02141313
(1716195598.346977) can0 464#080000000000AE41
(1716195598.347984) can0 466#0042070200000000
(1716195598.348969) can0 468#0303
(1716195598.364209) can0 500#000F000001C40000
(1716195598.404201) can0 501#096D000015140000
(1716195598.444283) can0 50A#087D7DFF00000000
(1716195598.448124) can0 186#1415
(1716195598.464244) can0 502#0000000000000000
(1716195598.504213) can0 501#096D000015140000
(1716195598.543189) can0 182#A45D6100
(1716195598.543846) can0 50A#087D7DFF00000000
(1716195598.544371) can0 183#0000000000006100
(1716195598.545036) can0 185#1313131314141313
(1716195598.563922) can0 503#0000000000000000
(1716195598.604122) can0 501#096D000015140000
(1716195598.643362) can0 460#0003A869FFFFFFE7
(1716195598.643849) can0 50A#087D7DFF00000000
(1716195598.644296) can0 462#00130014610018
(1716195598.644953) can0 463#00000019
(1716195598.646255) can0 461#03151414
(1716195598.647421) can0 464#080000000000AE41
(1716195598.648534) can0 466#0042070200000000
(1716195598.648882) can0 468#0303
(1716195598.663866) can0 505#095DFFFE13146100
(1716195598.704129) can0 501#096D000015140000
(1716195598.743915) can0 50A#087D7DFF00000000
(1716195598.764149) can0 50C#281A000000000100
(1716195598.764348) can0 506#0000020000EA5F00
(1716195598.798412) can0 186#1415
(1716195598.804309) can0 501#096D000015140000
(1716195598.843911) can0 50A#087D7DFF00000000
(1716195598.864225) can0 50D#0000007800000000
(1716195598.893338) can0 182#A45D6100
(1716195598.894210) can0 183#0000000000006100
(1716195598.895354) can0 185#1313131314141313
(1716195598.903903) can0 501#096D000015140000
(1716195598.943839) can0 460#0003A868FFFFFFE7
(1716195598.943898) can0 50A#087D7DFF00000000
(1716195598.944298) can0 462#00130014610019
(1716195598.945066) can0 463#00000019
(1716195598.946273) can0 461#04151313
(1716195598.947433) can0 464#080000000000AE41
(1716195598.948492) can0 466#0042070200000000
(1716195598.949024) can0 468#0303
(1716195598.964225) can0 50F#0000000000000000
(1716195599.004208) can0 501#096D000015140000
(1716195599.044125) can0 50A#087D7DFF00000000
(1716195599.104208) can0 501#096D000015140000
(1716195599.144140) can0 50A#087D7DFF00000000
(1716195599.148346) can0 186#1415
(1716195599.204184) can0 501#096D000015140000
(1716195599.243615) can0 460#0003A868FFFFFFE7
(1716195599.243862) can0 50A#087D7DFF00000000
(1716195599.244746) can0 462#00130014610018
(1716195599.245177) can0 463#00000019
(1716195599.246385) can0 461#05151415
(1716195599.247965) can0 464#080000000000AE41
(1716195599.248347) can0 466#0042070200000000
(1716195599.249131) can0 468#0303
(1716195599.250518) can0 46A#019000DC
(1716195599.251660) can0 182#A45D6100
(1716195599.252791) can0 183#0000000000006100
(1716195599.253318) can0 185#1313131314141313
(1716195599.254653) can0 776#006409D8000001E0
(1716195599.263873) can0 50C#281A000000000100
(1716195599.304123) can0 501#096D000015140000
(1716195599.344118) can0 50A#087D7DFF00000000
(1716195599.364144) can0 500#000F000001C40000
(1716195599.403895) can0 501#096D000015140000
(1716195599.444194) can0 50A#087D7DFF00000000
(1716195599.464147) can0 502#0000000000000000
(1716195599.498596) can0 186#1415
(1716195599.504191) can0 501#096D000015140000
(1716195599.543842) can0 460#0003A867FFFFFFE7
(1716195599.543967) can0 50A#087D7DFF00000000
(1716195599.544462) can0 462#00130014610019
(1716195599.545371) can0 463#00000019
(1716195599.546646) can0 461#06000000
(1716195599.547532) can0 464#080000000000AE41
(1716195599.548511) can0 466#0042070200000000
(1716195599.549288) can0 468#0303
(1716195599.564222) can0 503#0000000000000000
(1716195599.593475) can0 182#A35D6100
(1716195599.594742) can0 183#0000000000006100
(1716195599.595498) can0 185#1313131314141313
(1716195599.603888) can0 501#096D000015140000
(1716195599.644138) can0 50A#087D7DFF00000000
(1716195599.664211) can0 505#095DFFFE13146100
(1716195599.704218) can0 501#096D000015140000
(1716195599.744139) can0 50A#087D7DFF00000000
(1716195599.763902) can0 50C#281A000000000100
(1716195599.764355) can0 506#0000020000EA5F00
(1716195599.804139) can0 501#096D000015140000
(1716195599.843990) can0 460#0003A867FFFFFFE7
(1716195599.844113) can0 50A#087D7DFF00000000
(1716195599.844624) can0 462#00130014610018
(1716195599.845501) can0 463#00000019
(1716195599.846739) can0 461#07000000
(1716195599.848024) can0 464#080000000000AE41
(1716195599.848778) can0 466#0042070200000000
(1716195599.849674) can0 468#0303
(1716195599.850938) can0 186#1415
(1716195599.864147) can0 50D#0000007800000000
(1716195599.904162) can0 501#096D000015140000
(1716195599.943827) can0 182#A35D6100
(1716195599.944034) can0 50A#087D7DFF00000000
(1716195599.944986) can0 183#0000000000006100
(1716195599.945673) can0 185#1313131314141313
(1716195599.964441) can0 50F#0000000000000000
(1716195600.003939) can0 501#096D000015140000
(1716195600.044228) can0 50A#087D7DFF00000000
(1716195600.104233) can0 501#096D000015140000
(1716195600.144076) can0 460#0003A867FFFFFFE7
(1716195600.144285) can0 50A#087D7DFF00000000
(1716195600.144898) can0 462#00130014610018
(1716195600.145933) can0 463#00000019
(1716195600.146675) can0 461#08000000
(1716195600.148131) can0 464#080000000000AE41
(1716195600.148808) can0 466#0042070200000000
(1716195600.149589) can0 468#0303
(1716195600.198961) can0 186#1415
(1716195600.204221) can0 501#096D000015140000
(1716195600.244165) can0 50A#087D7DFF00000000
(1716195600.244244) can0 46A#019000DC
(1716195600.244933) can0 776#006409D8000001E0
(1716195600.264205) can0 50C#281A000000000100
(1716195600.294042) can0 182#A35D6100
(1716195600.294998) can0 183#0000000000006100
(1716195600.296083) can0 185#1313131314141313
(1716195600.304284) can0 501#096D000015140000
(1716195600.344108) can0 50A#087D7DFF00000000
(1716195600.364045) can0 500#000F000001C40000
(1716195600.404227) can0 501#096D000015140000
(1716195600.444182) can0 50A#087D7DFF00000000
(1716195600.444329) can0 460#0003A867FFFFFFE0
(1716195600.444936) can0 462#00130014610018
(1716195600.445819) can0 463#00000020
(1716195600.446798) can0 461#09000000
(1716195600.448170) can0 464#080000000000AE41
(1716195600.449228) can0 466#0042070200000000
(1716195600.449751) can0 468#0303
(1716195600.463941) can0 502#0000000000000000
(1716195600.504190) can0 501#096D000015140000
(1716195600.544385) can0 50A#087D7DFF00000000
(1716195600.549078) can0 186#1415
(1716195600.564237) can0 503#0000000000000000
(1716195600.604188) can0 501#096D000015140000
(1716195600.644110) can0 50A#087D7DFF00000000
(1716195600.644178) can0 182#A35D6100
(1716195600.645070) can0 183#0000000000006100
(1716195600.646245) can0 185#1313131314141313
(1716195600.663897) can0 505#095DFFFD13146100
(1716195600.704110) can0 501#096D000015140000
(1716195600.744106) can0 50A#087D7DFF00000000
(1716195600.744307) can0 460#0003A866FFFFFFE7
(1716195600.745268) can0 462#00130014610018
(1716195600.746099) can0 463#00000019
(1716195600.746977) can0 461#0A000000
(1716195600.748412) can0 464#080000000000AE41
(1716195600.749580) can0 466#0042070200000000
(1716195600.749919) can0 468#0303
(1716195600.764120) can0 50C#281A000000000100
(1716195600.764338) can0 506#0000020000EA5F00
(1716195600.804027) can0 501#096D000015140000
(1716195600.844183) can0 50A#087D7DFF00000000
(1716195600.863895) can0 50D#0000007800000000
(1716195600.899262) can0 186#1415
(1716195600.904157) can0 501#096D000015140000
(1716195600.944032) can0 50A#087D7DFF00000000
(1716195600.963983) can0 50F#0000000000000000
(1716195600.994505) can0 182#A35D6100
(1716195600.995405) can0 183#0000000000006100
(1716195600.996393) can0 185#1313131314141313
(1716195601.003866) can0 501#096D000015140000
(1716195601.043905) can0 50A#087D7DFF00000000
(1716195601.044347) can0 460#0003A864FFFFFFE7
(1716195601.045205) can0 462#00130014610019
(1716195601.046512) can0 463#00000019
(1716195601.047137) can0 461#0B000000
(1716195601.048452) can0 464#080000000000AE41
(1716195601.049265) can0 466#0042070200000000
(1716195601.050161) can0 468#0303
(1716195601.104179) can0 501#096D000015140000
(1716195601.144098) can0 50A#087D7DFF00000000
(1716195601.204181) can0 501#096D000015140000
(1716195601.244106) can0 50A#087D7DFF00000000
(1716195601.244210) can0 46A#019000DC
(1716195601.245423) can0 776#006409D8000001E0
(1716195601.249195) can0 186#1415
(1716195601.263901) can0 50C#281A000000000100
(1716195601.304054) can0 501#096D000015140000
(1716195601.344202) can0 50A#087D7DFF00000000
(1716195601.344410) can0 460#0003A864FFFFFFE7
(1716195601.345397) can0 462#00130014610018
(1716195601.346465) can0 463#00000019
(1716195601.347532) can0 461#0C000000
(1716195601.348425) can0 464#080000000000AE41
(1716195601.349516) can0 466#0042070200000000
(1716195601.350278) can0 468#0303
(1716195601.351587) can0 182#A35D6100
(1716195601.352754) can0 183#0000000000006100
(1716195601.353510) can0 185#1313131314141313
(1716195601.364117) can0 500#000F000001C40000
(1716195601.404173) can0 501#096D000015140000
(1716195601.444171) can0 50A#087D7DFF00000000
(1716195601.464110) can0 502#0000000000000000
(1716195601.504160) can0 501#096D000015140000
(1716195601.544162) can0 50A#087D7DFF00000000
(1716195601.564186) can0 503#0000000000000000
(1716195601.599849) can0 186#1415
(1716195601.603859) can0 501#096D000015140000
(1716195601.644093) can0 50A#087D7DFF00000000
(1716195601.644571) can0 460#0003A861FFFFFFE7
(1716195601.645862) can0 462#00130014610019
(1716195601.646617) can0 463#00000019
(1716195601.647670) can0 461#0D000000
(1716195601.648560) can0 464#080000000000AE41
(1716195601.649771) can0 466#0042070200000000
(1716195601.650464) can0 468#0303
(1716195601.664166) can0 505#095DFFFE13146100
(1716195601.694782) can0 182#A35D6100
(1716195601.696012) can0 183#0000000000006100
(1716195601.696566) can0 185#1313131314141313
(1716195601.703924) can0 501#096D000015140000
(1716195601.744114) can0 50A#087D7DFF00000000
(1716195601.764155) can0 50C#281A000000000100
(1716195601.764314) can0 506#0000020000EA5F00
(1716195601.803875) can0 501#096D000015140000
(1716195601.844107) can0 50A#087D7DFF00000000
(1716195601.864115) can0 50D#0000007800000000
(1716195601.904171) can0 501#096D000015140000
(1716195601.944158) can0 50A#087D7DFF00000000
(1716195601.944699) can0 460#0003A861FFFFFFE7
(1716195601.946006) can0 462#00130014610018
(1716195601.946554) can0 463#00000019
(1716195601.947546) can0 461#0E000000
(1716195601.948703) can0 464#080000000000AE41
(1716195601.950033) can0 466#0042070200000000
(1716195601.950645) can0 468#0303
(1716195601.951616) can0 186#1415
(1716195601.964107) can0 50F#0000000000000000
(1716195602.004172) can0 501#096D000015140000
(1716195602.044163) can0 50A#087D7DFF00000000
(1716195602.044619) can0 182#A35D6100
(1716195602.046049) can0 183#0000000000006100
(1716195602.046942) can0 185#1313131314141313
(1716195602.104165) can0 501#096D000015140000
(1716195602.144096) can0 50A#087D7DFF00000000
(1716195602.204160) can0 501#096D000015140000
(1716195602.244095) can0 50A#087D7DFF00000000
(1716195602.244853) can0 460#0003A861FFFFFFE7
(1716195602.245880) can0 462#00130014610018
(1716195602.246914) can0 463#00000019
(1716195602.247677) can0 461#0F000000
(1716195602.249220) can0 464#080000000000AE41
(1716195602.249838) can0 466#0042070200000000
(1716195602.250789) can0 468#0303
(1716195602.252216) can0 46A#019000DC
(1716195602.252916) can0 776#006409D8000001E0
(1716195602.264106) can0 50C#281A000000000100
(1716195602.299924) can0 186#1415
(1716195602.303853) can0 501#096D000015140000
(1716195602.344080) can0 50A#087D7DFF00000000
(1716195602.363896) can0 500#000F000001C40000
(1716195602.395026) can0 182#A35D6100
(1716195602.396162) can0 183#0000000000006100
(1716195602.397055) can0 185#1313131314141313
(1716195602.404052) can0 501#096D000015140000
(1716195602.444164) can0 50A#087D7DFF00000000
(1716195602.464094) can0 502#0000000000000000
(1716195602.504149) can0 501#096D000015140000
(1716195602.543884) can0 50A#087D7DFF00000000
(1716195602.545337) can0 460#0003A860FFFFFFE0
(1716195602.545925) can0 462#00130014610019
(1716195602.546895) can0 463#00000020
(1716195602.548328) can0 461#01141313
(1716195602.548999) can0 464#080000000000AE41
(1716195602.550359) can0 466#0042070200000000
(1716195602.550741) can0 468#0303
(1716195602.564181) can0 503#0000000000000000
(1716195602.604160) can0 501#096D000015140000
(1716195602.644100) can0 50A#087D7DFF00000000
(1716195602.649814) can0 186#1415
(1716195602.663831) can0 505#095DFFFD13146100
(1716195602.703851) can0 501#096D000015140000
(1716195602.744078) can0 50A#087D7DFF00000000
(1716195602.744918) can0 182#A35D6100
(1716195602.746356) can0 183#0000000000006100
(1716195602.747419) can0 185#1313131314141313
(1716195602.764240) can0 50C#281A000000000100
(1716195602.764312) can0 506#0000020000EA5F00
(1716195602.804058) can0 501#096D000015140000
(1716195602.844159) can0 50A#087D7DFF00000000
(1716195602.845093) can0 460#0003A860FFFFFFE0
(1716195602.846361) can0 462#00130014610018
(1716195602.847437) can0 463#00000020
(1716195602.847930) can0 461#02141313
(1716195602.849083) can0 464#080000000000AE41
(1716195602.850064) can0 466#0042070200000000
(1716195602.850843) can0 468#0303
(1716195602.864086) can0 50D#0000007800000000
(1716195602.904144) can0 501#096D000015140000
(1716195602.944144) can0 50A#087D7DFF00000000
(1716195602.964155) can0 50F#0000000000000000
(1716195603.000391) can0 186#1415
(1716195603.003801) can0 501#096D000015140000
(1716195603.044066) can0 50A#087D7DFF00000000
(1716195603.095173) can0 182#A35D6100
(1716195603.096187) can0 183#0000000000006100
(1716195603.097123) can0 185#1313131314141313
(1716195603.104001) can0 501#096D000015140000
(1716195603.144078) can0 50A#087D7DFF00000000
(1716195603.145255) can0 460#0003A85DFFFFFFE7
(1716195603.146342) can0 462#00130014610018
(1716195603.147220) can0 463#00000019
(1716195603.148238) can0 461#03151414
(1716195603.149224) can0 464#080000000000AE41
(1716195603.150390) can0 466#0042070200000000
(1716195603.150934) can0 468#0303
(1716195603.204152) can0 501#096D000015140000
(1716195603.244074) can0 50A#087D7DFF00000000
(1716195603.245265) can0 46A#019000DC
(1716195603.246424) can0 776#006409D8000001E0
(1716195603.263849) can0 50C#281A000000000100
(1716195603.304068) can0 501#096D000015140000
(1716195603.344080) can0 50A#087D7DFF00000000
(1716195603.350300) can0 186#1415
(1716195603.364081) can0 500#000F000001C40000
(1716195603.404222) can0 501#096D000015140000
(1716195603.444128) can0 50A#087D7DFF00000000
(1716195603.445287) can0 460#0003A85CFFFFFFE7
(1716195603.446560) can0 462#00130014610018
(1716195603.447349) can0 463#00000019
(1716195603.448141) can0 461#04151313
(1716195603.449284) can0 464#080000000000AE41
(1716195603.450286) can0 466#0042070200000000
(1716195603.451046) can0 468#0303
(1716195603.452843) can0 182#A25D6100
(1716195603.453287) can0 183#0000000000006100
(1716195603.454260) can0 185#1313131314141313
(1716195603.464089) can0 502#0000000000000000
(1716195603.503823) can0 501#096D000015140000
(1716195603.544038) can0 50A#087D7DFF00000000
(1716195603.564161) can0 503#0000000000000000
(1716195603.604279) can0 501#096D000015140000
(1716195603.643953) can0 50A#087D7DFF00000000
(1716195603.663810) can0 505#095DFFFE13146100
(1716195603.700415) can0 186#1415
(1716195603.704056) can0 501#096D000015140000
(1716195603.744129) can0 50A#087D7DFF00000000
(1716195603.745429) can0 460#0003A85CFFFFFFE7
(1716195603.746687) can0 462#00130014610018
(1716195603.747292) can0 463#00000019
(1716195603.748620) can0 461#05151415
(1716195603.749468) can0 464#080000000000AE41
(1716195603.750732) can0 466#0042070200000000
(1716195603.751332) can0 468#0303
(1716195603.764079) can0 50C#281A000000000100
(1716195603.764329) can0 506#0000020000EA5F00
(1716195603.795540) can0 182#A25D6100
(1716195603.796668) can0 183#0000000000006100
(1716195603.797384) can0 185#1313131314141313
(1716195603.804128) can0 501#096D000015140000
(1716195603.844147) can0 50A#087D7DFF00000000
(1716195603.864077) can0 50D#0000007800000000
(1716195603.904157) can0 501#096D000015140000
(1716195603.944132) can0 50A#087D7DFF00000000
(1716195603.963852) can0 50F#0000000000000000
(1716195604.004135) can0 501#096D000015140000
(1716195604.044056) can0 50A#087D7DFF00000000
(1716195604.045582) can0 460#0003A85CFFFFFFE7
(1716195604.046662) can0 462#00130014610018
(1716195604.047338) can0 463#00000019
(1716195604.048455) can0 461#06000000
(1716195604.049522) can0 464#080000000000AE41
(1716195604.050982) can0 466#0042070200000000
(1716195604.051284) can0 468#0303
(1716195604.052250) can0 186#1415
(1716195604.104134) can0 501#096D000015140000
(1716195604.144069) can0 50A#087D7DFF00000000
(1716195604.145412) can0 182#A25D6100
(1716195604.146959) can0 183#0000000000006100
(1716195604.147496) can0 185#1313131314141313
(1716195604.204017) can0 501#096D000015140000
(1716195604.244194) can0 50A#087D7DFF00000000
(1716195604.245442) can0 46A#019000DC
(1716195604.246774) can0 776#006409D8000001E0
(1716195604.263835) can0 50C#281A000000000100
(1716195604.304140) can0 501#096D000015140000
(1716195604.344138) can0 50A#087D7DFF00000000
(1716195604.345932) can0 460#0003A85BFFFFFFE7
(1716195604.346998) can0 462#00130014610019
(1716195604.347452) can0 463#00000019
(1716195604.348746) can0 461#07000000
(1716195604.349835) can0 464#080000000000AE41
(1716195604.350842) can0 466#0042070200000000
(1716195604.351629) can0 468#0303
(1716195604.364251) can0 500#000F000001C40000
(1716195604.400679) can0 186#1415
(1716195604.403972) can0 501#096D000015140000
(1716195604.444112) can0 50A#087D7DFF00000000
(1716195604.464069) can0 502#0000000000000000
(1716195604.495799) can0 182#A25D6100
(1716195604.496911) can0 183#0000000000006100
(1716195604.497694) can0 185#1313131314141313
(1716195604.503801) can0 501#096D000015140000
(1716195604.543828) can0 50A#087D7DFF00000000
(1716195604.564154) can0 503#0000000000000000
(1716195604.604113) can0 501#096D000015140000
(1716195604.644073) can0 50A#087D7DFF00000000
(1716195604.645833) can0 460#0003A85BFFFFFFE7
(1716195604.646963) can0 462#00130014610019
(1716195604.647823) can0 463#00000019
(1716195604.648665) can0 461#08000000
(1716195604.649766) can0 464#080000000000AE41
(1716195604.650957) can0 466#0042070200000000
(1716195604.651656) can0 468#0303
(1716195604.663783) can0 505#095DFFFE13146100
(1716195604.704051) can0 501#096D000015140000
(1716195604.743853) can0 50A#087D7DFF00000000
(1716195604.750598) can0 186#1415
(1716195604.764074) can0 50C#281A000000000100
(1716195604.764302) can0 506#0000020000EA5F00
(1716195604.803787) can0 501#096D000015140000
(1716195604.844136) can0 50A#087D7DFF00000000
(1716195604.846005) can0 182#A25D6100
(1716195604.847228) can0 183#0000000000006100
(1716195604.848394) can0 185#1313131314141313
(1716195604.863850) can0 50D#0000007800000000
(1716195604.903820) can0 501#096D000015140000
(1716195604.944126) can0 50A#087D7DFF00000000
(1716195604.946181) can0 460#0003A85BFFFFFFE7
(1716195604.946976) can0 462#00130014610018
(1716195604.948070) can0 463#00000019
(1716195604.949184) can0 461#09000000
(1716195604.950302) can0 464#080000000000AE41
(1716195604.951426) can0 466#0042070200000000
(1716195604.951668) can0 468#0303
(1716195604.964126) can0 50F#0000000000000000
(1716195605.004111) can0 501#096D000015140000
(1716195605.044080) can0 50A#087D7DFF00000000
(1716195605.101074) can0 186#1415
(1716195605.104095) can0 501#096D000015140000
(1716195605.144049) can0 50A#087D7DFF00000000
(1716195605.196204) can0 182#A25D6100
(1716195605.197328) can0 183#0000000000006100
(1716195605.198145) can0 185#1313131314141313
(1716195605.203803) can0 501#096D000015140000
(1716195605.244124) can0 50A#087D7DFF00000000
(1716195605.246360) can0 460#0003A859FFFFFFE0
(1716195605.246970) can0 462#00130014610018
(1716195605.248187) can0 463#00000020
(1716195605.248891) can0 461#0A000000
(1716195605.250355) can0 464#080000000000AE41
(1716195605.251485) can0 466#0042070200000000
(1716195605.251800) can0 468#0303
(1716195605.253205) can0 46A#019000DC
(1716195605.254019) can0 776#006409D8000001E0
(1716195605.264074) can0 50C#281A000000000100
(1716195605.303829) can0 501#096D000015140000
(1716195605.344130) can0 50A#087D7DFF00000000
(1716195605.364073) can0 500#000F000001C40000
(1716195605.403794) can0 501#096D000015140000
(1716195605.444122) can0 50A#087D7DFF00000000
(1716195605.451226) can0 186#1415
(1716195605.464127) can0 502#0000000000000000
(1716195605.504100) can0 501#096D000015140000
(1716195605.543999) can0 50A#087D7DFF00000000
(1716195605.546589) can0 460#0003A859FFFFFFE0
(1716195605.547164) can0 462#00130014610019
(1716195605.548589) can0 463#00000020
(1716195605.549001) can0 461#0B000000
(1716195605.550353) can0 464#080000000000AE41
(1716195605.551427) can0 466#0042070200000000
(1716195605.551927) can0 468#0303
(1716195605.553038) can0 182#A25D6100
(1716195605.554176) can0 183#0000000000006100
(1716195605.555680) can0 185#1313131314141313
(1716195605.563827) can0 503#0000000000000000
(1716195605.604024) can0 501#096D000015140000
(1716195605.644125) can0 50A#087D7DFF00000000
(1716195605.664031) can0 505#095DFFFD13146100
(1716195605.703827) can0 501#096D000015140000
(1716195605.744118) can0 50A#087D7DFF00000000
(1716195605.764080) can0 50C#281A000000000100
(1716195605.764298) can0 506#0000020000EA5F00
(1716195605.801278) can0 186#1415
(1716195605.804020) can0 501#096D000015140000
(1716195605.844118) can0 50A#087D7DFF00000000
(1716195605.846277) can0 460#0003A859FFFFFFE7
(1716195605.847222) can0 462#00130014610018
(1716195605.848235) can0 463#00000019
(1716195605.849219) can0 461#0C000000
(1716195605.850471) can0 464#080000000000AE41
(1716195605.851263) can0 466#0042070200000000
(1716195605.852054) can0 468#0303
(1716195605.864045) can0 50D#0000007800000000
(1716195605.896496) can0 182#A25D6100
(1716195605.897307) can0 183#0000000000006100
(1716195605.898583) can0 185#1313131314141313
(1716195605.904095) can0 501#096D000015140000
(1716195605.944122) can0 50A#087D7DFF00000000
(1716195605.964120) can0 50F#0000000000000000
(1716195606.004020) can0 501#096D000015140000
(1716195606.043804) can0 50A#087D7DFF00000000
(1716195606.104104) can0 501#096D000015140000
(1716195606.143810) can0 50A#087D7DFF00000000
(1716195606.146668) can0 460#0003A859FFFFFFE7
(1716195606.147461) can0 462#00130014610018
(1716195606.148656) can0 463#00000019
(1716195606.149234) can0 461#0D000000
(1716195606.150787) can0 464#080000000000AE41
(1716195606.151386) can0 466#0042070200000000
(1716195606.152369) can0 468#0303
(1716195606.153172) can0 186#1415
(1716195606.203790) can0 501#096D000015140000
(1716195606.243836) can0 50A#087D7DFF00000000
(1716195606.246339) can0 46A#019000DC
(1716195606.247741) can0 182#A25D6100
(1716195606.248610) can0 183#0000000000006100
(1716195606.249408) can0 185#1313131314141313
(1716195606.250953) can0 776#006409D8000001E0
(1716195606.263818) can0 50C#281A000000000100
(1716195606.304030) can0 501#096D000015140000
(1716195606.344104) can0 50A#087D7DFF00000000
(1716195606.364047) can0 500#000F000001C40000
(1716195606.404004) can0 501#096D000015140000
(1716195606.444104) can0 50A#087D7DFF00000000
(1716195606.446860) can0 460#0003A859FFFFFFE0
(1716195606.447482) can0 462#00130014610018
(1716195606.448682) can0 463#00000020
(1716195606.449485) can0 461#0E000000
(1716195606.450507) can0 464#080000000000AE41
(1716195606.451510) can0 466#0042070200000000
(1716195606.452305) can0 468#0303
(1716195606.464309) can0 502#0000000000000000
(1716195606.501646) can0 186#1415
(1716195606.504223) can0 501#096D000015140000
(1716195606.544114) can0 50A#087D7DFF00000000
(1716195606.564104) can0 503#0000000000000000
(1716195606.596465) can0 182#A25D6100
(1716195606.597597) can0 183#0000000000006100
(1716195606.598808) can0 185#1313131314141313
(1716195606.603774) can0 501#096D000015140000
(1716195606.643831) can0 50A#087D7DFF00000000
(1716195606.664099) can0 505#095DFFFD13146100
(1716195606.704026) can0 501#096D000015140000
(1716195606.744105) can0 50A#087D7DFF00000000
(1716195606.746680) can0 460#0003A857FFFFFFE0
(1716195606.747910) can0 462#00130014610019
(1716195606.749058) can0 463#00000020
(1716195606.749486) can0 461#0F000000
(1716195606.750959) can0 464#080000000000AE41
(1716195606.752095) can0 466#0042070200000000
(1716195606.752403) can0 468#0303
(1716195606.763995) can0 50C#281A000000000100
(1716195606.764245) can0 506#0000020000EA5F00
(1716195606.804037) can0 501#096D000015140000
(1716195606.844110) can0 50A#087D7DFF00000000
(1716195606.851800) can0 186#1415
(1716195606.864044) can0 50D#0000007800000000
(1716195606.904023) can0 501#096D000015140000
(1716195606.943813) can0 50A#087D7DFF00000000
(1716195606.946589) can0 182#A25D6100
(1716195606.947721) can0 183#0000000000006100
(1716195606.948699) can0 185#1313131314141313
(1716195606.964117) can0 50F#0000000000000000
(1716195607.004096) can0 501#096D000015140000
(1716195607.044101) can0 50A#087D7DFF00000000
(1716195607.047088) can0 460#0003A856FFFFFFE0
(1716195607.047940) can0 462#00130014610018
(1716195607.048763) can0 463#00000020
(1716195607.050098) can0 461#01141313
(1716195607.050807) can0 464#080000000000AE41
(1716195607.052093) can0 466#0042070200000000
(1716195607.052531) can0 468#0303
(1716195607.104088) can0 501#096D000015140000
(1716195607.143831) can0 50A#087D7DFF00000000
(1716195607.201620) can0 186#1415
(1716195607.204061) can0 501#096D000015140000
(1716195607.243981) can0 50A#087D7DFF00000000
(1716195607.247009) can0 46A#019000DC
(1716195607.248249) can0 776#006409D8000001E0
(1716195607.263807) can0 50C#281A000000000100
(1716195607.296913) can0 182#A25D6100
(1716195607.297858) can0 183#0000000000006100
(1716195607.299012) can0 185#1313131314141313
(1716195607.304014) can0 501#096D000015140000
(1716195607.344091) can0 50A#087D7DFF00000000
(1716195607.346978) can0 460#0003A855FFFFFFE0
(1716195607.348134) can0 462#00130014610018
(1716195607.348722) can0 463#00000020
(1716195607.350120) can0 461#02141313
(1716195607.351281) can0 464#080000000000AE41
(1716195607.352420) can0 466#0042070200000000
(1716195607.352638) can0 468#0303
(1716195607.363986) can0 500#000F000001C40000
(1716195607.404024) can0 501#096D000015140000
(1716195607.444076) can0 50A#087D7DFF00000000
(1716195607.463940) can0 502#0000000000000000
(1716195607.504092) can0 501#096D000015140000
(1716195607.544095) can0 50A#087D7DFF00000000
(1716195607.552072) can0 186#1415
(1716195607.564110) can0 503#0000000000000000
(1716195607.604097) can0 501#096D000015140000
(1716195607.643891) can0 50A#087D7DFF00000000
(1716195607.647121) can0 460#0003A854FFFFFFE0
(1716195607.648200) can0 462#00130014610018
(1716195607.649107) can0 463#00000020
(1716195607.649951) can0 461#03151414
(1716195607.651201) can0 464#080000000000AE41
(1716195607.652181) can0 466#0042070200000000
(1716195607.652782) can0 468#0303
(1716195607.654426) can0 182#A25D6100
(1716195607.654991) can0 183#0000000000006100
(1716195607.655969) can0 185#1313131314141313
(1716195607.663764) can0 505#095DFFFD13146100
(1716195607.704004) can0 501#096D000015140000
(1716195607.744124) can0 50A#087D7DFF00000000
(1716195607.764347) can0 50C#281A000000000100
(1716195607.764367) can0 506#0000020000EA5F00
(1716195607.804005) can0 501#096D000015140000
(1716195607.844080) can0 50A#087D7DFF00000000
(1716195607.863784) can0 50D#0000007800000000
(1716195607.902150) can0 186#1415
(1716195607.903999) can0 501#096D000015140000
(1716195607.944074) can0 50A#087D7DFF00000000
(1716195607.947429) can0 460#0003A854FFFFFFE0
(1716195607.948564) can0 462#00130014610019
(1716195607.948954) can0 463#00000020
(1716195607.950276) can0 461#04151313
(1716195607.951443) can0 464#080000000000AE41
(1716195607.952588) can0 466#0042070200000000
(1716195607.952892) can0 468#0303
(1716195607.964087) can0 50F#0000000000000000
(1716195607.997321) can0 182#A15D6100
(1716195607.998550) can0 183#0000000000006100
(1716195607.999116) can0 185#1313131314141313
(1716195608.003758) can0 501#096D000015140000
(1716195608.044179) can0 50A#087D7DFF00000000
(1716195608.104094) can0 501#096D000015140000
(1716195608.144010) can0 50A#087D7DFF00000000
(1716195608.204063) can0 501#096D000015140000
(1716195608.244017) can0 50A#087D7DFF00000000
(1716195608.247505) can0 460#0003A852FFFFFFE7
(1716195608.248247) can0 462#00130014610018
(1716195608.249449) can0 463#00000019
(1716195608.250077) can0 461#05151415
(1716195608.251582) can0 464#080000000000AE41
(1716195608.252705) can0 466#0042070200000000
(1716195608.253004) can0 468#0303
(1716195608.254382) can0 46A#019000DC
(1716195608.255064) can0 186#1415
(1716195608.256582) can0 776#006409D8000001E0
(1716195608.263777) can0 50C#281A000000000100
(1716195608.303876) can0 501#096D000015140000
(1716195608.344158) can0 50A#087D7DFF00000000
(1716195608.347473) can0 182#A15D6100
(1716195608.348693) can0 183#0000000000006100
(1716195608.349256) can0 185#1313131314141313
(1716195608.363800) can0 500#000F000001C40000
(1716195608.404026) can0 501#096D000015140000
(1716195608.443937) can0 50A#087D7DFF00000000
(1716195608.463799) can0 502#0000000000000000
(1716195608.504080) can0 501#096D000015140000
(1716195608.543867) can0 50A#087D7DFF00000000
(1716195608.547466) can0 460#0003A852FFFFFFE7
(1716195608.548473) can0 462#00130014610018
(1716195608.549321) can0 463#00000019
(1716195608.550680) can0 461#06000000
(1716195608.551853) can0 464#080000000000AE41
(1716195608.552572) can0 466#0042070200000000
(1716195608.553143) can0 468#0303
(1716195608.564075) can0 503#0000000000000000
(1716195608.602514) can0 186#1415
(1716195608.604060) can0 501#096D000015140000
(1716195608.644022) can0 50A#087D7DFF00000000
(1716195608.663749) can0 505#095CFFFE13146100
(1716195608.697319) can0 182#A15D6100
(1716195608.698837) can0 183#0000000000006100
(1716195608.699682) can0 185#1313131314141313
(1716195608.704089) can0 501#096D000015140000
(1716195608.743981) can0 50A#087D7DFF00000000
(1716195608.763769) can0 50C#281A000000000100
(1716195608.764286) can0 506#0000020000EA5F00
(1716195608.803999) can0 501#096D000015140000
(1716195608.843778) can0 50A#087D7DFF00000000
(1716195608.847798) can0 460#0003A851FFFFFFE0
(1716195608.848413) can0 462#00130014610018
(1716195608.849333) can0 463#00000020
(1716195608.850340) can0 461#07000000
(1716195608.851484) can0 464#080000000000AE41
(1716195608.852484) can0 466#0042070200000000
(1716195608.853291) can0 468#0303
(1716195608.863997) can0 50D#0000007800000000
(1716195608.904077) can0 501#096D000015140000
(1716195608.944071) can0 50A#087D7DFF00000000
(1716195608.952629) can0 186#1415
(1716195608.964083) can0 50F#0000000000000000
(1716195609.003996) can0 501#096D000015140000
(1716195609.043775) can0 50A#087D7DFF00000000
(1716195609.047519) can0 182#A15D6100
(1716195609.048861) can0 183#0000000000006100
(1716195609.049547) can0 185#1313131314141313
(1716195609.104065) can0 501#096D000015140000
(1716195609.143742) can0 50A#087D7DFF00000000
(1716195609.148013) can0 460#0003A851FFFFFFE0
(1716195609.148569) can0 462#00130014610019
(1716195609.149515) can0 463#00000020
(1716195609.150846) can0 461#08000000
(1716195609.152003) can0 464#080000000000AE41
(1716195609.153150) can0 466#0042070200000000
(1716195609.153367) can0 468#0303
(1716195609.204070) can0 501#096D000015140000
(1716195609.243778) can0 50A#087D7DFF00000000
(1716195609.247529) can0 46A#019000DC
(1716195609.248991) can0 776#006409D8000001E0
(1716195609.263760) can0 50C#281A000000000100
(1716195609.302462) can0 186#1415
(1716195609.303746) can0 501#096D000015140000
(1716195609.343784) can0 50A#087D7DFF00000000
(1716195609.363742) can0 500#000F000001C40000
(1716195609.397570) can0 182#A15D6100
(1716195609.398693) can0 183#0000000000006100
(1716195609.399658) can0 185#1313131314141313
(1716195609.404160) can0 501#096D000015140000
(1716195609.443785) can0 50A#087D7DFF00000000
(1716195609.448069) can0 460#0003A851FFFFFFE7
(1716195609.448644) can0 462#00130014610018
(1716195609.449543) can0 463#00000019
(1716195609.450541) can0 461#09000000
(1716195609.451683) can0 464#080000000000AE41
(1716195609.452707) can0 466#0042070200000000
(1716195609.453481) can0 468#0303
(1716195609.464005) can0 502#0000000000000000
(1716195609.504070) can0 501#096D000015140000
(1716195609.544108) can0 50A#087D7DFF00000000
(1716195609.564082) can0 503#0000000000000000
(1716195609.603993) can0 501#096D000015140000
(1716195609.643780) can0 50A#087D7DFF00000000
(1716195609.652889) can0 186#1415
(1716195609.663754) can0 505#095CFFFE13146100
(1716195609.703995) can0 501#096D000015140000
(1716195609.743830) can0 50A#087D7DFF00000000
(1716195609.748135) can0 460#0003A84EFFFFFFE7
