  can0  501   [8]  0A 8B 00 89 19 17 02 34
  can0  50A   [8]  1D 7E 7E FF 00 00 00 00
  can0  50F   [8]  00 00 00 00 00 00 00 00
  can0  501   [8]  0A 8C 00 5C 19 17 02 F3
  can0  50A   [8]  1D 7E 7E FF 00 00 00 00
  can0  501   [8]  0A 8D 00 45 1A 17 03 B3
  can0  50A   [8]  1D 7E 7E FF 00 00 00 00
  can0  501   [8]  0A 8D 00 39 1A 17 04 76
  can0  50A   [8]  1D 7E 7E FF 00 00 00 00
  can0  50C   [8]  46 1A 00 00 00 00 01 00
  can0  501   [8]  0A 8E 00 3D 1A 17 05 37
  can0  50A   [8]  1D 7E 7E FF 00 00 00 00
  can0  500   [8]  00 0F 00 00 01 C4 00 00
  can0  501   [8]  0A 8D 00 3A 1A 17 05 F9
  can0  50A   [8]  1D 7E 7E FF 00 00 00 00
  can0  502   [8]  40 00 00 00 00 00 00 00
  can0  501   [8]  0A 8E 00 3B 1A 17 06 AD
  can0  50A   [8]  1D 7E 7E FF 00 00 00 00
  can0  503   [8]  01 F8 B6 06 71 00 00 00
  can0  351   [8]  7C 0B 96 00 A4 06 D8 09
  can0  355   [8]  60 00 64 00 FF FF 59 00
  can0  501   [8]  0A 8D 00 42 1A 17 07 22
  can0  356   [8]  2E 0B 00 00 00 00 00 00
  can0  358   [8]  01 10 02 0A F4 0F 01 01
  can0  359   [8]  15 00 01 02 14 00 01 01
  can0  35B   [8]  01 01 00 00 00 00 00 00
  can0  35C   [8]  04 00 2A 00 FB FF 18 00
  can0  3D2   [8]  11 00 00 00 00 00 19 00
  can0  35A   [8]  00 00 00 00 00 00 00 00
  can0  50A   [8]  1D 7E 7E FF 00 00 00 00
  can0  505   [8]  0B 2E 00 00 15 15 60 00
  can0  501   [8]  0A 8E 00 3B 1A 17 07 63
  can0  50A   [8]  1D 7E 7E FF 00 00 00 00
  can0  50C   [8]  46 1A 00 00 00 00 01 00
  can0  506   [8]  00 00 01 00 00 FF FF 00
  can0  501   [8]  0A 8D 00 3A 1A 17 07 81
  can0  50A   [8]  1D 7E 7E FF 00 00 00 00
  can0  50D   [8]  00 00 00 79 00 00 00 20
  can0  501   [8]  0A 8D 00 34 19 17 07 8C
  can0  50A   [8]  1D 7E 7E FF 00 00 00 00
  can0  50F   [8]  00 00 00 00 00 00 00 00
  can0  501   [8]  0A 8D 00 3D 19 17 07 8E
  can0  50A   [8]  1D 7E 7E FF 00 00 00 00
  can0  501   [8]  0A 8D 00 42 19 17 07 90
  can0  50A   [8]  1D 7E 7E FF 00 00 00 00
  can0  501   [8]  0A 8E 00 37 19 17 07 90
  can0  50A   [8]  1D 7E 7E FF 00 00 00 00
  can0  50C   [8]  46 1A 00 00 00 00 01 00
  can0  501   [8]  0A 8D 00 3D 19 17 07 91
  can0  50A   [8]  1D 7E 7E FF 00 00 00 00
  can0  500   [8]  00 0F 00 00 01 C4 00 00
  can0  501   [8]  0A 8D 00 37 19 17 07 90
  can0  50A   [8]  1E 7E 7E FF 00 00 00 00
  can0  502   [8]  40 00 00 00 00 00 00 00
  can0  501   [8]  0A 8D 00 4C 19 17 07 94
  can0  50A   [8]  21 7E 7E FF 00 00 00 00
  can0  503   [8]  01 F7 AC 06 71 00 00 00
  can0  351   [8]  7C 0B 96 00 A4 06 D8 09
  can0  355   [8]  60 00 64 00 F5 EA 59 00
  can0  356   [8]  2F 0B 31 00 00 00 00 00
  can0  358   [8]  03 10 02 0A F5 0F 05 08
  can0  359   [8]  15 00 01 01 13 00 03 03
  can0  35B   [8]  01 01 00 00 00 00 00 00
  can0  501   [8]  0A 8B 00 A1 19 17 07 A9
  can0  35C   [8]  04 00 2A 00 FB FF 18 00
  can0  3D2   [8]  11 00 00 00 00 00 19 00
  can0  35A   [8]  00 00 00 00 00 00 00 00
  can0  50A   [8]  25 7E 7E FF 00 00 00 00
  can0  505   [8]  0B 2F FF CF 15 15 60 00
  can0  501   [8]  0A 87 01 42 19 17 07 CD
  can0  50A   [8]  28 7E 7E FF 00 00 00 00
  can0  50C   [8]  46 1A 00 00 00 00 01 00
  can0  506   [8]  00 00 01 00 0E EA F5 00
  can0  501   [8]  0A 7D 02 C6 19 17 07 FF
  can0  50A   [8]  2A 7E 7E FF 00 00 00 00
  can0  50D   [8]  00 00 00 79 00 00 00 20
  can0  501   [8]  0A 6F 04 8D 19 17 08 3A
  can0  50A   [8]  2A 7E 7E FF 00 00 00 00
  can0  50F   [8]  00 00 00 00 00 00 00 00
  can0  501   [8]  0A 64 05 EB 19 17 08 72
  can0  50A   [8]  2C 7E 7E FF 00 00 00 00
  can0  501   [8]  0A 5D 06 B8 1A 17 08 A4
  can0  50A   [8]  2C 7E 7E FF 00 00 00 00
  can0  501   [8]  0A 5B 06 D2 1A 17 08 C4
  can0  50A   [8]  2D 7E 7E FF 00 00 00 00
  can0  50C   [8]  46 1A 00 00 00 00 01 00
  can0  501   [8]  0A 5C 06 93 1A 17 08 D7
  can0  50A   [8]  2D 7E 7E FF 00 00 00 00
  can0  500   [8]  00 0F 00 00 01 C4 00 00
  can0  501   [8]  0A 5D 06 81 1A 17 08 DF
  can0  50A   [8]  2C 7E 7E FF 00 00 00 00
  can0  502   [8]  40 00 00 00 00 00 00 00
  can0  501   [8]  0A 60 06 85 1B 17 08 D2
  can0  50A   [8]  2C 7E 7E FF 00 00 00 00
  can0  503   [8]  01 F5 04 06 71 00 00 00
  can0  351   [8]  7C 0B 96 00 A4 06 D8 09
  can0  355   [8]  60 00 64 00 1A 4E 59 00
  can0  356   [8]  1D 0B CA 01 00 00 00 00
  can0  358   [8]  E9 0F 02 0F D9 0F 01 0D
  can0  359   [8]  16 00 02 02 14 00 02 01
  can0  501   [8]  0A 61 06 AB 1B 17 08 A9
  can0  35B   [8]  01 01 00 00 00 00 00 00
  can0  35C   [8]  04 00 2A 00 FB FF 18 00
  can0  3D2   [8]  11 00 00 00 00 00 19 00
  can0  35A   [8]  00 00 00 00 00 00 00 00
  can0  50A   [8]  2C 7E 7E FF 00 00 00 00
  can0  505   [8]  0B 1D FE 36 16 16 60 00
  can0  501   [8]  0A 62 06 88 1B 17 08 64
  can0  50A   [8]  2C 7E 7E FF 00 00 00 00
  can0  50C   [8]  46 1A 00 00 00 00 01 00
  can0  506   [8]  00 00 01 00 82 4E 1A 00
  can0  501   [8]  0A 67 06 67 1C 18 08 0A
  can0  50A   [8]  2D 7E 7E FF 00 00 00 00
  can0  50D   [8]  00 00 00 79 00 00 00 20
  can0  501   [8]  0A 65 06 8A 1C 17 07 98
  can0  50A   [8]  2E 7E 7E FF 00 00 00 00
  can0  50F   [8]  00 00 00 00 00 00 00 00
  can0  501   [8]  0A 67 06 85 1D 17 07 24
  can0  50A   [8]  32 7E 7E FF 00 00 00 00
  can0  501   [8]  0A 67 06 A6 1D 17 06 AA
  can0  50A   [8]  39 7E 7E FF 00 00 00 00
  can0  501   [8]  0A 68 06 81 1D 17 06 3C
  can0  50A   [8]  43 7E 7E FF 00 00 00 00
  can0  50C   [8]  46 1A 00 00 00 00 01 00
  can0  501   [8]  0A 68 06 82 1E 17 05 D4
  can0  50A   [8]  50 7E 7E FF 00 00 00 00
  can0  500   [8]  00 0F 00 00 01 C4 00 00
  can0  501   [8]  0A 69 06 8B 1E 17 05 74
  can0  50A   [8]  59 7E 7E FF 00 00 00 00
  can0  502   [8]  40 00 00 00 00 00 00 00
  can0  501   [8]  0A 6A 06 A0 1E 17 05 1D
  can0  50A   [8]  5E 7E 7E FF 00 00 00 00
  can0  503   [8]  01 E8 A8 06 71 00 00 00
  can0  351   [8]  7C 0B 96 00 A4 06 D8 09
  can0  355   [8]  60 00 64 00 28 05 59 00
  can0  356   [8]  0B 0B 2D 01 00 00 00 00
  can0  501   [8]  0A 6A 06 79 1F 17 04 D0
  can0  358   [8]  D1 0F 01 0E C2 0F 05 02
  can0  359   [8]  15 00 01 02 14 00 01 01
  can0  35B   [8]  01 01 00 00 00 00 00 00
  can0  35C   [8]  04 00 2A 00 FB FF 18 00
  can0  3D2   [8]  11 00 00 00 00 00 19 00
  can0  35A   [8]  00 00 00 00 00 00 00 00
  can0  50A   [8]  62 7E 7E FF 00 00 00 00
  can0  505   [8]  0B 0B FE D3 15 15 60 00
  can0  501   [8]  0A 69 06 72 1F 17 04 8B
  can0  50A   [8]  64 7E 7E FF 00 00 00 00
  can0  50C   [8]  46 1A 00 00 00 00 01 00
  can0  506   [8]  00 00 01 00 55 05 28 00
  can0  501   [8]  0A 6A 06 88 1F 17 04 49
  can0  50A   [8]  64 7E 7E FF 00 00 00 00
  can0  50D   [8]  00 00 00 79 00 00 00 20
  can0  501   [8]  0A 6A 06 7A 1F 17 04 13
  can0  50A   [8]  64 7E 7E FF 00 00 00 00
  can0  50F   [8]  00 00 00 00 00 00 00 00
  can0  501   [8]  0A 6A 06 78 20 17 03 E1
  can0  50A   [8]  64 7E 7E FF 00 00 00 00
  can0  501   [8]  0A 6A 06 7A 20 17 03 B6
  can0  50A   [8]  64 7E 7E FF 00 00 00 00
  can0  501   [8]  0A 6A 06 81 20 17 03 8E
  can0  50A   [8]  64 7E 7E FF 00 00 00 00
  can0  50C   [8]  46 1A 00 00 00 00 01 00
  can0  501   [8]  0A 6A 06 8D 20 17 03 6C
  can0  50A   [8]  64 7E 7E FF 00 00 00 00
  can0  500   [8]  00 0F 00 00 01 C4 00 00
  can0  501   [8]  0A 6A 06 70 20 17 03 4C
  can0  50A   [8]  64 7E 7E FF 00 00 00 00
  can0  502   [8]  40 00 00 00 00 00 00 00
  can0  501   [8]  0A 6A 06 74 21 17 03 32
  can0  50A   [8]  64 7E 7E FF 00 00 00 00
  can0  503   [8]  01 E7 96 06 71 00 00 00
  can0  501   [8]  0A 6A 06 7E 21 17 03 18
  can0  50A   [8]  64 7E 7E FF 00 00 00 00
  can0  505   [8]  0B 0B FE D3 15 15 60 00
  can0  351   [8]  7C 0B 96 00 A4 06 D8 09
  can0  355   [8]  60 00 64 00 33 7A 59 00
  can0  356   [8]  15 0B EA 00 00 00 00 00
  can0  358   [8]  DD 0F 02 0A D0 0F 05 08
  can0  359   [8]  16 00 02 02 14 00 01 01
  can0  35B   [8]  01 01 00 00 00 00 00 00
  can0  35C   [8]  04 00 2A 00 FB FF 18 00
  can0  3D2   [8]  11 00 00 00 00 00 19 00
  can0  35A   [8]  00 00 00 00 00 00 00 00
  can0  501   [8]  0A 6A 06 76 21 17 03 01
  can0  50A   [8]  64 7E 7E FF 00 00 00 00
  can0  50C   [8]  46 1A 00 00 00 00 01 00
  can0  506   [8]  00 00 01 00 42 7A 33 00
  can0  501   [8]  0A 69 06 7A 21 17 02 ED
  can0  50A   [8]  64 7E 7E FF 00 00 00 00
  can0  50D   [8]  00 00 00 79 00 00 00 20
  can0  501   [8]  0A 6A 06 79 21 17 02 D9
  can0  50A   [8]  64 7E 7E FF 00 00 00 00
  can0  50F   [8]  00 00 00 00 00 00 00 00
  can0  501   [8]  0A 6A 06 79 22 17 02 C7
  can0  50A   [8]  64 7E 7E FF 00 00 00 00
  can0  501   [8]  0A 6A 06 75 22 17 02 B7
  can0  50A   [8]  64 7E 7E FF 00 00 00 00
  can0  501   [8]  0A 69 06 6C 22 17 02 A9
  can0  50A   [8]  64 7E 7E FF 00 00 00 00
  can0  50C   [8]  46 1A 00 00 00 00 01 00
  can0  501   [8]  0A 6A 06 74 22 17 02 9C
  can0  50A   [8]  64 7E 7E FF 00 00 00 00
  can0  500   [8]  00 0F 00 00 01 C4 00 00
  can0  501   [8]  0A 6A 06 77 22 17 02 90
  can0  50A   [8]  64 7E 7E FF 00 00 00 00
  can0  502   [8]  40 00 00 00 00 00 00 00
  can0  501   [8]  0A 6A 06 7E 22 17 02 84
  can0  50A   [8]  64 7E 7E FF 00 00 00 00
  can0  503   [8]  01 E7 96 06 71 00 00 00
  can0  501   [8]  0A 6A 06 76 23 17 02 7A
  can0  50A   [8]  64 7E 7E FF 00 00 00 00
  can0  505   [8]  0B 15 FF 16 16 16 60 00
  can0  501   [8]  0A 6A 06 75 23 17 02 71
  can0  50A   [8]  64 7E 7E FF 00 00 00 00
  can0  351   [8]  7C 0B 96 00 A4 06 D8 09
  can0  506   [8]  00 00 01 00 42 7A 33 00
  can0  50C   [8]  46 1A 00 00 00 00 01 00
  can0  355   [8]  60 00 64 00 39 5B 59 00
  can0  356   [8]  18 0B D2 00 00 00 00 00
  can0  358   [8]  E1 0F 02 0A D5 0F 05 02
  can0  359   [8]  16 00 02 02 14 00 01 01
  can0  35B   [8]  01 01 00 00 00 00 00 00
  can0  35C   [8]  04 00 2A 00 FB FF 18 00
  can0  3D2   [8]  11 00 00 00 00 00 19 00
  can0  35A   [8]  00 00 00 00 00 00 00 00
  can0  501   [8]  0A 6A 06 6F 23 17 02 68
  can0  50A   [8]  64 7E 7E FF 00 00 00 00
  can0  50D   [8]  00 00 00 79 00 00 00 20
  can0  501   [8]  0A 69 06 6F 23 17 02 60
  can0  50A   [8]  64 7E 7E FF 00 00 00 00
  can0  50F   [8]  00 00 00 00 00 00 00 00
  can0  501   [8]  0A 6A 06 75 23 17 02 5A
  can0  50A   [8]  64 7E 7E FF 00 00 00 00
  can0  501   [8]  0A 69 06 6E 23 17 02 52
  can0  50A   [8]  64 7E 7E FF 00 00 00 00
  can0  501   [8]  0A 69 06 72 23 17 02 4C
  can0  50A   [8]  64 7E 7E FF 00 00 00 00
  can0  50C   [8]  46 1A 00 00 00 00 01 00
  can0  501   [8]  0A 6A 06 73 23 17 02 46
  can0  50A   [8]  64 7E 7E FF 00 00 00 00
  can0  500   [8]  00 0F 00 00 01 C4 00 00
  can0  501   [8]  0A 6A 06 71 24 17 02 41
  can0  50A   [8]  64 7E 7E FF 00 00 00 00
  can0  502   [8]  40 00 00 00 00 00 00 00
  can0  501   [8]  0A 6A 06 6C 24 18 02 42
  can0  50A   [8]  64 7E 7E FF 00 00 00 00
  can0  503   [8]  01 E7 96 06 71 00 00 00
  can0  501   [8]  0A 69 06 78 24 17 02 44
  can0  50A   [8]  64 7E 7E FF 00 00 00 00
  can0  505   [8]  0B 18 FF 2E 16 16 60 00
  can0  351   [8]  7C 0B 96 00 A4 06 D8 09
  can0  501   [8]  0A 69 06 7C 24 17 02 48
  can0  355   [8]  60 00 64 00 38 8B 59 00
  can0  356   [8]  18 0B D5 00 00 00 00 00
  can0  358   [8]  E1 0F 02 0A D5 0F 05 02
  can0  359   [8]  16 00 02 02 14 00 01 01
  can0  35B   [8]  01 01 00 00 00 00 00 00
  can0  35C   [8]  04 00 2A 00 FB FF 18 00
  can0  3D2   [8]  11 00 00 00 00 00 19 00
  can0  35A   [8]  00 00 00 00 00 00 00 00
  can0  50A   [8]  64 7E 7E FF 00 00 00 00
  can0  50C   [8]  46 1A 00 00 00 00 01 00
  can0  506   [8]  00 00 01 00 3C 8B 38 00
  can0  501   [8]  0A 69 06 72 24 17 02 4F
  can0  50A   [8]  64 7E 7E FF 00 00 00 00
  can0  50D   [8]  00 00 00 79 00 00 00 20
  can0  501   [8]  0A 69 06 64 24 17 02 5E
  can0  50A   [8]  64 7E 7E FF 00 00 00 00
  can0  50F   [8]  00 00 00 00 00 00 00 00
  can0  501   [8]  0A 69 06 64 24 17 02 73
  can0  50A   [8]  64 7E 7E FF 00 00 00 00
  can0  501   [8]  0A 69 06 56 24 17 02 95
  can0  50A   [8]  64 7E 7E FF 00 00 00 00
  can0  501   [8]  0A 6B 06 48 25 17 02 C1
  can0  50A   [8]  64 7E 7E FF 00 00 00 00
  can0  50C   [8]  46 1A 00 00 00 00 01 00
  can0  501   [8]  0A 68 06 6B 25 18 02 F7
  can0  50A   [8]  64 7E 7E FF 00 00 00 00
  can0  500   [8]  00 0F 00 00 01 C4 00 00
  can0  501   [8]  0A 67 06 60 25 18 03 33
  can0  50A   [8]  64 7E 7E FF 00 00 00 00
  can0  502   [8]  40 00 00 00 00 00 00 00
  can0  501   [8]  0A 67 06 46 25 18 03 72
  can0  50A   [8]  64 7E 7E FF 00 00 00 00
  can0  503   [8]  01 E7 96 06 71 00 00 00
  can0  501   [8]  0A 65 06 55 25 18 03 B6
  can0  50A   [8]  64 7E 7E FF 00 00 00 00
  can0  505   [8]  0B 18 FF 2B 16 16 60 00
  can0  351   [8]  7C 0B 96 00 A4 06 D8 09
  can0  355   [8]  60 00 64 00 21 15 59 00
  can0  356   [8]  1A 0B 6C 01 00 00 00 00
  can0  358   [8]  E3 0F 02 0A D8 0F 05 02
  can0  359   [8]  16 00 02 02 13 00 06 03
  can0  501   [8]  0A 64 06 68 25 18 03 FF
  can0  35B   [8]  01 01 00 00 00 00 00 00
  can0  35C   [8]  04 00 2A 00 FB FF 18 00
  can0  3D2   [8]  11 00 00 00 00 00 19 00
  can0  35A   [8]  00 00 00 00 00 00 00 00
  can0  50A   [8]  64 7E 7E FF 00 00 00 00
  can0  50C   [8]  46 1A 00 00 00 00 01 00
  can0  506   [8]  00 00 01 00 67 15 21 00
  can0  501   [8]  0A 63 06 46 25 18 04 4F
  can0  50A   [8]  64 7E 7E FF 00 00 00 00
  can0  50D   [8]  00 00 00 79 00 00 00 20
  can0  501   [8]  0A 60 06 36 25 18 04 A9
  can0  50A   [8]  64 7E 7E FF 00 00 00 00
  can0  50F   [8]  00 00 00 00 00 00 00 00
  can0  501   [8]  0A 5E 06 55 25 18 05 08
  can0  50A   [8]  64 7E 7E FF 00 00 00 00
  can0  501   [8]  0A 5C 06 51 25 18 05 64
  can0  50A   [8]  64 7E 7E FF 00 00 00 00
  can0  501   [8]  0A 5A 06 70 26 18 05 BE
  can0  50A   [8]  64 7E 7E FF 00 00 00 00
  can0  50C   [8]  46 1A 00 00 00 00 01 00
  can0  501   [8]  0A 58 06 4D 26 18 06 15
  can0  50A   [8]  64 7E 7E FF 00 00 00 00
  can0  500   [8]  00 0F 00 00 01 C4 00 00
  can0  501   [8]  0A 57 06 29 26 18 06 75
  can0  50A   [8]  64 7E 7E FF 00 00 00 00
  can0  502   [8]  40 00 00 00 00 00 00 00
  can0  501   [8]  0A 55 06 73 26 18 06 DF
  can0  50A   [8]  64 7E 7E FF 00 00 00 00
  can0  503   [8]  01 E7 96 06 71 00 00 00
  can0  501   [8]  0A 53 06 61 26 18 07 55
  can0  50A   [8]  64 7E 7E FF 00 00 00 00
  can0  505   [8]  0B 1A FE 94 16 16 60 00
  can0  351   [8]  7C 0B 96 00 A4 06 D8 09
  can0  355   [8]  60 00 64 00 12 69 59 00
  can0  356   [8]  0D 0B 8E 02 00 00 00 00
  can0  358   [8]  E1 0F 01 0E C2 0F 03 0C
  can0  359   [8]  15 00 01 01 14 00 01 02
  can0  35B   [8]  01 01 00 00 00 00 00 00
  can0  35C   [8]  04 00 2A 00 FB FF 18 00
  can0  3D2   [8]  11 00 00 00 00 00 19 00
  can0  35A   [8]  00 00 00 00 00 00 00 00
  can0  501   [8]  0A 50 06 5B 26 18 07 DD
  can0  50A   [8]  64 7E 7E FF 00 00 00 00
  can0  50C   [8]  46 1A 00 00 00 00 01 00
  can0  506   [8]  00 00 01 00 B9 69 12 00
  can0  501   [8]  0A 4F 06 72 26 18 08 66
  can0  50A   [8]  64 7E 7E FF 00 00 00 00
  can0  50D   [8]  00 00 00 79 00 00 00 20
  can0  501   [8]  0A 4C 06 74 26 18 08 E7
  can0  50A   [8]  64 7E 7E FF 00 00 00 00
  can0  50F   [8]  00 00 00 00 00 00 00 00
  can0  501   [8]  0A 47 06 12 26 18 09 60
  can0  50A   [8]  64 7E 7E FF 00 00 00 00
  can0  501   [8]  0A 49 06 64 26 18 09 DF
  can0  50A   [8]  64 7E 7E FF 00 00 00 00
  can0  501   [8]  0A 4A 06 6F 26 18 0A 5E
  can0  50A   [8]  64 7E 7E FF 00 00 00 00
  can0  50C   [8]  46 1A 00 00 00 00 01 00
  can0  501   [8]  0A 48 06 7D 27 18 0A D6
  can0  50A   [8]  64 7E 7E FF 00 00 00 00
  can0  500   [8]  00 0F 00 00 01 C4 00 00
  can0  501   [8]  0A 48 06 8A 27 18 0B 45
  can0  50A   [8]  64 7E 7E FF 00 00 00 00
  can0  502   [8]  40 00 00 00 00 00 00 00
  can0  501   [8]  0A 48 06 A8 27 18 0B A6
  can0  50A   [8]  64 7E 7E FF 00 00 00 00
  can0  503   [8]  01 E7 96 06 71 00 00 00
  can0  501   [8]  0A 46 06 7A 27 18 0B F9
  can0  50A   [8]  64 7E 7E FF 00 00 00 00
  can0  505   [8]  0B 0D FD 72 15 15 60 00
  can0  351   [8]  7C 0B 96 00 A4 06 D8 09
  can0  355   [8]  60 00 64 00 0E B2 59 00
  can0  356   [8]  F0 0A 33 03 00 00 00 00
  can0  358   [8]  AE 0F 01 0E 98 0F 05 08
  can0  359   [8]  15 00 01 01 14 00 01 03
  can0  35B   [8]  01 01 00 00 00 00 00 00
  can0  35C   [8]  04 00 2A 00 FC FF 17 00
  can0  501   [8]  0A 46 06 81 27 18 0C 34
  can0  3D2   [8]  11 00 00 00 00 00 19 00
  can0  35A   [8]  00 00 00 00 00 00 00 00
  can0  50A   [8]  64 7E 7E FF 00 00 00 00
  can0  50C   [8]  46 1A 00 00 00 00 01 00
  can0  506   [8]  00 00 01 00 E5 B2 0E 00
  can0  501   [8]  0A 45 06 5F 27 18 0C 67
  can0  50A   [8]  64 7E 7E FF 00 00 00 00
  can0  50D   [8]  00 00 00 79 00 00 00 20
  can0  501   [8]  0A 45 06 86 27 18 0C 94
  can0  50A   [8]  64 7E 7E FF 00 00 00 00
  can0  50F   [8]  00 00 00 00 00 00 00 00
  can0  501   [8]  0A 44 06 77 27 18 0C C0
  can0  50A   [8]  64 7E 7E FF 00 00 00 00
  can0  501   [8]  0A 43 06 65 27 18 0C DD
  can0  50A   [8]  64 7E 7E FF 00 00 00 00
  can0  501   [8]  0A 43 06 9C 27 18 0C F1
  can0  50A   [8]  64 7E 7E FF 00 00 00 00
  can0  50C   [8]  46 1A 00 00 00 00 01 00
  can0  501   [8]  0A 44 06 A1 27 18 0D 08
  can0  50A   [8]  64 7E 7E FF 00 00 00 00
  can0  500   [8]  00 0F 00 00 01 C4 00 00
  can0  501   [8]  0A 42 06 75 28 18 0D 1C
  can0  50A   [8]  64 7E 7E FF 00 00 00 00
  can0  502   [8]  40 00 00 00 00 00 00 00
  can0  501   [8]  0A 41 06 80 28 18 0D 29
  can0  50A   [8]  64 7E 7E FF 00 00 00 00
  can0  503   [8]  01 E7 96 06 71 00 00 00
  can0  501   [8]  0A 41 06 73 28 18 0D 34
  can0  50A   [8]  64 7E 7E FF 00 00 00 00
  can0  505   [8]  0A F0 FC CD 15 15 60 00
  can0  351   [8]  7C 0B 96 00 A4 06 D8 09
  can0  501   [8]  0A 41 06 67 28 18 0D 41
  can0  355   [8]  60 00 64 00 0E 65 59 00
  can0  356   [8]  E1 0A 44 03 00 00 00 00
  can0  358   [8]  9E 0F 04 0B 83 0F 05 08
  can0  359   [8]  15 00 01 01 14 00 01 02
  can0  35B   [8]  01 01 00 00 00 00 00 00
  can0  35C   [8]  04 00 2A 00 FC FF 17 00
  can0  3D2   [8]  11 00 00 00 00 00 19 00
  can0  35A   [8]  00 00 00 00 00 00 00 00
  can0  50A   [8]  64 7E 7E FF 00 00 00 00
  can0  50C   [8]  46 1A 00 00 00 00 01 00
  can0  506   [8]  00 00 01 00 E8 65 0E 00
  can0  501   [8]  0A 41 06 7E 28 18 0D 4C
  can0  50A   [8]  64 7E 7E FF 00 00 00 00
  can0  50D   [8]  00 00 00 79 00 00 00 20
  can0  501   [8]  0A 40 06 67 28 18 0D 55
  can0  50A   [8]  64 7E 7E FF 00 00 00 00
  can0  50F   [8]  00 00 00 00 00 00 00 00
  can0  501   [8]  0A 40 06 6A 28 18 0D 5B
  can0  50A   [8]  64 7E 7E FF 00 00 00 00
  can0  501   [8]  0A 3F 06 62 28 19 0D 62
  can0  50A   [8]  64 7E 7E FF 00 00 00 00
  can0  501   [8]  0A 3F 06 6D 28 19 0D 68
  can0  50A   [8]  64 7E 7E FF 00 00 00 00
  can0  50C   [8]  46 1A 00 00 00 00 01 00
  can0  501   [8]  0A 40 06 79 28 19 0D 6F
  can0  50A   [8]  64 7E 7E FF 00 00 00 00
  can0  500   [8]  00 0F 00 00 01 C4 00 00
  can0  501   [8]  0A 3E 06 75 28 19 0D 72
  can0  50A   [8]  64 7E 7E FF 00 00 00 00
  can0  502   [8]  40 00 00 00 00 00 00 00
  can0  501   [8]  0A 3E 06 89 28 19 0D 77
  can0  50A   [8]  64 7E 7E FF 00 00 00 00
  can0  503   [8]  01 E7 96 06 71 00 00 00
  can0  501   [8]  0A 3F 06 63 29 19 0D 7A
  can0  50A   [8]  64 7E 7E FF 00 00 00 00
  can0  505   [8]  0A E1 FC BC 15 15 60 00
  can0  351   [8]  7C 0B 96 00 A4 06 D8 09
  can0  355   [8]  60 00 64 00 0E 38 59 00
  can0  356   [8]  DC 0A 4E 03 00 00 00 00
  can0  358   [8]  94 0F 02 0D 7B 0F 03 0A
  can0  359   [8]  15 00 01 01 13 00 06 03
  can0  501   [8]  0A 3D 06 8C 29 19 0D 79
  can0  35B   [8]  01 01 00 00 00 00 00 00
  can0  35C   [8]  04 00 2A 00 FC FF 17 00
  can0  3D2   [8]  11 00 00 00 00 00 19 00
  can0  35A   [8]  00 00 00 00 00 00 00 00
  can0  50A   [8]  64 7E 7E FF 00 00 00 00
  can0  50C   [8]  46 1A 00 00 00 00 01 00
  can0  506   [8]  00 00 01 00 EB 38 0E 00
  can0  501   [8]  0A 3F 06 1B 29 19 0D 83
  can0  50A   [8]  64 7E 7E FF 00 00 00 00
  can0  50D   [8]  00 00 00 79 00 00 00 20
  can0  501   [8]  0A 40 06 80 29 19 0D 9A
  can0  50A   [8]  64 7E 7E FF 00 00 00 00
  can0  50F   [8]  00 00 00 00 00 00 00 00
  can0  501   [8]  0A 40 06 36 29 19 0D B9
  can0  50A   [8]  64 7E 7E FF 00 00 00 00
  can0  501   [8]  0A 40 06 31 29 19 0D DC
  can0  50A   [8]  64 7E 7E FF 00 00 00 00
  can0  501   [8]  0A 40 06 7C 29 19 0E 02
  can0  50A   [8]  64 7E 7E FF 00 00 00 00
  can0  50C   [8]  46 1A 00 00 00 00 01 00
  can0  501   [8]  0A 40 06 6D 29 19 0E 29
  can0  50A   [8]  64 7E 7E FF 00 00 00 00
  can0  500   [8]  00 0F 00 00 01 C4 00 00
  can0  501   [8]  0A 3F 06 75 29 19 0E 54
  can0  50A   [8]  64 7E 7E FF 00 00 00 00
  can0  502   [8]  40 00 00 00 00 00 00 00
  can0  501   [8]  0A 3F 06 7D 29 19 0E 80
  can0  50A   [8]  64 7E 7E FF 00 00 00 00
  can0  503   [8]  01 E7 96 06 71 00 00 00
  can0  501   [8]  0A 3F 06 7C 29 19 0E B0
  can0  50A   [8]  64 7E 7E FF 00 00 00 00
  can0  505   [8]  0A DC FC B2 15 15 60 00
  can0  351   [8]  7C 0B 96 00 A4 06 D8 09
  can0  355   [8]  60 00 64 00 0C C1 59 00
  can0  356   [8]  D8 0A AF 03 00 00 00 00
  can0  358   [8]  90 0F 01 0F 70 0F 03 0C
  can0  359   [8]  16 00 02 02 14 00 01 01
  can0  35B   [8]  01 01 00 00 00 00 00 00
  can0  35C   [8]  04 00 2A 00 FC FF 17 00
  can0  3D2   [8]  11 00 00 00 00 00 19 00
  can0  501   [8]  0A 3F 06 83 29 19 0E E0
  can0  35A   [8]  00 00 00 00 00 00 00 00
  can0  50A   [8]  64 7E 7E FF 00 00 00 00
  can0  50C   [8]  46 1A 00 00 00 00 01 00
  can0  506   [8]  00 00 01 01 05 C1 0C 00
  can0  501   [8]  0A 3D 06 79 29 19 0F 0A
  can0  50A   [8]  64 7E 7E FF 00 00 00 00
  can0  50D   [8]  00 00 00 79 00 00 00 20
  can0  501   [8]  0A 3F 06 7A 2A 19 0F 23
  can0  50A   [8]  64 7E 7E FF 00 00 00 00
  can0  50F   [8]  00 00 00 00 00 00 00 00
  can0  501   [8]  0A 3D 06 6C 2A 19 0F 37
  can0  50A   [8]  64 7E 7E FF 00 00 00 00
  can0  501   [8]  0A 3D 06 72 2A 19 0F 46
  can0  50A   [8]  64 7E 7E FF 00 00 00 00
  can0  501   [8]  0A 3D 06 5C 2A 19 0F 54
  can0  50A   [8]  64 7E 7E FF 00 00 00 00
  can0  50C   [8]  46 1A 00 00 00 00 01 00
  can0  501   [8]  0A 3D 06 7F 2A 19 0F 60
  can0  50A   [8]  64 7E 7E FF 00 00 00 00
  can0  500   [8]  00 0F 00 00 01 C4 00 00
  can0  501   [8]  0A 3D 06 67 2A 19 0F 67
  can0  50A   [8]  64 7E 7E FF 00 00 00 00
  can0  502   [8]  40 00 00 00 00 00 00 00
  can0  501   [8]  0A 3C 06 7C 2A 19 0F 72
  can0  50A   [8]  64 7E 7E FF 00 00 00 00
  can0  503   [8]  01 E7 96 06 71 00 00 00
  can0  501   [8]  0A 3C 06 84 2A 19 0F 76
  can0  50A   [8]  64 7E 7E FF 00 00 00 00
  can0  505   [8]  0A D8 FC 51 16 16 60 00
  can0  351   [8]  7C 0B 96 00 A4 06 D8 09
  can0  355   [8]  60 00 64 00 0C 93 59 00
  can0  501   [8]  0A 3C 06 8A 2A 1A 0F 78
  can0  356   [8]  CD 0A BC 03 00 00 00 00
  can0  358   [8]  81 0F 01 0F 66 0F 04 05
  can0  359   [8]  15 00 02 01 14 00 01 01
  can0  35B   [8]  01 01 00 00 00 00 00 00
  can0  35C   [8]  04 00 2A 00 FC FF 17 00
  can0  3D2   [8]  11 00 00 00 00 00 19 00
  can0  35A   [8]  00 00 00 00 00 00 00 00
  can0  50A   [8]  64 7E 7E FF 00 00 00 00
  can0  50C   [8]  46 1A 00 00 00 00 01 00
  can0  506   [8]  00 00 01 01 08 93 0C 00
  can0  501   [8]  0A 3C 06 70 2A 19 0F 7A
  can0  50A   [8]  64 7E 7E FF 00 00 00 00
  can0  50D   [8]  00 00 00 79 00 00 00 20
  can0  501   [8]  0A 3B 06 78 2A 1A 0F 7D
  can0  50A   [8]  64 7E 7E FF 00 00 00 00
  can0  50F   [8]  00 00 00 00 00 00 00 00
  can0  501   [8]  0A 3B 06 74 2A 1A 0F 82
  can0  50A   [8]  64 7E 7E FF 00 00 00 00
  can0  501   [8]  0A 3B 06 75 2A 1A 0F 82
  can0  50A   [8]  64 7E 7E FF 00 00 00 00
  can0  501   [8]  0A 3B 06 8A 2A 1A 0F 82
  can0  50A   [8]  64 7E 7E FF 00 00 00 00
  can0  50C   [8]  46 1A 00 00 00 00 01 00
  can0  501   [8]  0A 3B 06 66 2A 1A 0F 82
  can0  50A   [8]  64 7E 7E FF 00 00 00 00
  can0  500   [8]  00 0F 00 00 01 C4 00 00
  can0  501   [8]  0A 3A 06 5E 2B 1A 0F 84
  can0  50A   [8]  64 7E 7E FF 00 00 00 00
  can0  502   [8]  40 00 00 00 00 00 00 00
  can0  501   [8]  0A 39 06 82 2B 1A 0F 81
  can0  50A   [8]  64 7E 7E FF 00 00 00 00
  can0  503   [8]  01 E7 96 06 71 00 00 00
  can0  501   [8]  0A 3A 06 72 2B 1A 0F 81
  can0  50A   [8]  64 7E 7E FF 00 00 00 00
  can0  505   [8]  0A CD FC 44 15 15 60 00
  can0  351   [8]  7C 0B 96 00 A4 06 D8 09
  can0  355   [8]  60 00 64 00 0C 8F 59 00
  can0  356   [8]  CB 0A BD 03 00 00 00 00
  can0  358   [8]  81 0F 01 0E 64 0F 01 01
  can0  359   [8]  15 00 01 01 14 00 01 03
  can0  35B   [8]  01 01 00 00 00 00 00 00
  can0  501   [8]  0A 3A 06 69 2B 1A 0F 85
  can0  35C   [8]  04 00 2A 00 FC FF 17 00
  can0  3D2   [8]  11 00 00 00 00 00 19 00
  can0  35A   [8]  00 00 00 00 00 00 00 00
  can0  50A   [8]  64 7E 7E FF 00 00 00 00
  can0  50C   [8]  46 1A 00 00 00 00 01 00
  can0  506   [8]  00 00 01 01 08 8F 0C 00
  can0  501   [8]  0A 3A 06 76 2B 1A 0F 85
  can0  50A   [8]  64 7E 7E FF 00 00 00 00
  can0  50D   [8]  00 00 00 79 00 00 00 20
  can0  501   [8]  0A 3A 06 70 2B 1A 0F 87
  can0  50A   [8]  64 7E 7E FF 00 00 00 00
  can0  50F   [8]  00 00 00 00 00 00 00 00
  can0  501   [8]  0A 39 06 6E 2B 1A 0F 84
  can0  50A   [8]  64 7E 7E FF 00 00 00 00
  can0  501   [8]  0A 39 06 8C 2B 1A 0F 84
  can0  50A   [8]  64 7E 7E FF 00 00 00 00
  can0  501   [8]  0A 38 06 7C 2B 1A 0F 84
  can0  50A   [8]  64 7E 7E FF 00 00 00 00
  can0  50C   [8]  46 1A 00 00 00 00 01 00
  can0  501   [8]  0A 38 06 6E 2B 1A 0F 84
  can0  50A   [8]  64 7E 7E FF 00 00 00 00
  can0  500   [8]  00 0F 00 00 01 C4 00 00
  can0  501   [8]  0A 39 06 7B 2B 1A 0F 84
  can0  50A   [8]  64 7E 7E FF 00 00 00 00
  can0  502   [8]  40 00 00 00 00 00 00 00
  can0  501   [8]  0A 38 06 87 2B 1A 0F 82
  can0  50A   [8]  64 7E 7E FF 00 00 00 00
  can0  503   [8]  01 E7 96 06 71 00 00 00
  can0  501   [8]  0A 38 06 7A 2B 1A 0F 82
  can0  50A   [8]  64 7E 7E FF 00 00 00 00
  can0  505   [8]  0A CB FC 43 15 15 60 00
  can0  501   [8]  0A 38 06 98 2B 1A 0F 82
  can0  351   [8]  7C 0B 96 00 A4 06 D8 09
  can0  355   [8]  60 00 64 00 0C A9 59 00
  can0  356   [8]  C7 0A B5 03 00 00 00 00
  can0  358   [8]  7E 0F 01 0E 4B 0F 03 0C
  can0  359   [8]  16 00 0C 03 13 00 0A 02
  can0  35B   [8]  01 01 00 00 00 00 00 00
  can0  35C   [8]  04 00 2A 00 FC FF 17 00
  can0  3D2   [8]  11 00 00 00 00 00 19 00
  can0  35A   [8]  00 00 00 00 00 00 00 00
  can0  50A   [8]  64 7E 7E FF 00 00 00 00
  can0  50C   [8]  46 1A 00 00 00 00 01 00
  can0  506   [8]  00 00 01 01 05 A9 0C 00
  can0  501   [8]  0A 3D 06 5A 2B 1A 0F 95
  can0  50A   [8]  64 7E 7E FF 00 00 00 00
  can0  50D   [8]  00 00 00 79 00 00 00 20
  can0  501   [8]  0A 3D 06 91 2B 1A 0F AC
  can0  50A   [8]  64 7E 7E FF 00 00 00 00
  can0  50F   [8]  00 00 00 00 00 00 00 00
  can0  501   [8]  0A 3D 06 B7 2B 1A 0F CA
  can0  50A   [8]  64 7E 7E FF 00 00 00 00
  can0  501   [8]  0A 3E 06 63 2C 1B 0F EF
  can0  50A   [8]  64 7E 7E FF 00 00 00 00
  can0  501   [8]  0A 3E 06 76 2C 1B 10 17
  can0  50A   [8]  64 7E 7E FF 00 00 00 00
  can0  50C   [8]  46 1A 00 00 00 00 01 00
  can0  501   [8]  0A 3F 06 6A 2C 1B 10 41
  can0  50A   [8]  64 7E 7E FF 00 00 00 00
  can0  500   [8]  00 0F 00 00 01 C4 00 00
  can0  501   [8]  0A 3E 06 76 2C 1A 10 68
  can0  50A   [8]  64 7E 7E FF 00 00 00 00
  can0  502   [8]  40 00 00 00 00 00 00 00
  can0  501   [8]  0A 3D 06 63 2C 1B 10 96
  can0  50A   [8]  64 7E 7E FF 00 00 00 00
  can0  503   [8]  01 E7 96 06 71 00 00 00
  can0  501   [8]  0A 3E 06 84 2C 1A 10 C6
  can0  50A   [8]  64 7E 7E FF 00 00 00 00
  can0  505   [8]  0A C7 FC 4B 16 16 60 00
  can0  501   [8]  0A 3D 06 77 2C 1B 10 F4
  can0  50A   [8]  64 7E 7E FF 00 00 00 00
  can0  50C   [8]  46 1A 00 00 00 00 01 00
  can0  506   [8]  00 00 01 01 05 A9 0C 00
  can0  351   [8]  7C 0B 96 00 A4 06 D8 09
  can0  355   [8]  5F 00 64 00 0B 47 59 00
  can0  356   [8]  C6 0A 29 04 00 00 00 00
  can0  358   [8]  77 0F 01 0E 59 0F 01 02
  can0  359   [8]  15 00 01 01 14 00 01 02
  can0  35B   [8]  01 00 00 00 00 00 00 00
  can0  35C   [8]  04 00 2A 00 FC FF 17 00
  can0  3D2   [8]  11 00 00 00 00 00 19 00
  can0  35A   [8]  00 00 00 00 80 00 00 00
  can0  501   [8]  0A 3D 06 97 2C 1A 11 0D
  can0  50A   [8]  64 7E 7E FF 00 00 00 00
  can0  50D   [8]  00 00 00 79 00 00 00 20
  can0  501   [8]  0A 3E 06 7A 2C 1B 11 2C
  can0  50A   [8]  64 7E 7E FF 00 00 00 00
  can0  50F   [8]  00 00 00 00 00 00 00 00
  can0  501   [8]  0A 3C 06 72 2C 1B 11 42
  can0  50A   [8]  64 7E 7E FF 00 00 00 00
  can0  501   [8]  0A 3D 06 5D 2C 1B 11 4A
  can0  50A   [8]  64 7E 7E FF 00 00 00 00
  can0  501   [8]  0A 3B 06 C8 2C 1B 11 54
  can0  50A   [8]  64 7E 7E FF 00 00 00 00
  can0  50C   [8]  46 1A 00 00 00 00 01 00
  can0  501   [8]  0A 3E 06 50 2C 1B 11 63
  can0  50A   [8]  64 7E 7E FF 00 00 00 00
  can0  500   [8]  00 0F 00 00 01 C4 00 00
  can0  501   [8]  0A 3B 06 7B 2C 1B 11 74
  can0  50A   [8]  64 7E 7E FF 00 00 00 00
  can0  502   [8]  40 00 00 00 00 00 00 00
  can0  501   [8]  0A 3B 06 43 2C 1C 11 79
  can0  50A   [8]  64 7E 7E FF 00 00 00 00
  can0  503   [8]  01 E7 96 06 71 00 00 00
  can0  501   [8]  0A 3D 06 79 2C 1B 11 77
  can0  50A   [8]  64 7E 7E FF 00 00 00 00
  can0  505   [8]  0A C6 FB D7 15 15 5F 00
  can0  501   [8]  0A 3A 06 B2 2C 1B 11 74
  can0  50A   [8]  64 7E 7E FF 00 00 00 00
  can0  50C   [8]  46 1A 00 00 00 00 01 00
  can0  506   [8]  00 00 01 01 25 47 0B 00
  can0  501   [8]  0A 3E 06 87 2C 1B 11 7E
  can0  50A   [8]  64 7E 7E FF 00 00 00 00
  can0  50D   [8]  00 00 00 79 00 00 00 20
  can0  351   [8]  7C 0B 96 00 A4 06 D8 09
  can0  355   [8]  5F 00 64 00 0B 23 59 00
  can0  356   [8]  BA 0A 36 04 00 00 00 00
  can0  358   [8]  6A 0F 01 0E 46 0F 03 0C
  can0  359   [8]  16 00 02 02 14 00 02 01
  can0  35B   [8]  01 00 00 00 00 00 00 00
  can0  35C   [8]  04 00 2A 00 FC FF 17 00
  can0  3D2   [8]  11 00 00 00 00 00 19 00
  can0  35A   [8]  00 00 00 00 80 00 00 00
  can0  501   [8]  0A 39 06 50 2C 1B 11 7F
  can0  50A   [8]  64 7E 7E FF 00 00 00 00
  can0  50F   [8]  00 00 00 00 00 00 00 00
  can0  501   [8]  0A 3C 06 84 2C 1C 11 84
  can0  50A   [8]  64 7E 7E FF 00 00 00 00
  can0  501   [8]  0A 39 06 84 2D 1C 11 87
  can0  50A   [8]  64 7E 7E FF 00 00 00 00
  can0  501   [8]  0A 3B 06 8B 2D 1C 11 84
  can0  50A   [8]  64 7E 7E FF 00 00 00 00
  can0  50C   [8]  46 1A 00 00 00 00 01 00
  can0  501   [8]  0A 38 06 B8 2D 1B 11 7A
  can0  50A   [8]  64 7E 7E FF 00 00 00 00
  can0  500   [8]  00 0F 00 00 01 C4 00 00
  can0  501   [8]  0A 3C 06 5B 2D 1B 11 7A
  can0  50A   [8]  64 7E 7E FF 00 00 00 00
  can0  502   [8]  40 00 00 00 00 00 00 00
  can0  501   [8]  0A 38 06 71 2D 1C 11 80
  can0  50A   [8]  64 7E 7E FF 00 00 00 00
  can0  503   [8]  01 E7 96 06 71 00 00 00
  can0  501   [8]  0A 3A 06 31 2D 1C 11 88
  can0  50A   [8]  64 7E 7E FF 00 00 00 00
  can0  505   [8]  0A BA FB CA 16 16 5F 00
  can0  501   [8]  0A 3B 06 70 2D 1C 11 86
  can0  50A   [8]  64 7E 7E FF 00 00 00 00
  can0  50C   [8]  46 1A 00 00 00 00 01 00
  can0  506   [8]  00 00 01 01 28 23 0B 00
  can0  501   [8]  0A 39 06 96 2D 1C 11 7D
  can0  50A   [8]  64 7E 7E FF 00 00 00 00
  can0  50D   [8]  00 00 00 79 00 00 00 20
  can0  501   [8]  0A 3D 06 88 2D 1B 11 79
  can0  50A   [8]  64 7E 7E FF 00 00 00 00
  can0  50F   [8]  00 00 00 00 00 00 00 00
  can0  351   [8]  7C 0B 96 00 A4 06 D8 09
  can0  355   [8]  5F 00 64 00 0B 32 59 00
  can0  356   [8]  B6 0A 30 04 00 00 00 00
  can0  358   [8]  6E 0F 01 0E 37 0F 03 0C
  can0  359   [8]  15 00 01 02 14 00 01 01
  can0  35B   [8]  01 00 00 00 00 00 00 00
  can0  35C   [8]  04 00 2A 00 FC FF 17 00
  can0  3D2   [8]  11 00 00 00 00 00 19 00
  can0  35A   [8]  00 00 00 00 80 00 00 00
  can0  501   [8]  0A 38 06 5E 2D 1C 11 7C
  can0  50A   [8]  64 7E 7E FF 00 00 00 00
  can0  501   [8]  0A 3A 06 76 2D 1C 11 85
  can0  50A   [8]  64 7E 7E FF 00 00 00 00
  can0  501   [8]  0A 38 06 6D 2D 1C 11 87
  can0  50A   [8]  64 7E 7E FF 00 00 00 00
  can0  50C   [8]  46 1A 00 00 00 00 01 00
  can0  501   [8]  0A 39 06 7D 2D 1C 11 84
  can0  50A   [8]  64 7E 7E FF 00 00 00 00
  can0  500   [8]  00 0F 00 00 01 C4 00 00
  can0  501   [8]  0A 39 06 96 2D 1B 11 7D
  can0  50A   [8]  64 7E 7E FF 00 00 00 00
  can0  502   [8]  40 00 00 00 00 00 00 00
  can0  501   [8]  0A 38 06 3D 2D 1C 11 7E
  can0  50A   [8]  64 7E 7E FF 00 00 00 00
  can0  503   [8]  01 E7 96 06 71 00 00 00
  can0  501   [8]  0A 39 06 8B 2D 1D 11 82
  can0  50A   [8]  64 7E 7E FF 00 00 00 00
  can0  505   [8]  0A B6 FB D0 15 15 5F 00
  can0  501   [8]  0A 37 06 78 2D 1D 11 86
  can0  50A   [8]  64 7E 7E FF 00 00 00 00
  can0  50C   [8]  46 1A 00 00 00 00 01 00
  can0  506   [8]  00 00 01 01 25 32 0B 00
  can0  501   [8]  0A 3B 06 87 2D 1C 11 84
  can0  50A   [8]  64 7E 7E FF 00 00 00 00
  can0  50D   [8]  00 00 00 79 00 00 00 20
  can0  351   [8]  7C 0B 96 00 A4 06 D8 09
  can0  501   [8]  0A 37 06 A4 2D 1C 11 80
  can0  355   [8]  5F 00 64 00 0B 29 59 00
  can0  356   [8]  B6 0A 33 04 00 00 00 00
  can0  358   [8]  6E 0F 01 0E 37 0F 03 0C
  can0  359   [8]  15 00 01 02 14 00 01 01
  can0  35B   [8]  01 00 00 00 00 00 00 00
  can0  35C   [8]  04 00 2A 00 FC FF 17 00
  can0  3D2   [8]  11 00 00 00 00 00 19 00
  can0  35A   [8]  00 00 00 00 80 00 00 00
  can0  50A   [8]  64 7E 7E FF 00 00 00 00
  can0  50F   [8]  00 00 00 00 00 00 00 00
  can0  501   [8]  0A 39 06 33 2D 1C 11 7E
  can0  50A   [8]  64 7E 7E FF 00 00 00 00
  can0  501   [8]  0A 36 06 74 2D 1D 11 7E
  can0  50A   [8]  64 7E 7E FF 00 00 00 00
  can0  501   [8]  0A 36 06 4B 2E 1D 11 82
  can0  50A   [8]  64 7E 7E FF 00 00 00 00
  can0  50C   [8]  46 1A 00 00 00 00 01 00
  can0  501   [8]  0A 38 06 99 2E 1D 11 81
  can0  50A   [8]  64 7E 7E FF 00 00 00 00
  can0  500   [8]  00 0F 00 00 01 C4 00 00
  can0  501   [8]  0A 35 06 CA 2E 1C 11 7D
  can0  50A   [8]  64 7E 7E FF 00 00 00 00
  can0  502   [8]  40 00 00 00 00 00 00 00
  can0  501   [8]  0A 39 06 62 2E 1C 11 7B
  can0  50A   [8]  64 7E 7E FF 00 00 00 00
  can0  503   [8]  01 E7 96 06 71 00 00 00
  can0  501   [8]  0A 35 06 72 2E 1D 11 7E
  can0  50A   [8]  64 7E 7E FF 00 00 00 00
  can0  505   [8]  0A B6 FB CD 15 15 5F 00
  can0  501   [8]  0A 3E 06 44 2E 1D 11 94
  can0  50A   [8]  64 7E 7E FF 00 00 00 00
  can0  50C   [8]  46 1A 00 00 00 00 01 00
  can0  506   [8]  00 00 01 01 26 29 0B 00
  can0  501   [8]  0A 41 06 7D 2E 1D 11 B8
  can0  50A   [8]  64 7E 7E FF 00 00 00 00
  can0  50D   [8]  00 00 00 79 00 00 00 21
  can0  351   [8]  7C 0B 96 00 A4 06 D8 09
  can0  355   [8]  5F 00 64 00 0A 4E 59 00
  can0  356   [8]  B5 0A 8C 04 00 00 00 00
  can0  358   [8]  6C 0F 01 0E 3E 0F 01 02
  can0  501   [8]  0A 40 06 B0 2E 1D 11 D8
  can0  359   [8]  15 00 01 01 14 00 01 02
  can0  35B   [8]  01 00 00 00 00 00 00 00
  can0  35C   [8]  04 00 2A 00 FC FF 17 00
  can0  3D2   [8]  11 00 00 00 00 00 19 00
  can0  35A   [8]  00 00 00 00 80 00 00 00
  can0  50A   [8]  64 7E 7E FF 00 00 00 00
  can0  50F   [8]  00 00 00 00 00 00 00 00
  can0  501   [8]  0A 3F 06 86 2E 1D 11 FA
  can0  50A   [8]  64 7E 7E FF 00 00 00 00
  can0  501   [8]  0A 3F 06 A0 2E 1D 12 21
  can0  50A   [8]  64 7E 7E FF 00 00 00 00
  can0  501   [8]  0A 3E 06 7A 2E 1D 12 50
  can0  50A   [8]  64 7E 7E FF 00 00 00 00
  can0  50C   [8]  46 1A 00 00 00 00 01 00
  can0  501   [8]  0A 3D 06 7D 2E 1D 12 88
  can0  50A   [8]  64 7E 7E FF 00 00 00 00
  can0  500   [8]  00 0F 00 00 01 C4 00 00
  can0  501   [8]  0A 3D 06 76 2E 1D 12 C0
  can0  50A   [8]  64 7E 7E FF 00 00 00 00
  can0  502   [8]  40 00 00 00 00 00 00 00
  can0  501   [8]  0A 3B 06 81 2E 1D 12 F1
  can0  50A   [8]  64 7E 7E FF 00 00 00 00
  can0  503   [8]  01 E7 96 06 71 00 00 00
  can0  501   [8]  0A 3C 06 8D 2E 1D 13 1D
  can0  50A   [8]  64 7E 7E FF 00 00 00 00
  can0  505   [8]  0A B5 FB 74 15 15 5F 00
  can0  501   [8]  0A 3C 06 7D 2E 1D 13 42
  can0  50A   [8]  64 7E 7E FF 00 00 00 00
  can0  50C   [8]  46 1A 00 00 00 00 01 00
  can0  506   [8]  00 00 01 01 3F 4E 0A 00
  can0  501   [8]  0A 37 06 60 2E 1D 13 5A
  can0  50A   [8]  64 7E 7E FF 00 00 00 00
  can0  50D   [8]  00 00 00 79 00 00 00 21
  can0  351   [8]  7C 0B 96 00 A4 06 D8 09
  can0  355   [8]  5F 00 64 00 09 7A 59 00
  can0  356   [8]  AE 0A F1 04 00 00 00 00
  can0  358   [8]  5C 0F 02 0E 35 0F 01 02
  can0  359   [8]  15 00 01 01 14 00 01 03
  can0  35B   [8]  01 00 00 00 00 00 00 00
  can0  35C   [8]  04 00 2A 00 FC FF 17 00
  can0  3D2   [8]  11 00 00 00 00 00 19 00
  can0  501   [8]  0A 39 06 BE 2E 1D 13 6F
  can0  35A   [8]  00 00 00 00 80 00 00 00
  can0  50A   [8]  64 7E 7E FF 00 00 00 00
  can0  50F   [8]  00 00 00 00 00 00 00 00
  can0  501   [8]  0A 3A 07 17 2E 1E 13 7E
  can0  50A   [8]  64 7E 7E FF 00 00 00 00
  can0  501   [8]  0A 3A 06 D0 2E 1D 13 86
  can0  50A   [8]  64 7E 7E FF 00 00 00 00
  can0  501   [8]  0A 3B 06 5C 2F 1E 13 89
  can0  50A   [8]  64 7E 7E FF 00 00 00 00
  can0  50C   [8]  46 1A 00 00 00 00 01 00
  can0  501   [8]  0A 3D 06 1B 2F 1E 13 93
  can0  50A   [8]  64 7E 7E FF 00 00 00 00
  can0  500   [8]  00 0F 00 00 01 C4 00 00
  can0  501   [8]  0A 3C 06 1B 2F 1E 13 9B
  can0  50A   [8]  64 7E 7E FF 00 00 00 00
  can0  502   [8]  40 00 00 00 00 00 00 00
  can0  501   [8]  0A 3D 06 52 2F 1E 13 A1
  can0  50A   [8]  64 7E 7E FF 00 00 00 00
  can0  503   [8]  01 E7 96 06 71 00 00 00
  can0  501   [8]  0A 3B 06 94 2F 1E 13 AD
  can0  50A   [8]  64 7E 7E FF 00 00 00 00
  can0  505   [8]  0A AE FB 0F 15 15 5F 00
  can0  501   [8]  0A 39 06 68 2F 1E 13 AE
  can0  50A   [8]  64 7E 7E FF 00 00 00 00
  can0  50C   [8]  46 1A 00 00 00 00 01 00
  can0  506   [8]  00 00 01 01 59 7A 09 00
  can0  501   [8]  0A 34 06 4C 2F 1E 13 B0
  can0  50A   [8]  64 7E 7E FF 00 00 00 00
  can0  50D   [8]  00 00 00 79 00 00 00 21
  can0  351   [8]  7C 0B 96 00 A4 06 D8 09
  can0  355   [8]  5F 00 64 00 09 51 59 00
  can0  501   [8]  0A 36 06 B0 2F 1E 13 B0
  can0  356   [8]  A1 0A 06 05 00 00 00 00
  can0  358   [8]  4C 0F 02 0D 21 0F 03 0C
  can0  359   [8]  15 00 01 01 14 00 01 02
  can0  35B   [8]  01 00 00 00 00 00 00 00
  can0  35C   [8]  04 00 2A 00 FC FF 17 00
  can0  3D2   [8]  11 00 00 00 00 00 19 00
  can0  35A   [8]  00 00 00 00 80 00 00 00
  can0  50A   [8]  64 7E 7E FF 00 00 00 00
  can0  50F   [8]  00 00 00 00 00 00 00 00
  can0  501   [8]  0A 3A 06 C3 2F 1E 13 A9
  can0  50A   [8]  64 7E 7E FF 00 00 00 00
  can0  501   [8]  0A 3B 06 39 2F 1E 13 A9
  can0  50A   [8]  64 7E 7E FF 00 00 00 00
  can0  501   [8]  0A 3A 06 74 2F 1E 13 AF
  can0  50A   [8]  64 7E 7E FF 00 00 00 00
  can0  50C   [8]  46 1A 00 00 00 00 01 00
  can0  501   [8]  0A 37 06 6A 2F 1E 13 AA
  can0  50A   [8]  64 7E 7E FF 00 00 00 00
  can0  500   [8]  00 0F 00 00 01 C4 00 00
  can0  501   [8]  0A 36 06 BC 2F 1F 13 A5
  can0  50A   [8]  64 7E 7E FF 00 00 00 00
  can0  502   [8]  40 00 00 00 00 00 00 00
  can0  501   [8]  0A 39 06 94 2F 1E 13 9D
  can0  50A   [8]  64 7E 7E FF 00 00 00 00
  can0  503   [8]  01 E7 96 06 71 00 00 00
  can0  501   [8]  0A 3C 06 53 2F 1E 13 9B
  can0  50A   [8]  64 7E 7E FF 00 00 00 00
  can0  505   [8]  0A A1 FA FA 15 15 5F 00
  can0  501   [8]  0A 36 06 64 2F 1F 13 9A
  can0  50A   [8]  64 7E 7E FF 00 00 00 00
  can0  50C   [8]  46 1A 00 00 00 00 01 00
  can0  506   [8]  00 00 01 01 5D 51 09 00
  can0  501   [8]  0A 36 06 B4 2F 1F 13 91
  can0  50A   [8]  64 7E 7E FF 00 00 00 00
  can0  50D   [8]  00 00 00 79 00 00 00 21
  can0  351   [8]  7C 0B 96 00 A4 06 D8 09
  can0  355   [8]  5F 00 64 00 09 6E 59 00
  can0  356   [8]  A0 0A F6 04 00 00 00 00
  can0  358   [8]  48 0F 04 0B 11 0F 03 0C
  can0  359   [8]  15 00 02 01 14 00 01 01
  can0  35B   [8]  01 00 00 00 00 00 00 00
  can0  501   [8]  0A 3B 06 3E 2F 1E 13 94
  can0  35C   [8]  04 00 2A 00 FC FF 17 00
  can0  3D2   [8]  11 00 00 00 00 00 19 00
  can0  35A   [8]  00 00 00 00 80 00 00 00
  can0  50A   [8]  64 7E 7E FF 00 00 00 00
  can0  50F   [8]  00 00 00 00 00 00 00 00
  can0  501   [8]  0A 39 06 71 2F 1F 13 9B
  can0  50A   [8]  64 7E 7E FF 00 00 00 00
  can0  501   [8]  0A 36 06 A9 2F 1F 13 99
  can0  50A   [8]  64 7E 7E FF 00 00 00 00
  can0  501   [8]  0A 39 06 A9 2F 1F 13 96
  can0  50A   [8]  64 7E 7E FF 00 00 00 00
  can0  50C   [8]  46 1A 00 00 00 00 01 00
  can0  501   [8]  0A 3A 06 50 2F 1F 13 9D
  can0  50A   [8]  64 7E 7E FF 00 00 00 00
  can0  500   [8]  00 0F 00 00 01 C4 00 00
  can0  501   [8]  0A 35 06 54 2F 1F 13 A0
  can0  50A   [8]  64 7E 7E FF 00 00 00 00
  can0  502   [8]  40 00 00 00 00 00 00 00
  can0  501   [8]  0A 35 06 CD 2F 1F 13 9B
  can0  50A   [8]  64 7E 7E FF 00 00 00 00
  can0  503   [8]  01 E7 96 06 71 00 00 00
  can0  501   [8]  0A 39 06 5D 2F 1F 13 94
  can0  50A   [8]  64 7E 7E FF 00 00 00 00
  can0  505   [8]  0A A0 FB 0A 15 15 5F 00
  can0  501   [8]  0A 37 06 74 2F 1F 13 94
  can0  50A   [8]  64 7E 7E FF 00 00 00 00
  can0  50C   [8]  46 1A 00 00 00 00 01 00
  can0  506   [8]  00 00 01 01 59 6E 09 00
  can0  501   [8]  0A 35 06 B9 2F 1F 13 99
  can0  50A   [8]  64 7E 7E FF 00 00 00 00
  can0  50D   [8]  00 00 00 79 00 00 00 21
  can0  501   [8]  0A 3A 06 43 30 1F 13 9B
  can0  351   [8]  7C 0B 96 00 A4 06 D8 09
  can0  355   [8]  5F 00 64 00 09 83 59 00
  can0  356   [8]  9F 0A EB 04 00 00 00 00
  can0  358   [8]  4D 0F 02 0D 1E 0F 03 0A
  can0  359   [8]  15 00 01 01 14 00 01 02
  can0  35B   [8]  01 00 00 00 00 00 00 00
  can0  35C   [8]  04 00 2A 00 FC FF 17 00
  can0  3D2   [8]  11 00 00 00 00 00 19 00
  can0  35A   [8]  00 00 00 00 80 00 00 00
  can0  50A   [8]  64 7E 7E FF 00 00 00 00
  can0  50F   [8]  00 00 00 00 00 00 00 00
  can0  501   [8]  0A 37 06 70 30 20 13 A0
  can0  50A   [8]  64 7E 7E FF 00 00 00 00
  can0  501   [8]  0A 32 06 7A 30 20 13 A0
  can0  50A   [8]  64 7E 7E FF 00 00 00 00
  can0  501   [8]  0A 37 06 6E 30 1F 13 9F
  can0  50A   [8]  64 7E 7E FF 00 00 00 00
  can0  50C   [8]  46 1A 00 00 00 00 01 00
  can0  501   [8]  0A 37 06 7E 30 1F 13 9B
  can0  50A   [8]  64 7E 7E FF 00 00 00 00
  can0  500   [8]  00 0F 00 00 01 C4 00 00
  can0  501   [8]  0A 32 06 73 30 20 13 95
  can0  50A   [8]  64 7E 7E FF 00 00 00 00
  can0  502   [8]  40 00 00 00 00 00 00 00
  can0  501   [8]  0A 35 06 BA 30 20 13 9A
  can0  50A   [8]  64 7E 7E FF 00 00 00 00
  can0  503   [8]  01 E7 96 06 71 00 00 00
  can0  501   [8]  0A 36 06 49 30 20 13 9E
  can0  50A   [8]  64 7E 7E FF 00 00 00 00
  can0  505   [8]  0A 9F FB 15 15 15 5F 00
  can0  501   [8]  0A 32 06 5A 30 20 13 9F
  can0  50A   [8]  62 7E 7E FF 00 00 00 00
  can0  50C   [8]  46 1A 00 00 00 00 01 00
  can0  506   [8]  00 00 01 01 56 83 09 00
  can0  501   [8]  0A 33 06 A6 30 20 13 9C
  can0  50A   [8]  5B 7E 7E FF 00 00 00 00
  can0  50D   [8]  00 00 00 79 00 00 00 21
  can0  351   [8]  7C 0B 96 00 A4 06 D8 09
  can0  355   [8]  5F 00 64 00 09 61 59 00
  can0  356   [8]  9D 0A FC 04 00 00 00 00
  can0  501   [8]  0A 36 06 4E 30 20 13 99
  can0  358   [8]  44 0F 05 0A 15 0F 03 0C
  can0  359   [8]  15 00 01 01 14 00 01 03
  can0  35B   [8]  01 00 00 00 00 00 00 00
  can0  35C   [8]  04 00 2A 00 FC FF 17 00
  can0  3D2   [8]  11 00 00 00 00 00 19 00
  can0  35A   [8]  00 00 00 00 80 00 00 00
  can0  50A   [8]  4B 7E 7E FF 00 00 00 00
  can0  50F   [8]  00 00 00 00 00 00 00 00
  can0  501   [8]  0A 2C 05 21 30 20 13 77
  can0  50A   [8]  39 7E 7E FF 00 00 00 00
  can0  501   [8]  0A 42 04 98 30 20 13 19
  can0  50A   [8]  2D 7E 7E FF 00 00 00 00
  can0  501   [8]  0A 59 03 35 30 20 12 8D
  can0  50A   [8]  26 7E 7E FF 00 00 00 00
  can0  50C   [8]  46 1A 00 00 00 00 01 00
  can0  501   [8]  0A 5E 01 B0 30 20 11 CC
  can0  50A   [8]  1D 7E 7E FF 00 00 00 00
  can0  500   [8]  00 0F 00 00 01 C4 00 00
  can0  501   [8]  0A 60 00 D8 30 20 10 F6
  can0  50A   [8]  15 7E 7E FF 00 00 00 00
  can0  502   [8]  40 00 00 00 00 00 00 00
  can0  501   [8]  0A 61 00 8F 30 20 10 0A
  can0  50A   [8]  0C 7E 7E FF 00 00 00 00
  can0  503   [8]  01 FD 62 06 71 00 00 00
  can0  501   [8]  0A 61 00 4E 30 20 0F 0B
  can0  50A   [8]  04 7E 7E FF 00 00 00 00
  can0  505   [8]  0A 9D FB 04 15 15 5F 00
  can0  501   [8]  0A 62 00 48 30 20 0D FF
  can0  50A   [8]  03 7E 7E FF 00 00 00 00
  can0  50C   [8]  46 1A 00 00 00 00 01 00
  can0  506   [8]  00 00 01 01 5A 61 09 00
  can0  501   [8]  0A 62 00 3C 2F 20 0C EE
  can0  50A   [8]  03 7D 7E FF 00 00 00 00
  can0  50D   [8]  00 00 00 79 00 00 00 21
  can0  351   [8]  7C 0B 96 00 A4 06 D8 09
  can0  355   [8]  5F 00 64 00 FF FF 59 00
  can0  501   [8]  0A 63 00 2D 2F 20 0B D1
  can0  356   [8]  9C 0A 00 00 00 00 00 00
  can0  358   [8]  52 0F 01 0E 19 0F 01 02
  can0  359   [8]  15 00 01 01 14 00 01 02
  can0  35B   [8]  01 00 00 00 00 00 00 00
  can0  35C   [8]  04 00 2A 00 FC FF 17 00
  can0  3D2   [8]  11 00 00 00 00 00 19 00
  can0  35A   [8]  00 00 00 00 00 00 00 00
  can0  50A   [8]  03 7D 7E FF 00 00 00 00
  can0  50F   [8]  00 00 00 00 00 00 00 00
  can0  501   [8]  0A 63 00 2A 2F 21 0A C4
  can0  50A   [8]  03 7D 7E FF 00 00 00 00
  can0  501   [8]  0A 63 00 26 2E 21 09 F4
  can0  50A   [8]  03 7D 7D FF 00 00 00 00
  can0  501   [8]  0A D0 00 0E 2E 21 09 48
  can0  50A   [8]  03 7D 7D FF 00 00 00 00
  can0  50C   [8]  28 1A 00 00 00 00 01 00
  can0  501   [8]  0B 0F 00 02 2E 21 08 C2
  can0  50A   [8]  03 7D 7D FF 00 00 00 00
  can0  500   [8]  00 0F 00 00 01 C4 00 00
  can0  501   [8]  0B 10 00 03 2E 21 08 4B
  can0  50A   [8]  03 7D 7D FF 00 00 00 00
  can0  502   [8]  40 00 00 00 00 00 00 00
  can0  501   [8]  0B 10 00 03 2D 21 07 DF
  can0  50A   [8]  03 7D 7D FF 00 00 00 00
  can0  503   [8]  00 00 00 00 00 00 00 00
  can0  501   [8]  0B 11 00 03 2D 21 07 7A
  can0  50A   [8]  03 7D 7D FF 00 00 00 00
  can0  505   [8]  0A 9C 00 00 15 15 5F 00
  can0  501   [8]  0B 10 00 03 2D 21 07 15
  can0  50A   [8]  03 7D 7D FF 00 00 00 00
  can0  50C   [8]  28 1A 00 00 00 00 01 00
  can0  506   [8]  00 00 01 00 00 FF FF 00
  can0  501   [8]  0B 12 00 02 2C 21 06 B6
  can0  50A   [8]  03 7D 7D FF 00 00 00 00
  can0  50D   [8]  00 00 00 79 00 00 00 21
  can0  351   [8]  7C 0B 96 00 A4 06 D8 09
  can0  355   [8]  5F 00 64 00 FF FF 59 00
  can0  356   [8]  03 0B 00 00 00 00 00 00
  can0  358   [8]  C3 0F 02 0A B6 0F 05 08
  can0  359   [8]  16 00 02 02 14 00 01 02
  can0  501   [8]  0B 11 00 03 2C 21 06 56
  can0  35B   [8]  01 00 00 00 00 00 00 00
  can0  35C   [8]  04 00 2A 00 FC FF 17 00
  can0  3D2   [8]  11 00 00 00 00 00 19 00
  can0  35A   [8]  00 00 00 00 00 00 00 00
  can0  50A   [8]  03 7D 7D FF 00 00 00 00
  can0  50F   [8]  00 00 00 00 00 00 00 00
  can0  501   [8]  0B 13 00 03 2C 21 05 F8
  can0  50A   [8]  03 7D 7D FF 00 00 00 00
  can0  501   [8]  0B 12 00 03 2C 21 05 99
  can0  50A   [8]  03 7D 7D FF 00 00 00 00
  can0  501   [8]  0B 13 00 03 2C 21 05 3E
  can0  50A   [8]  03 7D 7D FF 00 00 00 00
  can0  50C   [8]  28 1A 00 00 00 00 01 00
  can0  501   [8]  0B 13 00 03 2B 21 04 E2
  can0  50A   [8]  03 7D 7D FF 00 00 00 00
  can0  500   [8]  00 0F 00 00 01 C4 00 00
  can0  501   [8]  0B 14 00 02 2B 21 04 8B
  can0  50A   [8]  03 7D 7D FF 00 00 00 00
  can0  502   [8]  40 00 00 00 00 00 00 00
  can0  501   [8]  0B 13 00 03 2B 21 04 34
  can0  50A   [8]  03 7D 7D FF 00 00 00 00
  can0  503   [8]  00 00 00 00 00 00 00 00
  can0  501   [8]  0B 16 00 03 2B 21 03 DF
  can0  50A   [8]  03 7D 7D FF 00 00 00 00
  can0  505   [8]  0B 03 00 00 16 16 5F 00
  can0  501   [8]  0B 14 00 03 2B 21 03 8D
  can0  50A   [8]  03 7D 7D FF 00 00 00 00
  can0  50C   [8]  28 1A 00 00 00 00 01 00
  can0  506   [8]  00 00 01 00 00 FF FF 00
  can0  501   [8]  0B 16 00 03 2B 21 03 3E
  can0  50A   [8]  03 7D 7D FF 00 00 00 00
  can0  50D   [8]  00 00 00 79 00 00 00 21
  can0  501   [8]  0B 16 00 03 2B 21 02 F1
  can0  351   [8]  7C 0B 96 00 A4 06 D8 09
  can0  355   [8]  5F 00 64 00 FF FF 59 00
  can0  356   [8]  09 0B 00 00 00 00 00 00
  can0  358   [8]  CA 0F 02 0A BF 0F 05 08
  can0  359   [8]  15 00 01 01 14 00 01 02
  can0  35B   [8]  01 00 00 00 00 00 00 00
  can0  35C   [8]  04 00 2A 00 FB FF 18 00
  can0  3D2   [8]  11 00 00 00 00 00 19 00
  can0  35A   [8]  00 00 00 00 00 00 00 00
  can0  50A   [8]  03 7D 7D FF 00 00 00 00
  can0  50F   [8]  00 00 00 00 00 00 00 00
  can0  501   [8]  0B 16 00 02 2A 21 02 A6
  can0  50A   [8]  03 7D 7D FF 00 00 00 00
  can0  501   [8]  0B 16 00 03 2A 21 02 5D
  can0  50A   [8]  03 7D 7D FF 00 00 00 00
  can0  501   [8]  0B 16 00 02 2A 21 02 16
  can0  50A   [8]  03 7D 7D FF 00 00 00 00
  can0  50C   [8]  28 1A 00 00 00 00 01 00
  can0  501   [8]  0B 18 00 02 2A 21 01 D2
  can0  50A   [8]  03 7D 7D FF 00 00 00 00
  can0  500   [8]  00 0F 00 00 01 C4 00 00
  can0  501   [8]  0B 17 00 03 2A 21 01 91
  can0  50A   [8]  03 7D 7D FF 00 00 00 00
  can0  502   [8]  40 00 00 00 00 00 00 00
  can0  501   [8]  0B 18 00 03 2A 21 01 53
  can0  50A   [8]  03 7D 7D FF 00 00 00 00
  can0  503   [8]  00 00 00 00 00 00 00 00
  can0  501   [8]  0B 18 00 00 2A 21 01 18
  can0  50A   [8]  03 7D 7D FF 00 00 00 00
  can0  505   [8]  0B 09 00 00 15 15 5F 00
  can0  501   [8]  0B 18 00 00 2A 21 00 E0
  can0  50A   [8]  03 7D 7D FF 00 00 00 00
  can0  50C   [8]  28 1A 00 00 00 00 01 00
  can0  506   [8]  00 00 01 00 00 FF FF 00
  can0  501   [8]  0B 19 00 00 29 21 00 AF
  can0  50A   [8]  03 7D 7D FF 00 00 00 00
  can0  50D   [8]  00 00 00 79 00 00 00 21
  can0  501   [8]  0B 18 00 00 29 21 00 85
  can0  50A   [8]  03 7D 7D FF 00 00 00 00
  can0  50F   [8]  00 00 00 00 00 00 00 00
  can0  351   [8]  7C 0B 96 00 A4 06 D8 09
  can0  355   [8]  5F 00 64 00 FF FF 59 00
  can0  356   [8]  10 0B 00 00 00 00 00 00
  can0  358   [8]  D5 0F 02 0A C8 0F 05 08
  can0  359   [8]  15 00 01 01 14 00 01 02
  can0  35B   [8]  01 00 00 00 00 00 00 00
  can0  35C   [8]  04 00 2A 00 FB FF 18 00
  can0  3D2   [8]  11 00 00 00 00 00 19 00
  can0  35A   [8]  00 00 00 00 00 00 00 00
  can0  501   [8]  0B 1A 00 00 29 21 00 61
  can0  50A   [8]  03 7D 7D FF 00 00 00 00
  can0  501   [8]  0B 19 00 00 29 22 00 44
  can0  50A   [8]  03 7D 7D FF 00 00 00 00
  can0  501   [8]  0B 1A 00 00 29 22 00 2B
  can0  50A   [8]  03 7D 7D FF 00 00 00 00
  can0  50C   [8]  28 1A 00 00 00 00 01 00
  can0  501   [8]  0B 1A 00 00 29 22 00 19
  can0  50A   [8]  03 7D 7D FF 00 00 00 00
  can0  500   [8]  00 0F 00 00 01 C4 00 00
  can0  501   [8]  0B 1A 00 00 29 22 00 0C
  can0  50A   [8]  03 7D 7D FF 00 00 00 00
  can0  502   [8]  40 00 00 00 00 00 00 00
  can0  501   [8]  0B 1A 00 00 29 22 00 03
  can0  50A   [8]  03 7D 7D FF 00 00 00 00
  can0  503   [8]  00 00 00 00 00 00 00 00
  can0  501   [8]  0B 1B 00 00 29 22 00 00
  can0  50A   [8]  03 7D 7D FF 00 00 00 00
  can0  505   [8]  0B 10 00 00 15 15 5F 00
  can0  501   [8]  0B 1B 00 00 28 22 00 00
  can0  50A   [8]  03 7D 7D FF 00 00 00 00
  can0  50C   [8]  28 1A 00 00 00 00 01 00
  can0  506   [8]  00 00 01 00 00 FF FF 00
  can0  501   [8]  0B 1B 00 00 28 22 00 00
  can0  50A   [8]  03 7D 7D FF 00 00 00 00
  can0  50D   [8]  00 00 00 79 00 00 00 21
  can0  501   [8]  0B 1C 00 00 28 22 00 00
  can0  50A   [8]  03 7D 7D FF 00 00 00 00
  can0  50F   [8]  00 00 00 00 00 00 00 00
  can0  501   [8]  0B 1C 00 00 28 22 00 00
  can0  50A   [8]  03 7D 7D FF 00 00 00 00
  can0  351   [8]  7C 0B 96 00 A4 06 D8 09
  can0  355   [8]  5F 00 64 00 FF FF 59 00
  can0  356   [8]  12 0B 00 00 00 00 00 00
  can0  358   [8]  D9 0F 02 0A CC 0F 05 08
  can0  359   [8]  15 00 01 01 14 00 01 02
  can0  35B   [8]  01 00 00 00 00 00 00 00
  can0  35C   [8]  04 00 2A 00 FB FF 18 00
  can0  3D2   [8]  11 00 00 00 00 00 19 00
  can0  35A   [8]  00 00 00 00 00 00 00 00
  can0  501   [8]  0B 1C 00 00 28 22 00 00
  can0  50A   [8]  03 7D 7D FF 00 00 00 00
  can0  501   [8]  0B 1C 00 00 28 22 00 00
  can0  50A   [8]  03 7D 7D FF 00 00 00 00
  can0  50C   [8]  28 1A 00 00 00 00 01 00
  can0  501   [8]  0B 1C 00 00 28 22 00 00
  can0  50A   [8]  03 7D 7D FF 00 00 00 00
  can0  500   [8]  00 0F 00 00 01 C4 00 00
  can0  501   [8]  0B 1C 00 00 28 22 00 00
  can0  50A   [8]  03 7D 7D FF 00 00 00 00
  can0  502   [8]  40 00 00 00 00 00 00 00
  can0  501   [8]  0B 1D 00 00 28 22 00 00
  can0  50A   [8]  03 7D 7D FF 00 00 00 00
  can0  503   [8]  00 00 00 00 00 00 00 00
  can0  501   [8]  0B 1D 00 00 28 22 00 00
  can0  50A   [8]  03 7D 7D FF 00 00 00 00
  can0  505   [8]  0B 12 00 00 15 15 5F 00
  can0  501   [8]  0B 1E 00 00 28 22 00 00
  can0  50A   [8]  03 7D 7D FF 00 00 00 00
  can0  501   [8]  0a 92 00 00 16 12 00 00
  can0  502   [8]  00 00 00 00 00 00 00 00
  can0  505   [8]  0a 81 00 00 16 16 42 00
  can0  506   [8]  00 00 01 00 00 ff ff 00
  can0  50f   [8]  00 00 00 00 00 00 00 00
  Logging stopped.
  cansend vcan0 501#0a92000016120000
  cansend vcan0 502#0000000000000000
  cansend vcan0 505#0a81000016164200
  cansend vcan0 506#0000010000ffff00
  cansend vcan0 50f#0000000000000000